!Keysight Technologies N9923A: A.08.19
!Date: Thursday, 16 January 2020 11:30:00
!TimeZone: (GMT-03:00) Brasilia!Model: N9923A
!Serial: MY51491501
!GPS Latitude: 
!GPS Longitude: 
!GPS TimeStamp: 0001-01-01 00:00:00Z
!GPS Seconds Since Last Read: 0
!CHECKSUM:1078980270
!Correction: S11(ON U)
!S1P File: Measurement: S11:
# Hz S DB R 50
23740000 0.00501174 -27.50233523
47276300 0.00647868 -61.85188327
70812600 -0.04595874 -133.85465184
94348900 -0.17098225 49.41839759
117885200 -0.04214419 -23.51670712
141421500 -0.02730398 -55.25039035
164957800 -0.05110471 -78.09506197
188494100 -0.17424068 -100.28246325
212030400 -1.17917204 -131.91188947
235566700 -10.82464256 -174.82875851
259103000 -1.09396299 -51.84691336
282639300 -0.23257086 -98.61998484
306175600 -0.35199189 -118.38944029
329711900 -0.91647723 -134.40764957
353248200 -2.61052695 -143.7405566
376784500 -2.77801836 -146.97884228
400320800 -10.7977439 -168.12501858
423857100 -1.1046227 -129.4366533
447393400 -1.10939389 -148.61887835
470929700 -2.1645817 -157.0338118
494466000 -2.23196719 -155.6067807
518002300 -1.55343921 -162.20503413
541538600 -2.25257196 -173.00756559
565074900 -2.42420344 -165.1811254
588611200 -2.23282617 -174.98585608
612147500 -3.11900583 -172.32486952
635683800 -1.81337315 -172.21272629
659220100 -1.32971549 179.69659685
682756400 -1.70449035 173.87632145
706292700 -1.45047071 170.89273963
729829000 -1.7686742 162.24585359
753365300 -3.5237986 163.20466071
776901600 -2.29725641 169.45263968
800437900 -1.77488013 163.1887478
823974200 -1.75670487 161.40066269
847510500 -1.21434285 155.39331539
871046800 -1.2385558 146.33862193
894583100 -2.49944778 139.06317447
918119400 -3.77247124 145.34252075
941655700 -2.85778781 152.25019691
965192000 -1.60078756 148.30207121
988728300 -1.10203822 141.42806184
1012264600 -0.95495258 132.81571301
1035800899 -1.7460911 121.41920381
1059337200 -5.23939029 121.58396491
1082873500 -3.51593506 146.5403976
1106409800 -1.37363388 138.834583
1129946100 -0.83722477 129.23133696
1153482400 -0.90235004 120.45417419
1177018700 -1.55812674 111.5083459
1200555000 -4.00350527 106.64523706
1224091300 -3.69731493 132.73151785
1247627600 -1.22131296 125.15071104
1271163900 -0.72580333 115.78917339
1294700200 -0.74343866 107.86806739
1318236500 -1.21282479 100.39779219
1341772800 -2.68418969 96.14192113
1365309100 -3.56499781 105.79867112
1388845400 -1.51819646 108.52371646
1412381700 -0.66968972 99.28785685
1435918000 -0.67631686 92.14261883
1459454300 -0.92600757 86.52738918
1482990600 -1.5833676 82.12430775
1506526900 -2.20184119 87.73086731
1530063200 -0.98282318 86.13871574
1553599500 -0.69522383 80.5708544
1577135800 -0.64390262 75.97215495
1600672100 -0.65887637 71.59432526
1624208400 -0.92950282 66.73456257
1647744700 -1.09457763 67.71181678
1671281000 -0.79996252 64.26473691
1694817300 -0.72682352 60.66885628
1718353600 -0.69433349 57.25508164
1741889900 -0.67293548 53.93401967
1765426200 -0.65537402 50.66435463
1788962500 -0.63947009 47.42786456
1812498800 -0.62475282 44.21675263
1836035100 -0.61157365 41.0281812
1859571400 -0.60084537 37.86125797
1883107700 -0.59395054 34.71462859
1906644000 -0.59262622 31.58392074
1930180300 -0.5986623 28.45900572
1953716600 -0.61326563 25.3220737
1977252900 -0.63610327 22.14881516
2000789199 -0.66445372 18.91511352
2024325500 -0.69329543 15.60821838
2047861800 -0.71680803 12.23547606
2071398100 -0.73050525 8.82286022
2094934400 -0.73246851 5.40379077
2118470700 -0.72297996 2.0065572
2142007000 -0.70301559 -1.35342973
2165543300 -0.67157615 -4.6781602
2189079600 -0.61462977 -7.98756665
2212615900 -0.47010623 -10.44545749
2236152200 -0.60891525 -13.41924748
2259688500 -0.58075718 -16.77784526
2283224800 -0.54170621 -20.03359633
2306761100 -0.52851531 -23.48614642
2330297400 -0.65941238 -26.75206407
2353833700 -0.73466409 -28.57305137
2377370000 -0.67903961 -30.72450138
2400906300 -0.63085908 -33.21632169
2424442600 -0.63047281 -36.31329605
2447978900 -0.62981426 -39.34725953
2471515200 -0.62868215 -42.32093812
2495051500 -0.62691426 -45.23702352
2518587800 -0.62438305 -48.09815355
2542124100 -0.62099147 -50.9068967
2565660400 -0.61666918 -53.66574026
2589196700 -0.61136898 -56.37708117
2612733000 -0.6050637 -59.04321908
2636269300 -0.59774325 -61.66635096
2659805600 -0.58941214 -64.24856684
2683341900 -0.58008711 -66.7918461
2706878200 -0.5697952 -69.29805379
2730414500 -0.55857203 -71.7689365
2753950800 -0.54646031 -74.20611711
2777487100 -0.53350875 -76.61108756
2801023400 -0.51977129 -78.98519884
2824559700 -0.50530682 -81.32964658
2848096000 -0.49017955 -83.64545061
2871632300 -0.4744605 -85.9334256
2895168600 -0.45823056 -88.19413908
2918704900 -0.4415866 -90.42785149
2942241200 -0.42465249 -92.63443088
2965777500 -0.40759937 -94.81323353
2989313800 -0.39068284 -96.96294305
3012850100 -0.37431215 -99.08137428
3036386400 -0.35918052 -101.16530315
3059922700 -0.34650985 -103.21056815
3083459000 -0.33849265 -105.21325562
3106995300 -0.33897503 -107.17433571
3130531600 -0.35394599 -109.11323576
3154067900 -0.38940661 -111.09535962
3177604200 -0.44145278 -113.24423557
3201140500 -0.48505921 -115.63730515
3224676800 -0.4936966 -118.15345565
3248213100 -0.4701061 -120.60029399
3271749400 -0.43277555 -122.9095444
3295285700 -0.39429911 -125.10611638
3318822000 -0.35935424 -127.22986004
3342358300 -0.32879539 -129.30944204
3365894600 -0.30222586 -131.36210044
3389430900 -0.2789973 -133.39778639
3412967200 -0.25851532 -135.42231672
3436503500 -0.24030381 -137.4392264
3460039800 -0.22399757 -139.45078658
3483576100 -0.20931922 -141.45855875
3507112400 -0.19605693 -143.46370003
3530648700 -0.18404665 -145.46713492
3554185000 -0.17315894 -147.46965431
3577721300 -0.16328932 -149.47197419
3601257600 -0.15435136 -151.47477129
3624793900 -0.14627171 -153.47870561
3648330200 -0.13898647 -155.48443491
3671866500 -0.13243858 -157.49262469
3695402800 -0.12657592 -159.5039551
3718939100 -0.12134997 -161.51912621
3742475400 -0.1167148 -163.53886215
3766011700 -0.11262642 -165.5639145
3789548000 -0.10904232 -167.59506539
3813084300 -0.10592117 -169.6331303
3836620600 -0.10322276 -171.67896076
3860156900 -0.10090795 -173.7334471
3883693200 -0.09893884 -175.79752118
3907229500 -0.09727894 -177.87215942
3930765800 -0.09589353 -179.95838587
3954302100 -0.09475004 177.94272429
3977838400 -0.09381859 175.83004087
4001374700 -0.09307254 173.70237435
4024911000 -0.09248921 171.55847083
4048447300 -0.09205061 169.39700631
4071983600 -0.09174428 167.21657992
4095519900 -0.0915642 165.01570611
4119056200 -0.09151163 162.79280556
4142592500 -0.09159605 160.54619457
4166128800 -0.09183597 158.27407301
4189665100 -0.0922595 155.97451064
4213201400 -0.09290486 153.64543215
4236737700 -0.09382032 151.2846011
4260274000 -0.09506382 148.88960365
4283810300 -0.09670196 146.45783318
4307346600 -0.09880824 143.98647722
4330882900 -0.10146081 141.47250894
4354419200 -0.10473944 138.91268539
4377955500 -0.10872221 136.30355516
4401491800 -0.1134822 133.64147755
4425028100 -0.11908464 130.92265497
4448564400 -0.1255852 128.14317866
4472100700 -0.13303002 125.2990866
4495637000 -0.14145806 122.38643027
4519173300 -0.15090598 119.40134584
4542709600 -0.16141546 116.3401244
4566245900 -0.17304265 113.19927623
4589782200 -0.18586878 109.97558552
4613318500 -0.20001093 106.66615426
4636854800 -0.21563193 103.2684363
4660391100 -0.2329483 99.78026523
4683927400 -0.25223562 96.19988056
4707463700 -0.27383074 92.52595736
4731000000 -0.29813082 88.75764342
