!Keysight Technologies N9952A: A.10.01
!Date: Friday, 04 October 2019 12:12:07
!TimeZone: !Model: N9952A
!Serial: MY57201149
!GPS Latitude: 
!GPS Longitude: 
!GPS TimeStamp: 0001-01-01 00:00:00Z
!GPS Seconds Since Last Read: 0
!CHECKSUM:1572768750
!Correction: S11(Rdy)
!S1P File: Measurement: S11:
# Hz S DB R 50
23538392	-41.9837948954768	9.57527613272695
47076784.21	-40.502091497616	-16.4904780379135
70615176.42	-32.9069835204398	135.370440652198
94153568.63	-35.6133139743234	-61.5314453758199
117691960.84	-37.1415268837099	164.09387557481
141230353.05	-30.9908612686257	-16.3400604458575
164768745.26	-30.6690661096029	142.848190548759
188307137.47	-36.4193163165681	-57.5461615967467
211845529.68	-50.4988320325797	108.893448184152
235383921.89	-68.9690017739354	49.4063236128766
258922314.1	-71.192698072358	146.226030987077
282460706.31	-68.3584429628015	104.001891371294
305999098.52	-66.8856225633702	-119.860151180687
329537490.73	-70.1071235269492	166.056205673882
353075882.94	-76.2780887830946	148.4027793328
376614275.15	-63.4882734712095	-113.571373389038
400152667.36	-60.5630108241993	15.4822920539436
423691059.57	-58.5417305918264	166.166659720369
447229451.78	-58.5979020726912	-36.3872665828757
470767843.99	-57.0860663895402	129.694815579101
494306236.2	-61.4020115745105	-91.7940969567387
517844628.41	-66.9591340165517	-32.6631033786076
541383020.62	-63.9851190256242	76.028966907719
564921412.83	-69.0060651679203	-175.022709971633
588459805.04	-61.7187013136014	128.933212038603
611998197.25	-61.2199761592638	-84.5439262936645
635536589.46	-62.3545456169474	127.253303881573
659074981.67	-60.0301999746716	-88.3304672111547
682613373.88	-59.5096582668849	99.015371587584
706151766.09	-58.8947634429365	-118.092743962385
729690158.3	-60.7069826882519	46.6428417203912
753228550.51	-58.0608724801623	-162.450766782374
776766942.72	-64.039940009952	-86.1412603062238
800305334.93	-71.2955644343486	139.283020418414
823843727.14	-60.5851667378093	-101.372538697956
847382119.35	-60.2403164463736	2.68264219581159
870920511.56	-68.5050580385908	154.137050672356
894458903.77	-61.8625032880346	-152.945596428189
917997295.98	-61.4331679108253	2.8356425700935
941535688.190001	-63.5705241406962	-179.340279322064
965074080.400001	-64.3005256826368	-12.7139010209489
988612472.610001	-64.6583644227648	-138.18014335548
1012150864.82	-68.1056241410166	71.6094329054526
1035689257.03	-66.0662388067609	-176.326169169882
1059227649.24	-63.2726284346188	79.0049359450801
1082766041.45	-57.1632265543894	-140.88370659075
1106304433.66	-56.1351911012629	-76.1978911983243
1129842825.87	-62.4537998871002	94.4371675186242
1153381218.08	-58.5429614844096	-96.1856188392797
1176919610.29	-43.5240272661149	87.0453587548667
1200458002.5	-33.9311325161264	-107.121242530032
1223996394.71	-30.2236225311362	58.6232113446449
1247534786.92	-26.8155274627075	-110.981440537481
1271073179.13	-47.5131660134995	56.6811021325103
1294611571.34	-10.8458877316996	30.6734522040087
1318149963.55	-3.5056629831629	177.904362193358
1341688355.76	-3.76635295002666	-38.2792319398407
1365226747.97	-11.0990466439008	102.26713009192
1388765140.18	-25.8283912869968	-110.300352849965
1412303532.39	-29.6054239617525	59.524850454522
1435841924.6	-34.1536574789945	-155.614928782848
1459380316.81	-40.4620931343691	1.05143988575947
1482918709.02	-38.1542544669653	95.8268160825249
1506457101.23	-38.0230392101042	-156.001424702815
1529995493.44	-41.0134456681671	-8.96955702299693
1553533885.65	-44.0418328097009	140.707133999617
1577072277.86	-47.5722305235352	-58.5545120852908
1600610670.07	-49.2620694563795	104.860839563978
1624149062.28	-58.7478957484603	-120.993017071267
1647687454.49	-57.7625987958875	85.2183508348296
1671225846.7	-64.5216502936818	-159.176617607884
1694764238.91	-59.8903013833222	-179.377084909727
1718302631.12	-52.031813833363	-98.2579956825624
1741841023.33	-49.796411731245	20.8608602857701
1765379415.54	-54.8580483798968	121.726542405432
1788917807.75	-66.7679186166646	161.226992656155
1812456199.96	-59.9814941011544	-97.5271263919505
1835994592.17	-59.0846519198713	66.1653687215013
1859532984.38	-59.3022285851056	-139.853847604649
1883071376.59	-51.8106444676254	13.5181007570182
1906609768.8	-50.4178412231845	122.984071258074
1930148161.01	-56.2565011080891	-138.193584762967
1953686553.22	-58.3823914151561	179.904524962658
1977224945.43	-54.6167161820054	-65.2289142229138
2000763337.64	-54.5978907017452	71.7253066304375
2024301729.85	-55.9354883013012	-130.097087641423
2047840122.06	-57.4515701269135	41.1940826959114
2071378514.27	-57.3844119323833	177.455084432484
2094916906.48	-71.3473142116257	93.0709906089314
2118455298.69	-63.015032685036	-139.419929625857
2141993690.9	-61.684618288824	39.9395654117321
2165532083.11	-48.2448434520944	125.978382072133
2189070475.32	-41.3481456443147	-156.414967884696
2212608867.53	-40.326296003487	-74.9256207213289
2236147259.74	-42.7285828675891	-6.54011874555417
2259685651.95	-44.0362742440771	69.0995280673103
2283224044.16	-40.2063608860449	-175.951340580081
2306762436.37	-36.4364377176831	-71.6948935812102
2330300828.58	-36.8793320756715	14.9050249927927
2353839220.79	-40.3546053180374	77.9487043796432
2377377613	-44.085291672382	148.426909632565
2400916005.21	-60.7393878063356	-113.728671059997
2424454397.42	-56.7903996246108	-158.346026345497
2447992789.63	-52.099882135967	-167.257143220846
2471531181.84	-37.3670486141869	-14.1113879973597
2495069574.05	-34.4764756581665	142.810013400194
2518607966.26	-35.6864597805647	-44.1339137742559
2542146358.47	-39.3701839633249	128.754129288204
2565684750.68	-40.8210782849698	5.27105784973022
2589223142.89	-36.9543568489382	173.707160285661
2612761535.1	-42.8707450565151	-25.4844127673027
2636299927.31	-52.9850011741086	-135.285616151403
2659838319.52	-49.3487571316127	27.5767897952369
2683376711.73	-52.908233191122	122.267737690721
2706915103.94	-70.4694280290672	-15.0792557350629
2730453496.15	-57.6961473323549	150.74821311699
2753991888.36	-75.6753787679731	-63.9633623580806
2777530280.57	-68.8346848550533	86.1771575355154
2801068672.78	-65.4600599098126	132.576361013447
2824607064.99	-74.4450467125946	-158.761973148822
2848145457.2	-67.856040235178	156.466078837171
2871683849.41	-66.4490701996893	-90.0023317814387
2895222241.62	-65.679475721476	21.434448177789
2918760633.83	-65.7392552777469	45.0376041621328
2942299026.04	-64.9442039296716	117.212714409065
2965837418.25	-73.222839369886	-126.002435832854
2989375810.46	-68.6351020127085	-6.18530822010942
3012914202.67	-59.861519495693	10.5800750975551
3036452594.88	-55.5760927308457	59.6557357676287
3059990987.09	-57.3675616767784	99.7492294482751
3083529379.3	-56.1276437359678	110.226073004833
3107067771.51	-57.1410366465103	144.410880771239
3130606163.72	-62.2001334128263	141.236871872629
3154144555.93	-63.4819714577978	123.797843328134
3177682948.14	-53.3696307254996	107.908386589271
3201221340.35	-48.0446863498995	160.93502185044
3224759732.56	-48.305364744032	-142.043067170953
3248298124.77	-52.0658388652197	-86.381829376604
3271836516.98	-66.4146806746024	-15.070060427913
3295374909.19	-55.7881482803519	-163.684027552911
3318913301.4	-51.9048423223567	-102.979919695358
3342451693.61	-52.4504715460874	-39.5683379135218
3365990085.82	-58.8017999686527	17.8049790859683
3389528478.03	-62.5383288672169	-0.762456186310832
3413066870.24	-58.9521072028335	68.3419128330338
3436605262.45	-59.4437175379895	130.56372326258
3460143654.66	-57.4074383025768	-177.650987090164
3483682046.87	-56.1718698140377	-104.688297303481
3507220439.08	-60.7724379027973	-40.8629162436354
3530758831.29	-69.7413477805225	-16.9068828885457
3554297223.5	-83.9112588391889	-26.905290743974
3577835615.71	-67.1894882504589	-42.6874014997167
3601374007.92	-67.8493998122216	-6.64806769165162
3624912400.13	-68.1791851487998	73.0790303050917
3648450792.34	-74.3618166336117	-42.882446642946
3671989184.55	-64.4392722571723	124.341079239791
3695527576.76	-64.5841550734521	-49.6542124716617
3719065968.97001	-64.9523842987087	129.407809079744
3742604361.18001	-64.591292774857	-9.22504253766886
3766142753.39001	-59.3129530518517	159.934873138209
3789681145.60001	-67.2668633300116	-17.9543798113192
3813219537.81001	-64.9873537775844	-175.631814439008
3836757930.02001	-71.3969949500011	39.1917574638562
3860296322.23001	-60.0242347734393	-173.264556954444
3883834714.44001	-65.5071421348302	-123.850666781625
3907373106.65001	-62.0343371708472	-109.206188556114
3930911498.86001	-64.0762456141087	-63.5375364426331
3954449891.07001	-66.8538538105636	-84.5110117120148
3977988283.28001	-65.823757580639	-74.145527133572
4001526675.49001	-63.8916691032787	-73.1253496724976
4025065067.70001	-61.0248772770158	-43.143645238983
4048603459.91001	-61.4411883823013	-29.7534598326052
4072141852.12001	-59.4834420160759	-18.5572878503727
4095680244.33001	-58.5056120928906	17.0465481187294
4119218636.54001	-59.9381954197256	47.6098655554702
4142757028.75001	-62.3116443673012	59.7876431971403
4166295420.96001	-64.9331378561836	52.5037097545907
4189833813.17001	-60.4779681782003	65.6647704682026
4213372205.38001	-58.913374332661	110.152923536958
4236910597.59001	-61.3066067365164	149.901700246658
4260448989.80001	-67.1657143644619	-160.723595118548
4283987382.01001	-77.7445024345436	-133.545510315805
4307525774.22001	-76.9455661295049	-167.43977637861
4331064166.43001	-78.2732388010508	-98.4167347509943
4354602558.64001	-70.9649196499245	18.4221326354299
4378140950.85001	-73.7066316005934	61.0963999976286
4401679343.06001	-73.6025219012873	42.0367011619265
4425217735.27001	-68.5715979292928	81.9992742076532
4448756127.48001	-66.0185904853809	104.184666594374
4472294519.69001	-65.8774838950764	144.451266280285
4495832911.90001	-71.1397813545676	-168.372444361572
4519371304.11001	-74.8209458226242	-122.483625678078
4542909696.32001	-76.86392484794	121.776115616963
4566448088.53001	-81.2903167956938	-172.929728821676
4589986480.74001	-75.6170026184311	91.4522414356004
4613524872.95001	-77.6743626135076	-153.233877367994
4637063265.16001	-86.2257258698939	33.4584211738994
4660601657.37001	-75.963961151329	150.500690547378
4684140049.58001	-87.8181952313551	84.7425672192587
4707678441.79001	-81.7197353133867	25.2839977150687
4731216834.00001	-75.0677420657971	18.9042843809202
