!Keysight Technologies N9952A: A.10.01
!Date: Friday, 04 October 2019 12:12:33
!TimeZone: !Model: N9952A
!Serial: MY57201149
!GPS Latitude: 
!GPS Longitude: 
!GPS TimeStamp: 0001-01-01 00:00:00Z
!GPS Seconds Since Last Read: 0
!CHECKSUM:0371284179
!Correction: S11(Rdy)
!S1P File: Measurement: S11:
# Hz S DB R 50
23538392	-41.9349172947129	9.68502047273536
47076784.21	-40.5163057814632	-16.5094531594867
70615176.42	-32.9040286738135	135.451322035323
94153568.63	-35.6057975747741	-61.3654319630646
117691960.84	-37.1294840829731	164.082416290937
141230353.05	-31.0100222101521	-16.31219302182
164768745.26	-30.7107027188429	142.980057712482
188307137.47	-36.5039853197867	-57.2122434049259
211845529.68	-50.7223994381946	109.783738399165
235383921.89	-69.0040112794881	53.7881834382271
258922314.1	-71.870935992967	144.369046748239
282460706.31	-68.947333471356	100.233094243423
305999098.52	-67.2316038236978	-128.480530932453
329537490.73	-70.9894293942834	170.930070076226
353075882.94	-75.654394622119	159.528488970178
376614275.15	-64.2897685117945	-110.577479028337
400152667.36	-61.261391503714	15.4202204233675
423691059.57	-58.8784865882697	165.028504222646
447229451.78	-58.5846271442468	-38.2010091706903
470767843.99	-56.9137469301556	128.235119083229
494306236.2	-61.0449472369518	-93.2766430019712
517844628.41	-66.2998301728182	-29.2924929304272
541383020.62	-63.9636322930958	80.0606205420939
564921412.83	-70.0970725304682	-176.19710230318
588459805.04	-61.5268164401603	133.89547564193
611998197.25	-61.3418880672104	-78.8418456285628
635536589.46	-62.017515159174	130.844173802029
659074981.67	-60.0668738521402	-87.1037682993693
682613373.88	-59.5236252299663	99.4699395679145
706151766.09	-58.923102231172	-117.215773825839
729690158.3	-60.6647672038883	48.3641211150393
753228550.51	-57.9325194752007	-161.876960169874
776766942.72	-63.8534151451346	-83.6651091404652
800305334.93	-70.5212001032467	140.141727953116
823843727.14	-60.6082280865357	-99.4875954919278
847382119.35	-60.5600022232623	3.45471744200851
870920511.56	-69.1474938896948	155.690194364214
894458903.77	-61.9474508452917	-153.352434843298
917997295.98	-61.5418943081929	4.47138867231999
941535688.190001	-63.5405278698281	-176.471956295222
965074080.400001	-64.4815710105278	-12.3329594888008
988612472.610001	-65.296367104558	-135.368698697109
1012150864.82	-68.6185022585393	81.9432526158467
1035689257.03	-67.5277946999942	-175.684119063859
1059227649.24	-63.4377939522154	84.4649960370623
1082766041.45	-57.5133702977914	-140.143217923721
1106304433.66	-55.9711530627033	-78.2263271617353
1129842825.87	-62.1010889825613	90.4844176345534
1153381218.08	-58.4934517503052	-97.3991036363705
1176919610.29	-43.4978400502185	87.0498145990527
1200458002.5	-33.9103748963882	-107.141984704479
1223996394.71	-30.2099361517564	58.6031032654828
1247534786.92	-26.8095655037266	-110.983107313146
1271073179.13	-47.4369518539194	57.4110524767895
1294611571.34	-10.8453769477359	30.6498608836127
1318149963.55	-3.50331219571309	177.89678635588
1341688355.76	-3.76284466427735	-38.2712828965239
1365226747.97	-11.0950734533478	102.309658215542
1388765140.18	-25.8257803130218	-110.162801727766
1412303532.39	-29.5986182558894	59.5628597889384
1435841924.6	-34.1337420327133	-155.632436769972
1459380316.81	-40.4257637850899	1.04924008099239
1482918709.02	-38.1667326179512	96.0191894576942
1506457101.23	-38.0666654767416	-155.940213698546
1529995493.44	-41.0682043336272	-8.85563722909338
1553533885.65	-44.1124223707697	140.807364264199
1577072277.86	-47.6707101027706	-58.8079285204359
1600610670.07	-49.3969983968562	104.001114159811
1624149062.28	-58.9882166575994	-124.983822767712
1647687454.49	-58.2923687256475	84.8550362131469
1671225846.7	-65.2018118068902	-162.251389561902
1694764238.91	-59.6676098829018	-178.565358986314
1718302631.12	-52.0772224004142	-97.7922064332667
1741841023.33	-49.842313464166	20.8529996094955
1765379415.54	-54.7439260146113	121.033189084347
1788917807.75	-66.5226862375089	169.823393506905
1812456199.96	-60.4829466135745	-94.4739200922773
1835994592.17	-59.3181703558821	67.9955241998332
1859532984.38	-59.408276707339	-138.541726787708
1883071376.59	-51.8453274736045	14.6095592537275
1906609768.8	-50.5894124964544	123.704244863976
1930148161.01	-56.5461883824073	-139.488822000616
1953686553.22	-58.2984275489638	-178.287560923496
1977224945.43	-54.6992344645024	-65.0073185395085
2000763337.64	-54.5655171638797	71.1984174596553
2024301729.85	-55.8518633733772	-130.210529227205
2047840122.06	-57.3644653381555	43.0205653160692
2071378514.27	-57.4531691236267	-179.707725853702
2094916906.48	-70.0322175821454	90.709646772622
2118455298.69	-62.6730610190645	-138.53941428165
2141993690.9	-61.2672476046088	40.594741743472
2165532083.11	-48.2689389533279	126.85232109574
2189070475.32	-41.3964549459966	-156.576717083369
2212608867.53	-40.2804140425261	-74.9985476471777
2236147259.74	-42.7478035412186	-5.94058428366496
2259685651.95	-44.13346916801	69.05545334412
2283224044.16	-40.2296630788321	-176.070808370584
2306762436.37	-36.4381237770257	-71.6567375953616
2330300828.58	-36.8990950317225	14.9325382755615
2353839220.79	-40.3553407714903	77.7843242338262
2377377613	-44.0636852362554	148.490160438213
2400916005.21	-60.8345122293054	-112.202293331757
2424454397.42	-56.6408957905996	-158.974396637969
2447992789.63	-52.1626151244271	-167.1960735972
2471531181.84	-37.3834770865505	-14.1358507953204
2495069574.05	-34.5069700374234	142.828872775525
2518607966.26	-35.7411410150412	-43.9923965785253
2542146358.47	-39.4503445099155	129.077229292414
2565684750.68	-40.8032834719197	5.87179523193369
2589223142.89	-36.9498077788189	174.027176970376
2612761535.1	-42.8879532570984	-25.0036595728716
2636299927.31	-52.8817927332302	-135.207550908827
2659838319.52	-49.4003415364057	27.0425986114681
2683376711.73	-52.8422010078885	120.719601605175
2706915103.94	-71.6595002673527	-22.6609368020268
2730453496.15	-57.8552783511069	149.425648877594
2753991888.36	-75.6181000651298	-75.4847465785773
2777530280.57	-68.8173020321924	82.1493390620679
2801068672.78	-65.3769600269654	131.81305326348
2824607064.99	-74.0521173150135	-164.63113929522
2848145457.2	-67.8193292005083	160.204920393313
2871683849.41	-66.3095886200188	-86.6060189433262
2895222241.62	-65.7396050271651	25.3534506540561
2918760633.83	-65.9836398977633	41.5668011016014
2942299026.04	-64.4630291799208	116.729306846768
2965837418.25	-72.4156711573326	-121.663098894862
2989375810.46	-68.2863647574403	-3.1726186811232
3012914202.67	-60.1015425560464	11.1859268469703
3036452594.88	-55.6178200232152	59.0381943036184
3059990987.09	-57.3819465165973	99.4602257838559
3083529379.3	-56.0089287026685	110.233588745153
3107067771.51	-57.2077969261112	145.270742151346
3130606163.72	-62.111835903373	140.095993057014
3154144555.93	-63.8559996353645	125.092297328555
3177682948.14	-53.1717398803241	107.213912300756
3201221340.35	-48.0034263032085	161.7945067276
3224759732.56	-48.4180794474798	-141.788793644532
3248298124.77	-52.1395317369982	-86.8941278898049
3271836516.98	-66.8799455475949	-17.1251308955881
3295374909.19	-55.9775371721472	-162.239372379909
3318913301.4	-52.0315206883967	-104.201405883035
3342451693.61	-52.220675859998	-40.4686916681112
3365990085.82	-58.5335611253758	20.9666942574908
3389528478.03	-62.8826397512461	-5.44893921443312
3413066870.24	-58.6542891281414	67.7049608581207
3436605262.45	-59.5934657210496	130.646994696378
3460143654.66	-57.157844356828	-179.172345648559
3483682046.87	-55.8218113419168	-103.138976281448
3507220439.08	-61.044005260132	-36.0186191413194
3530758831.29	-70.7132093312839	-26.368951967568
3554297223.5	-80.8437712087773	-17.7562993845919
3577835615.71	-67.1668596711791	-42.0194241867262
3601374007.92	-68.506677684465	-4.17074537351782
3624912400.13	-68.7980124703211	67.8012277353894
3648450792.34	-76.3833856549788	-42.0774385826486
3671989184.55	-65.2524643481931	123.073317768403
3695527576.76	-65.631015629539	-47.2230759389729
3719065968.97001	-66.0285582837199	135.692417207847
3742604361.18001	-64.6655122975498	-0.408398737258669
3766142753.39001	-59.6985298825366	164.43264602023
3789681145.60001	-67.9523772618935	-4.82273029025699
3813219537.81001	-64.7140648629629	-169.596149504161
3836757930.02001	-71.5537838526309	41.7945317273336
3860296322.23001	-60.5124278140619	-173.732288803242
3883834714.44001	-64.775605658305	-128.49285445898
3907373106.65001	-62.3193618145613	-105.934754564537
3930911498.86001	-64.128673163726	-66.7856207519492
3954449891.07001	-67.0384195734915	-81.3053827518708
3977988283.28001	-65.6855048060943	-76.3887605044436
4001526675.49001	-64.1815274850714	-71.4326616172483
4025065067.70001	-60.8903673833054	-46.109030217689
4048603459.91001	-61.2711729323966	-26.3436678226724
4072141852.12001	-59.6838242376734	-19.902257229354
4095680244.33001	-58.5110859539114	17.2190794207272
4119218636.54001	-59.7658875557251	45.5341370640443
4142757028.75001	-62.333446888011	65.1761291503658
4166295420.96001	-64.9203919747469	45.0430194329699
4189833813.17001	-60.2488265865584	67.5830694462703
4213372205.38001	-58.8364796485842	110.19076187008
4236910597.59001	-61.4151216715674	152.662914067147
4260448989.80001	-67.7931585035184	-164.632975242399
4283987382.01001	-76.2352880700539	-129.382004533036
4307525774.22001	-76.623170913227	-173.699553199697
4331064166.43001	-77.7054166355082	-91.0131853071311
4354602558.64001	-70.8496042759145	19.7511027362068
4378140950.85001	-74.0049112971179	66.545211795448
4401679343.06001	-72.6762911568048	41.5360965970476
4425217735.27001	-69.7736176247305	87.2278662244252
4448756127.48001	-65.7740825182094	99.4177352425183
4472294519.69001	-65.9637819760453	143.221944853171
4495832911.90001	-70.0741568527404	-167.762342804134
4519371304.11001	-76.5101502863745	-120.429746925284
4542909696.32001	-78.2403916869103	130.602006185946
4566448088.53001	-80.0924119167735	175.834988859909
4589986480.74001	-76.0522819540747	87.2363901990439
4613524872.95001	-78.2060654502345	-148.37809098991
4637063265.16001	-86.4078000775861	69.4199774558964
4660601657.37001	-77.4094014705881	150.077353866545
4684140049.58001	-85.1481688628704	115.326707759246
4707678441.79001	-79.6183227025528	2.18838066735046
4731216834.00001	-74.4390566379475	35.3911316468144
