!Keysight Technologies N9952A: A.10.01
!Date: Friday, 04 October 2019 12:15:04
!TimeZone: !Model: N9952A
!Serial: MY57201149
!GPS Latitude: 
!GPS Longitude: 
!GPS TimeStamp: 0001-01-01 00:00:00Z
!GPS Seconds Since Last Read: 0
!CHECKSUM:1333425167
!Correction: S11(Rdy)
!S1P File: Measurement: S11:
# Hz S DB R 50
23540000	-0.807618791818618	-110.129778590345
45277300	-1.11659958789942	159.746209300117
67014600	-1.20664132726472	36.7388612382909
88751900	-0.941795119065453	147.133059424472
110489200	-0.943136265448895	-12.7415888703322
132226500	-1.18296441885794	-118.105208963699
153963800	-1.76832319734018	143.228513229835
175701100	-3.56109501133072	55.7509102098393
197438400	-3.54973145901105	-22.9168878804968
219175700	-4.15038455434622	-124.593529252059
240913000	-11.0046554762687	31.2058330737047
262650300	-2.65729535340801	166.028606058946
284387600	-2.21256194977586	61.2383935411529
306124900	-2.40224536599947	-20.92050321417
327862200	-3.25405570268174	-101.392243931426
349599500	-3.68566736009548	178.607561608454
371336800	-3.68661516365491	94.8873169211573
393074100	-6.8262426208853	7.15753257675511
414811400	-3.78835677168171	-12.5978991531767
436548700	-2.30056312074467	-104.67867552884
458286000	-2.71800077956144	169.591035202448
480023300	-3.04573139667634	92.0912519456649
501760600	-2.72702043991073	17.827909445844
523497900	-3.03444514836916	-59.8385138835024
545235200	-6.32970937715508	-132.566084771086
566972500	-4.42753549549654	172.543321151148
588709800	-3.25515013715735	93.5928619299897
610447100	-2.89684515309268	20.8584997812116
632184400	-2.14929123767647	-53.3744732974843
653921700	-2.20378417541412	-132.555599016353
675659000	-3.32255495410267	147.286154213259
697396300	-4.21192977342551	82.7490291039151
719133600	-3.20588765998629	14.086817949202
740870900	-2.88907523885151	-57.2683006713535
762608200	-2.48238453117011	-131.961931213544
784345500	-2.48867723395105	148.425429589783
806082800	-3.06360971160264	73.3841134492592
827820100	-3.46789471595874	8.21732845383123
849557400	-2.98120532023836	-60.2741633031406
871294700	-2.71898290238145	-136.084339481837
893032000	-2.65994222831058	145.624944859448
914769300	-2.89738972455686	71.109328368759
936506600	-3.45844647755143	1.72282819004372
958243900	-3.76494208897781	-65.3751711911145
979981200	-3.37855198452981	-137.677629627592
1001718500	-2.90032311376887	146.347596322439
1023455800	-2.51982206635988	72.7846965302046
1045193100	-2.62821660215528	1.30156808631329
1066930400	-3.61836977170841	-68.6777976795734
1088667700	-4.01188100691745	-136.801751619965
1110405000	-3.1546993467728	147.901555266981
1132142300	-2.43311035342444	73.3933845609027
1153879600	-2.12927266049298	3.23521565130326
1175616900	-2.27627226713656	-68.586739624999
1197354200	-2.99850463578375	-146.533923603473
1219091500	-4.08458281760417	135.971756390263
1240828800	-3.84195130808459	70.8657396540797
1262566100	-2.7356088153367	5.0272137464006
1284303400	-2.34781950002563	-64.8050796507379
1306040700	-2.53512896014586	-140.946645072986
1327778000	-2.79835729872696	137.793335859955
1349515300	-3.03164586191558	61.1192299877656
1371252600	-3.32360572977445	-4.21474710799624
1392989900	-3.09107815323645	-66.4823794062537
1414727200	-2.89209117276883	-137.587692658419
1436464500	-2.79900029833656	142.252331521894
1458201800	-2.52205879880586	62.8431956636025
1479939100	-2.35479963988815	-9.50831174926893
1501676400	-2.75831525584224	-77.8202948479147
1523413700	-3.54712412944014	-145.212985988909
1545151000	-3.56797945871447	141.935453546067
1566888300	-3.00619423653119	64.561360027493
1588625600	-2.43401776751219	-8.84193468526278
1610362900	-2.2482040212745	-78.42725867939
1632100200	-2.58328164070807	-149.795376997322
1653837500	-3.36559999398704	134.278153548352
1675574800	-3.77159223916987	60.366619571006
1697312100	-3.23242800447291	-10.098467860696
1719049400	-2.73417798455481	-78.9615982447459
1740786700	-2.60388863469244	-148.157819938918
1762524000	-2.71714616704667	138.146747306453
1784261300	-2.93258494977012	60.4900657857824
1805998600	-3.17387436634066	-14.3249946456642
1827735900	-3.11744019587854	-82.5034141900388
1849473200	-2.86201484601648	-150.863811962558
1871210500	-2.76344947171681	137.770867636625
1892947800	-2.74091192474993	62.9930407300203
1914685100	-2.79951904698669	-12.4662871200718
1936422400	-2.97838962163852	-85.1938085967867
1958159700	-3.15251243026228	-154.230446956154
1979897000	-3.0014846826831	136.784831904119
2001634300	-2.7628655009953	64.8120819275018
2023371600	-2.66697894723794	-9.12087138295671
2045108900	-2.72188790657008	-82.8613190538678
2066846200	-2.80920824010888	-155.119551665015
2088583500	-2.78008734541626	134.162064703408
2110320800	-2.59849185897839	63.4839239690923
2132058100	-2.45219350679596	-8.65188538699404
2153795400	-2.48121208061652	-82.6007909931159
2175532700	-2.58806200415104	-157.033933591898
2197270000	-2.53317958777395	129.919584812907
2219007300	-2.35044492840152	59.042618939631
2240744600	-2.203182372327	-11.2783290017808
2262481900	-2.26484555666519	-83.3771726129847
2284219200	-2.47332273005819	-158.055560568986
2305956500	-2.51861615571063	127.031393330831
2327693800	-2.33983823932415	54.3804529428503
2349431100	-2.19098678093908	-15.8899021777876
2371168400	-2.25570488440365	-86.6562810328638
2392905700	-2.53137026791759	-160.244810887162
2414643000	-2.69702484928548	123.823413189466
2436380300	-2.56609418993588	49.0264309306018
2458117600	-2.35684831085549	-22.5258043424258
2479854900	-2.37790256941101	-92.7423540493624
2501592200	-2.69253960022324	-164.639249813093
2523329500	-3.01097576476977	120.483571283811
2545066800	-3.03262223103074	44.8554170966805
2566804100	-2.86855862002644	-27.513227019934
2588541400	-2.74108239086275	-96.6897427965491
2610278700	-2.81612428081108	-166.938020616712
2632016000	-3.09339788100302	118.261104701664
2653753300	-3.27344280378926	40.3055271088798
2675490600	-3.16975484603191	-35.2162134910015
2697227900	-3.08767854484711	-104.846745335555
2718965200	-3.1020391389595	-171.403783002635
2740702500	-3.17150840409286	118.550460715278
2762439800	-3.27449187227229	41.273266925427
2784177100	-3.23264519781572	-37.9442873325745
2805914400	-3.06578597788571	-110.799857964269
2827651700	-2.8664618461059	-177.382677101841
2849389000	-2.80053330239008	115.207307076868
2871126300	-2.88128957434607	40.7512304109318
2892863600	-2.91906159710483	-40.0200441820646
2914600900	-2.72870423740386	-116.749589814395
2936338200	-2.49704354250792	174.953195358774
2958075500	-2.46846638768682	109.771058655893
2979812800	-2.65608719042739	39.8678060734837
3001550100	-2.82997339520918	-39.2383241499541
3023287400	-2.73661401928149	-118.981751892072
3045024700	-2.43490348358143	170.290037718467
3066762000	-2.20218678981412	105.855629273466
3088499300	-2.24951999735338	38.568381117867
3110236600	-2.57865187229044	-38.4233548527599
3131973900	-2.73404436483186	-120.034838857607
3153711200	-2.44916632315169	166.620359556685
3175448500	-2.08346160206068	102.445294209517
3197185800	-1.95034451160911	38.4993073726111
3218923100	-2.22965726853095	-34.4246737386974
3240660400	-2.63993177817183	-116.720373890822
3262397700	-2.5216970962995	165.316426141601
3284135000	-2.09130347439794	98.7790812038198
3305872300	-1.81454681443631	36.5034350021791
3327609600	-1.92812648927246	-31.5331688905087
3349346900	-2.40849721618899	-110.195183075668
3371084200	-2.54139284967901	169.219508194438
3392821500	-2.16415993394052	98.775558771616
3414558800	-1.80836378660951	35.6443548870348
3436296100	-1.77851468472117	-29.646508087619
3458033400	-2.15437284672818	-104.441486105297
3479770700	-2.47473684307238	174.300741855528
3501508000	-2.25467570606575	99.746817594171
3523245300	-1.87615775278784	34.3790527017409
3544982600	-1.73954127081198	-29.9234866284359
3566719900	-1.9862386483643	-101.050180318076
3588457200	-2.34474977272309	179.664098562765
3610194500	-2.29887986023458	102.354578211731
3631931800	-1.98294979645315	33.5429739603812
3653669100	-1.80492479113699	-31.5836394877845
3675406400	-1.93751089070582	-100.445586034596
3697143700	-2.23264266305621	-176.20062597474
3718881000	-2.29773355932473	106.870058641025
3740618300	-2.11746988313481	35.3183762155513
3762355600	-1.99211849116979	-32.1649551342018
3784092900	-2.0604525901505	-101.373821333927
3805830200	-2.23894150308277	-175.125724860659
3827567500	-2.28919886817306	109.506750982927
3849304800	-2.22472405588023	36.8777028734648
3871042100	-2.21160346663092	-33.0169298846267
3892779400	-2.29306692716735	-103.780481366383
3914516700	-2.3776526390312	-176.702948080811
3936254000	-2.34439960301695	110.187099721604
3957991300	-2.32432940492316	38.6723056960721
3979728600	-2.43852375293045	-32.8979746490871
4001465900	-2.63075228724687	-106.239902388706
4023203200	-2.64078325617805	-179.955547611174
4044940500	-2.47675635004171	108.924251884603
4066677800	-2.39066914724288	39.7585042132891
4088415100	-2.62988305846814	-31.7708924813712
4110152400	-3.0050601741062	-107.988629680033
4131889700	-3.02598281298811	175.600574222869
4153627000	-2.69198137274703	105.172988160729
4175364300	-2.48203067277255	38.8826920582008
4197101600	-2.73250157247286	-30.3589036586748
4218838900	-3.34575045684216	-107.898941138023
4240576200	-3.47664347106058	171.501280396438
4262313500	-2.9704751165171	99.3237580807285
4284050800	-2.56634793763788	34.9398049871496
4305788100	-2.69183674313123	-30.7787832595047
4327525400	-3.45894515141267	-106.273533057846
4349262700	-3.85627364658813	170.33959170796
4371000000	-3.28747237127513	94.9515605630927
