!Keysight Technologies N9952A: A.10.01
!Date: Friday, 04 October 2019 12:17:05
!TimeZone: !Model: N9952A
!Serial: MY57201149
!GPS Latitude: 
!GPS Longitude: 
!GPS TimeStamp: 0001-01-01 00:00:00Z
!GPS Seconds Since Last Read: 0
!CHECKSUM:1362248355
!Correction: S11(Rdy)
!S1P File: Measurement: S11:
# Hz S DB R 50
23540000	-0.77461653775568	-109.880117732585
45277300	-1.13066773470658	159.628899349067
67014600	-1.20298773262627	36.692830220468
88751900	-0.937287435545654	147.168133282981
110489200	-0.937968012051727	-12.7569582199936
132226500	-1.17964503505357	-118.101545215857
153963800	-1.75741221989765	143.028321446396
175701100	-3.55997658808786	55.738184625022
197438400	-3.53591769080136	-22.9182031888189
219175700	-4.15302671824533	-124.575870835979
240913000	-11.0264232853355	31.029121346262
262650300	-2.65276345435407	166.038848252405
284387600	-2.19653247250551	61.3206932941601
306124900	-2.40300408518543	-20.9618768019847
327862200	-3.24514684485565	-101.349621791638
349599500	-3.67571361100258	178.610543663666
371336800	-3.68913128815515	94.7338897357135
393074100	-6.81032778408683	7.24548036056344
414811400	-3.78776681603408	-12.6145691701245
436548700	-2.28814486033769	-104.676512523405
458286000	-2.70695916055373	169.644132283862
480023300	-3.03020061808898	92.0139262093451
501760600	-2.7161973073399	17.82100169847
523497900	-3.02721500286308	-59.7676234867104
545235200	-6.32539725715055	-132.356210924239
566972500	-4.41654146499926	172.500603467668
588709800	-3.24098050293129	93.6870142399262
610447100	-2.86949083877899	20.8629954669136
632184400	-2.14020248134211	-53.3919389568112
653921700	-2.19969861461204	-132.618495010241
675659000	-3.29936962418026	147.440130714862
697396300	-4.20903479102015	82.7994891761504
719133600	-3.19250861023915	14.1349388229238
740870900	-2.88113129432349	-57.2576486100722
762608200	-2.48333266155437	-131.905889833162
784345500	-2.48581363554719	148.386842556062
806082800	-3.04657714964537	73.4880838715363
827820100	-3.46009663591049	8.23734429565129
849557400	-2.96944275014322	-60.3604768935347
871294700	-2.72336643687327	-136.039170341653
893032000	-2.66130809039292	145.636317869905
914769300	-2.89749799953461	71.12465921819
936506600	-3.45287218801357	1.75403570085023
958243900	-3.74957845820994	-65.4798945745545
979981200	-3.38327344600638	-137.713490610279
1001718500	-2.88354417024697	146.315759928532
1023455800	-2.52481324724843	72.8332704081629
1045193100	-2.63073027346294	1.22088918096343
1066930400	-3.62087130804702	-68.8785436077424
1088667700	-4.02178281766633	-136.924670150113
1110405000	-3.13736443063387	147.863808647488
1132142300	-2.41877072891569	73.4267787432373
1153879600	-2.12157751439407	3.21016156873048
1175616900	-2.26702204135225	-68.6268903392967
1197354200	-2.99494766706301	-146.589414571679
1219091500	-4.08678652641251	135.885956971862
1240828800	-3.84217489157869	70.9269767269854
1262566100	-2.73322115154444	5.02781326925279
1284303400	-2.34479750061194	-64.7510861709674
1306040700	-2.54571906397506	-141.000285004057
1327778000	-2.79117401502974	137.67516660099
1349515300	-3.02507596410079	61.020220384729
1371252600	-3.31811185970325	-4.19361969907963
1392989900	-3.09771008021562	-66.4361105230313
1414727200	-2.88838864639264	-137.538554696696
1436464500	-2.78344931291757	142.202063145074
1458201800	-2.51783910277461	62.7729554241682
1479939100	-2.34282933310226	-9.63858148031221
1501676400	-2.75340053595674	-77.8077944270785
1523413700	-3.54031121084361	-145.221722002587
1545151000	-3.56943211703432	141.933926258146
1566888300	-3.02090259722966	64.5558331740018
1588625600	-2.42779446546185	-8.91178058564869
1610362900	-2.22875432009888	-78.5054256664429
1632100200	-2.57874254299544	-149.889877257203
1653837500	-3.35317975730549	134.264485001329
1675574800	-3.7780209276562	60.3751356529646
1697312100	-3.2387962383697	-10.236535062666
1719049400	-2.73913832427639	-78.9498700238258
1740786700	-2.60593629950425	-148.124905120078
1762524000	-2.7203931736668	138.099078117538
1784261300	-2.93097886778185	60.3743804718198
1805998600	-3.17634920520803	-14.3687376906997
1827735900	-3.11896354308572	-82.7124038736266
1849473200	-2.85774168664743	-150.894131492472
1871210500	-2.75225050314398	137.720958739969
1892947800	-2.73864542923912	62.9231109563583
1914685100	-2.76987274593966	-12.4238481718312
1936422400	-2.9842168838723	-85.2185882708632
1958159700	-3.1419305028843	-154.354140889989
1979897000	-2.99727785344616	136.802284630361
2001634300	-2.76594131431979	64.7807507072992
2023371600	-2.65406529183712	-9.23693098273753
2045108900	-2.73349897778678	-83.0003481084979
2066846200	-2.80449355481901	-155.246739607633
2088583500	-2.75880431099273	134.087715598176
2110320800	-2.58768518392251	63.522440463101
2132058100	-2.46184968636415	-8.68733042775965
2153795400	-2.48840113316146	-82.7518639093279
2175532700	-2.58249567243186	-157.161602993679
2197270000	-2.53005542970598	129.743582943331
2219007300	-2.35371202219546	59.0875345371275
2240744600	-2.2038755518939	-11.289588717653
2262481900	-2.26292873104576	-83.4896891175605
2284219200	-2.461942944004	-158.154337115718
2305956500	-2.5124782614264	126.925188587228
2327693800	-2.32734932712359	54.3047615322381
2349431100	-2.18236292588111	-16.0098795060445
2371168400	-2.26279681608931	-86.7372326574911
2392905700	-2.52553854812932	-160.326338158106
2414643000	-2.70717871427029	123.634749832606
2436380300	-2.57346923921473	49.0999148571732
2458117600	-2.36326425856794	-22.6537374369269
2479854900	-2.37233182622309	-92.7575729445647
2501592200	-2.67606521591045	-164.580434095077
2523329500	-3.00021282080592	120.372694808581
2545066800	-3.04340046686018	44.7267739542468
2566804100	-2.86351459640334	-27.6741984903237
2588541400	-2.73793745042786	-96.8740974809187
2610278700	-2.8149926162075	-166.95626106584
2632016000	-3.08763976717097	118.115067305499
2653753300	-3.27472009232373	40.1841030392994
2675490600	-3.17231012855927	-35.4710250913497
2697227900	-3.08531385431355	-104.946155880071
2718965200	-3.10626709450438	-171.412706928473
2740702500	-3.18816468064714	118.506613767068
2762439800	-3.28475200060292	41.0489483291396
2784177100	-3.24970915632298	-38.0442455584249
2805914400	-3.08819403572905	-110.967257905815
2827651700	-2.8855130351868	-177.5500651438
2849389000	-2.81436399086418	115.000453086282
2871126300	-2.89515630124146	40.5083756857871
2892863600	-2.92104098564253	-40.2041915184582
2914600900	-2.73559273358117	-116.874233822329
2936338200	-2.51326539882308	174.758238713157
2958075500	-2.4717513002572	109.588411679109
2979812800	-2.65664106013461	39.7587266497978
3001550100	-2.85530042336193	-39.3655237496291
3023287400	-2.74645695360402	-119.24497912629
3045024700	-2.42534290291232	170.104715846099
3066762000	-2.19251510992447	105.581013008968
3088499300	-2.22818487646324	38.3283083541275
3110236600	-2.58332817924159	-38.4808319329114
3131973900	-2.77101139619316	-120.164224375543
3153711200	-2.46484649560568	166.407222852462
3175448500	-2.08859653886418	102.339539444418
3197185800	-1.93577373396623	38.3544442063998
3218923100	-2.23127660796236	-34.3694032894771
3240660400	-2.67500021327603	-116.881966408967
3262397700	-2.54235075018276	165.159838282401
3284135000	-2.1096976507556	98.5310928726239
3305872300	-1.81810430838308	36.3978007614823
3327609600	-1.92407002858092	-31.4102804143864
3349346900	-2.41869263197064	-110.20952603099
3371084200	-2.57892451645551	169.16887653864
3392821500	-2.19751211211886	98.6044522865831
3414558800	-1.81759709022894	35.4327334955979
3436296100	-1.76011997768778	-29.704393774207
3458033400	-2.17656409301447	-104.578229418585
3479770700	-2.49652190318008	174.248392795742
3501508000	-2.27582426074254	99.6582926010575
3523245300	-1.89902542380537	34.1931000648078
3544982600	-1.72472195540821	-29.8903144885343
3566719900	-1.97536341798327	-101.060583846781
3588457200	-2.36881353679029	179.632810471895
3610194500	-2.33969044702895	102.334110544724
3631931800	-2.0023903821763	33.5443468709631
3653669100	-1.81000758983275	-31.7087463872786
3675406400	-1.93502834284888	-100.556604234693
3697143700	-2.2429858217299	-176.14326371572
3718881000	-2.31247153764861	106.875379761608
3740618300	-2.13180123076101	35.3129334056926
3762355600	-2.00406888459726	-32.3965173889207
3784092900	-2.0622249478693	-101.467617892727
3805830200	-2.24875013996623	-174.974143928447
3827567500	-2.31722259842141	109.559792824814
3849304800	-2.25638966554793	36.7810711421871
3871042100	-2.22307091704678	-33.2394162063939
3892779400	-2.31635444422265	-103.837559474998
3914516700	-2.38877774237694	-176.680651705086
3936254000	-2.36711780842889	110.248954950053
3957991300	-2.35391424023227	38.6908535483802
3979728600	-2.4625909220733	-33.0740558046227
4001465900	-2.65198629556604	-106.392745571717
4023203200	-2.66238913511216	179.948312359596
4044940500	-2.49772964663624	108.96231374
4066677800	-2.44371685773088	39.763204235281
4088415100	-2.65565834889153	-31.9393260474922
4110152400	-3.04630512944629	-108.108697604156
4131889700	-3.07144171339588	175.584657887622
4153627000	-2.70516126042249	105.058125399279
4175364300	-2.50920800360654	38.8856454824441
4197101600	-2.75488429460404	-30.4171368085599
4218838900	-3.39152761137097	-108.164691278138
4240576200	-3.53279657454112	171.411041162721
4262313500	-3.01829832234643	99.3007699130171
4284050800	-2.59404522276877	34.9527793306885
4305788100	-2.7357317355586	-30.8463245045288
4327525400	-3.48665485997669	-106.441652123742
4349262700	-3.91324285754478	170.294214571311
4371000000	-3.35999777821695	94.8420948127737
