!Keysight Technologies N9952A: A.10.01
!Date: Friday, 04 October 2019 12:21:18
!TimeZone: !Model: N9952A
!Serial: MY57201149
!GPS Latitude: 
!GPS Longitude: 
!GPS TimeStamp: 0001-01-01 00:00:00Z
!GPS Seconds Since Last Read: 0
!CHECKSUM:1001209952
!Correction: S11(Rdy)
!S1P File: Measurement: S11:
# Hz S DB R 50
23540000	-0.790191457929451	-109.877770930115
45277300	-1.11303294523283	159.637592851288
67014600	-1.17177352182216	36.7273227980846
88751900	-0.93113335951462	147.163462413593
110489200	-0.939630813906188	-12.8392345656262
132226500	-1.18443393101421	-118.129831805634
153963800	-1.77920348170854	143.416545977818
175701100	-3.57583112245336	55.6527355080511
197438400	-3.53821724368188	-22.9254382778486
219175700	-4.15892384398882	-124.563445022207
240913000	-10.9946820840019	31.1598309457135
262650300	-2.6695275314848	165.969655693691
284387600	-2.21061336523121	61.2038347445031
306124900	-2.3984062238281	-20.8469547266226
327862200	-3.25443099246189	-101.435491216153
349599500	-3.66344784714937	178.53766167988
371336800	-3.68855319959145	94.9193860196637
393074100	-6.81224918430599	7.02500601276281
414811400	-3.77922472388072	-12.6391082390143
436548700	-2.28417554280522	-104.745913815987
458286000	-2.72058633905368	169.537874473181
480023300	-3.03746810362595	92.0110368768615
501760600	-2.69617049302256	17.8018279399185
523497900	-3.03413389414001	-59.7999723372106
545235200	-6.32581066431847	-132.552148720537
566972500	-4.40312391242498	172.504521355463
588709800	-3.24581432274721	93.5273370520631
610447100	-2.88789316570905	20.7557073006214
632184400	-2.12489193234206	-53.4068219707647
653921700	-2.17531980392105	-132.565628069881
675659000	-3.32026727250017	147.267831858624
697396300	-4.20573088227151	82.7865220400898
719133600	-3.19845644592958	14.1076479103011
740870900	-2.88742952879637	-57.2556781883498
762608200	-2.46596138051417	-132.041689657239
784345500	-2.49106594764832	148.372109238887
806082800	-3.05648307542109	73.4167402704207
827820100	-3.47796706369819	8.07311763466214
849557400	-2.96251771431758	-60.2963320927617
871294700	-2.6956046368188	-136.141633800701
893032000	-2.65745156906202	145.562485312361
914769300	-2.89699095458972	71.1143696922132
936506600	-3.45937524314627	1.6678323576037
958243900	-3.74176741642771	-65.3990681071509
979981200	-3.37786152744302	-137.785010621941
1001718500	-2.88032009002475	146.322909779743
1023455800	-2.50770758403508	72.7670344789942
1045193100	-2.61336474625821	1.33953444854663
1066930400	-3.60847571301679	-68.7155589993295
1088667700	-4.00625549689209	-136.936979813936
1110405000	-3.15561585594567	147.868741038144
1132142300	-2.42278111805147	73.28925727091
1153879600	-2.11926354419267	3.18169267106024
1175616900	-2.2661367386892	-68.7429544167463
1197354200	-3.00116998069181	-146.630526650354
1219091500	-4.07103761116564	135.716364472093
1240828800	-3.83243421153276	70.824145364311
1262566100	-2.71507484761062	4.970546202148
1284303400	-2.35028356033762	-64.8607942293923
1306040700	-2.5353898189357	-141.027333508339
1327778000	-2.80868216075229	137.776258978414
1349515300	-3.02637926868762	60.974071377123
1371252600	-3.32115514922438	-4.27008468315967
1392989900	-3.07271678765836	-66.5154913799106
1414727200	-2.87291097238576	-137.68094139606
1436464500	-2.80729188215214	142.182265999675
1458201800	-2.50512523375218	62.6429794895232
1479939100	-2.35011218584761	-9.73939687769218
1501676400	-2.75288104036135	-77.9276830042425
1523413700	-3.53069824011003	-145.347606169342
1545151000	-3.556665960458	141.938307538049
1566888300	-2.99786501016508	64.3159192972351
1588625600	-2.41401820479986	-9.0862478695213
1610362900	-2.22987478814949	-78.5526169462261
1632100200	-2.56608021548701	-149.849630981815
1653837500	-3.36667357102465	134.176088261673
1675574800	-3.76808930107402	60.3397601049487
1697312100	-3.22568193427442	-10.2571445324684
1719049400	-2.72310105243337	-79.0779224703186
1740786700	-2.58944218959364	-148.203333657605
1762524000	-2.69975565907574	138.103633927417
1784261300	-2.92938892902366	60.3271374227434
1805998600	-3.16527224267989	-14.5264522223709
1827735900	-3.11128899617612	-82.7339577216944
1849473200	-2.85292661346571	-151.002165831987
1871210500	-2.76569150331649	137.733902774048
1892947800	-2.73204085375729	62.9221002121585
1914685100	-2.79888465407079	-12.6102595492517
1936422400	-2.99318782736844	-85.3677972147173
1958159700	-3.14827330753853	-154.513777559129
1979897000	-2.9969018813759	136.594463539092
2001634300	-2.7702979833875	64.7269022424226
2023371600	-2.65033861965608	-9.30221790844794
2045108900	-2.71709690739736	-83.0066778314007
2066846200	-2.79535981393248	-155.375372985899
2088583500	-2.76364521685327	133.951011401081
2110320800	-2.57358339594751	63.4380667923544
2132058100	-2.4490091064416	-8.83108463998238
2153795400	-2.48206437107796	-82.7874897033776
2175532700	-2.60353138187392	-157.278806996407
2197270000	-2.53393697314061	129.790100780233
2219007300	-2.33663216304379	58.924288382546
2240744600	-2.20701158956336	-11.2699648564465
2262481900	-2.26746188546614	-83.5227692077341
2284219200	-2.48549312431004	-158.311594144948
2305956500	-2.53563599245086	126.844444099686
2327693800	-2.36294356031291	54.2627998057901
2349431100	-2.18218358960035	-16.0178523422226
2371168400	-2.24268882107624	-86.763374656565
2392905700	-2.52768784492173	-160.375502613235
2414643000	-2.72745271057745	123.680507418506
2436380300	-2.57936972271899	48.6235100538693
2458117600	-2.36968665529694	-22.684033250141
2479854900	-2.35909487154737	-92.9219655116129
2501592200	-2.69663202982339	-164.862470422814
2523329500	-3.01936848110034	120.231425071746
2545066800	-3.06057905195683	44.7143031922441
2566804100	-2.88097190337234	-27.889633879859
2588541400	-2.72151132532041	-96.9389556596154
2610278700	-2.81109281630896	-167.020757868691
2632016000	-3.10774567462557	118.041537647072
2653753300	-3.31450032132294	40.0781789416008
2675490600	-3.18328176572419	-35.5405467399645
2697227900	-3.08731653587868	-105.07173793776
2718965200	-3.11079814312173	-171.463472726862
2740702500	-3.17689560471434	118.442876973564
2762439800	-3.30264036859308	40.9840259352095
2784177100	-3.25712629851998	-38.3518050632372
2805914400	-3.07843745571729	-111.105223259783
2827651700	-2.88589597634075	-177.437696531699
2849389000	-2.80238478662936	115.080630684864
2871126300	-2.90609353669739	40.3745804301292
2892863600	-2.94410138814595	-40.2567210673061
2914600900	-2.73864920893215	-117.104557520471
2936338200	-2.48631800677236	174.579843242087
2958075500	-2.46183248000027	109.601569840994
2979812800	-2.6502245041591	39.6414969701852
3001550100	-2.83464449046471	-39.5129681125021
3023287400	-2.76264278828788	-119.380033534768
3045024700	-2.45185892764097	170.044182936999
3066762000	-2.20304489738764	105.583550503429
3088499300	-2.22644159298845	38.4197944093279
3110236600	-2.58454185452801	-38.5737665742502
3131973900	-2.75009703821627	-120.311513977382
3153711200	-2.48587416342159	166.257089780526
3175448500	-2.09906938062015	102.080808611358
3197185800	-1.95464655307714	38.3349459006675
3218923100	-2.23923994953117	-34.5399421506501
3240660400	-2.66186454313432	-116.89790516474
3262397700	-2.54566864280826	164.885628139811
3284135000	-2.10933838879594	98.5035816794994
3305872300	-1.81273013807821	36.4225628245522
3327609600	-1.93776026520095	-31.6572163523286
3349346900	-2.43091276737742	-110.434466700497
3371084200	-2.56580300021539	168.902155538027
3392821500	-2.19696963625299	98.5878429500842
3414558800	-1.83323669190868	35.4525359753664
3436296100	-1.77364953344862	-29.7047073148565
3458033400	-2.16170797597854	-104.585565357505
3479770700	-2.49234853063762	174.097311943341
3501508000	-2.29655375153937	99.6410747783211
3523245300	-1.93054213107474	34.1676829163207
3544982600	-1.75452894331942	-30.0301237882819
3566719900	-1.98790852669266	-101.157626822095
3588457200	-2.34617254457487	179.562829991782
3610194500	-2.3346272084617	102.273205216734
3631931800	-2.01127060760566	33.524887877766
3653669100	-1.83281261534376	-31.882747516385
3675406400	-1.93040003714023	-100.614727180356
3697143700	-2.21343124355404	-176.341489764738
3718881000	-2.30747312329942	106.71483456698
3740618300	-2.16151888353363	35.1656656374273
3762355600	-2.03531657560113	-32.2761326586345
3784092900	-2.07059517724611	-101.575643070712
3805830200	-2.21539472962465	-175.288556107471
3827567500	-2.3036102860552	109.335665110978
3849304800	-2.25312480547587	36.7661344325652
3871042100	-2.26368321935886	-33.1739327056693
3892779400	-2.33080652776727	-103.951432316709
3914516700	-2.37873416572208	-176.887349632241
3936254000	-2.33964902215634	109.903996477898
3957991300	-2.32590657757859	38.4979090065139
3979728600	-2.48368229488101	-33.0649457842622
4001465900	-2.69291971201647	-106.456613779079
4023203200	-2.67870385914621	179.658829135289
4044940500	-2.48547016214526	108.673245618797
4066677800	-2.4016288056572	39.4623339945836
4088415100	-2.65590299850728	-31.882482421911
4110152400	-3.07832923170438	-108.303539963472
4131889700	-3.06116833606301	175.240059242715
4153627000	-2.71401136568415	104.765380298354
4175364300	-2.48567918727597	38.550188607096
4197101600	-2.7503029395269	-30.4876125460839
4218838900	-3.39664430861246	-108.04958891077
4240576200	-3.53155466966384	171.133885859251
4262313500	-3.01851684157711	98.8507784927075
4284050800	-2.57839248935582	34.500877634806
4305788100	-2.71341938128383	-30.9819350414795
4327525400	-3.49243512356094	-106.479405257128
4349262700	-3.92227184722176	170.017149905514
4371000000	-3.33845124206417	94.4666600546098
