!Keysight Technologies N9952A: A.10.01
!Date: Friday, 04 October 2019 12:17:54
!TimeZone: !Model: N9952A
!Serial: MY57201149
!GPS Latitude: 
!GPS Longitude: 
!GPS TimeStamp: 0001-01-01 00:00:00Z
!GPS Seconds Since Last Read: 0
!CHECKSUM:0561359153
!Correction: S11(Rdy)
!S1P File: Measurement: S11:
# Hz S DB R 50
23540000	-0.789958921328289	-109.805404048615
45277300	-1.08384283275824	159.747445017945
67014600	-1.19051270053099	36.7824138225891
88751900	-0.944171914452072	147.086261936316
110489200	-0.943721357664754	-12.7193457808741
132226500	-1.18509977334889	-118.201498311491
153963800	-1.75047756733116	143.189512451982
175701100	-3.5496649757701	55.8367261985016
197438400	-3.53272245703383	-23.0271042616282
219175700	-4.16441216057064	-124.580387936074
240913000	-11.0227267712749	30.9513659098323
262650300	-2.67115693027981	166.05286677634
284387600	-2.19586619376853	61.1946253950614
306124900	-2.39621833744807	-20.8949810379552
327862200	-3.261123608154	-101.371518658225
349599500	-3.68331148106046	178.552519173503
371336800	-3.68173459113168	94.8824231080676
393074100	-6.81915134429737	7.20206156078555
414811400	-3.78317788913644	-12.5755231013642
436548700	-2.28084748680846	-104.705946909201
458286000	-2.70354935605706	169.56096529848
480023300	-3.02413883655479	91.9802233852563
501760600	-2.7121396194991	17.7212653017642
523497900	-3.02697934922138	-59.7959936280628
545235200	-6.33832727767545	-132.539315536672
566972500	-4.41230686830132	172.430543886447
588709800	-3.25436153056171	93.5654408644877
610447100	-2.88361123737133	20.9303038334886
632184400	-2.14804534949787	-53.3493223887457
653921700	-2.19519377973151	-132.559700169066
675659000	-3.3035268133187	147.496257731795
697396300	-4.22735928548417	82.6845898934015
719133600	-3.19790233019549	14.0640029794341
740870900	-2.89084304053372	-57.1542213695237
762608200	-2.47375399104251	-131.885418112071
784345500	-2.48626735092947	148.479047994201
806082800	-3.04750693490092	73.3143338006807
827820100	-3.45509911286604	8.16961346266826
849557400	-2.97472004698164	-60.2422828745479
871294700	-2.70767529912054	-136.104475280241
893032000	-2.65139668890695	145.623992330211
914769300	-2.88311878348884	71.115415660839
936506600	-3.44948668459525	1.6797237380976
958243900	-3.77105093247846	-65.3583519128489
979981200	-3.36498054384532	-137.690417540592
1001718500	-2.88855637698361	146.255939433772
1023455800	-2.51071537976803	72.7971841341903
1045193100	-2.60780269940439	1.22536135576661
1066930400	-3.60754311325969	-68.6101140709776
1088667700	-4.01973081398372	-136.846796483699
1110405000	-3.14307592685154	147.782569870136
1132142300	-2.43567635891108	73.4343495533035
1153879600	-2.12627873409405	3.25993083693956
1175616900	-2.27010480096308	-68.608433881992
1197354200	-2.98295340603764	-146.522483726442
1219091500	-4.08336365080702	135.973792479726
1240828800	-3.82576576525025	70.820215542536
1262566100	-2.72444176025025	4.98781516745126
1284303400	-2.34612030521447	-64.9406375911544
1306040700	-2.5323806654147	-140.872310301216
1327778000	-2.78483528418092	137.710274415169
1349515300	-3.02507617297927	61.1168498371397
1371252600	-3.30408983685362	-4.33483278040775
1392989900	-3.09405604039446	-66.5745953070765
1414727200	-2.87514417757127	-137.606927706714
1436464500	-2.79911841280912	142.215968819958
1458201800	-2.51551718796753	62.8792327320233
1479939100	-2.35558755468491	-9.6845126842677
1501676400	-2.76548336508264	-77.8098654996687
1523413700	-3.54183162134022	-145.253262672006
1545151000	-3.56737714790707	141.915824862417
1566888300	-3.00378901856349	64.4744792878301
1588625600	-2.42835274097401	-9.01257425823434
1610362900	-2.23111513928251	-78.5031607270802
1632100200	-2.57249712133947	-149.806737081177
1653837500	-3.36751585845208	134.265410411421
1675574800	-3.79153728790708	60.2613252404988
1697312100	-3.24446935137703	-10.2647115608814
1719049400	-2.72606302017231	-78.9409182977359
1740786700	-2.57611756959555	-148.220226246378
1762524000	-2.70566001853635	138.05209230908
1784261300	-2.92700025637387	60.4133656515642
1805998600	-3.17585255641753	-14.4071463818942
1827735900	-3.10363490877141	-82.6228959512766
1849473200	-2.85376777685051	-150.876233558314
1871210500	-2.74806631791246	137.864372311117
1892947800	-2.74720423985453	62.8805068977366
1914685100	-2.78433967818714	-12.5750657915845
1936422400	-2.97440423659641	-85.279592405304
1958159700	-3.13867031901483	-154.373081028014
1979897000	-2.98807804928847	136.680304834245
2001634300	-2.7607671254702	64.74780580364
2023371600	-2.65173983631992	-9.10199492912019
2045108900	-2.71023203009356	-82.9757750193309
2066846200	-2.79811152692703	-155.274953716347
2088583500	-2.77134481320761	134.086692694394
2110320800	-2.58036443411815	63.352128185909
2132058100	-2.45381270330359	-8.67418949558877
2153795400	-2.49354755131735	-82.5876742774032
2175532700	-2.56830614675565	-157.069052332388
2197270000	-2.53792181034883	129.897175011581
2219007300	-2.33482992470972	59.0009924100844
2240744600	-2.19781739409436	-11.4366658811575
2262481900	-2.27059208571072	-83.5166705249624
2284219200	-2.47017310662031	-158.157555180322
2305956500	-2.5155399581159	127.045799265937
2327693800	-2.34236083917397	54.3434527721174
2349431100	-2.1915310987768	-16.003498361314
2371168400	-2.25314616420195	-86.8540280806052
2392905700	-2.5208702209798	-160.393513883169
2414643000	-2.69457707520539	123.805698828451
2436380300	-2.57695269178201	49.0317937674803
2458117600	-2.35784019791115	-22.6571415594434
2479854900	-2.36334358522188	-93.0093352478034
2501592200	-2.6808863723072	-164.626534334796
2523329500	-3.01793960268653	120.521292301383
2545066800	-3.02480525064576	44.7540464867266
2566804100	-2.87786887861559	-27.6725104592461
2588541400	-2.73983542686152	-96.9625143430139
2610278700	-2.8112265623657	-167.076439213424
2632016000	-3.07885393474387	118.311182990198
2653753300	-3.27100243121121	40.1921956229046
2675490600	-3.17904640720724	-35.4417450511093
2697227900	-3.08126731298481	-105.055327100269
2718965200	-3.07399939498486	-171.552892160631
2740702500	-3.17544730287646	118.413325169626
2762439800	-3.25543638033863	41.134738544833
2784177100	-3.22485804704051	-38.1423742517202
2805914400	-3.0745792125911	-111.094680400473
2827651700	-2.84199329557264	-177.575750945199
2849389000	-2.80102895532472	115.081991543771
2871126300	-2.88052327051965	40.4913097992179
2892863600	-2.91788847733515	-40.2093636421772
2914600900	-2.71554593007197	-116.9543156156
2936338200	-2.4965288977002	174.714197682965
2958075500	-2.46835816785034	109.65631536777
2979812800	-2.64598805854196	39.6750717942788
3001550100	-2.83171681137421	-39.4648976779602
3023287400	-2.72940296128197	-119.296659915465
3045024700	-2.43505768369175	170.095873882435
3066762000	-2.19316526338559	105.670860214219
3088499300	-2.22232088073463	38.3410750401172
3110236600	-2.5714647943333	-38.5021824741216
3131973900	-2.73126331843148	-120.231184691252
3153711200	-2.45148248537222	166.435725928006
3175448500	-2.06843870391729	102.255687868594
3197185800	-1.95441089596865	38.3264699397755
3218923100	-2.24487865405227	-34.5542958189101
3240660400	-2.63900940024431	-116.94055206658
3262397700	-2.52473295825497	164.959627631463
3284135000	-2.09639710779817	98.6302959973589
3305872300	-1.81217706313733	36.4056910811885
3327609600	-1.92859385214671	-31.605908953291
3349346900	-2.41115290191327	-110.315548749162
3371084200	-2.52517358150068	168.96358902942
3392821500	-2.17434283160077	98.586513323066
3414558800	-1.81201416750902	35.4980117666594
3436296100	-1.78090660390994	-29.6279465534582
3458033400	-2.1460512509927	-104.65035893374
3479770700	-2.47672351351689	174.087564226925
3501508000	-2.24373059356349	99.5665106586241
3523245300	-1.85898929405095	34.2386564099126
3544982600	-1.72373162557663	-29.9344607541503
3566719900	-1.98873534277403	-101.222554118566
3588457200	-2.35397839555758	179.433165348311
3610194500	-2.30781289656968	102.100267431906
3631931800	-1.97530931022031	33.508401098173
3653669100	-1.79407440057581	-31.6101214785123
3675406400	-1.93101688774723	-100.584240640455
3697143700	-2.22434708554077	-176.321535018787
3718881000	-2.29710119798472	106.604520128545
3740618300	-2.09774295779139	35.1751484645588
3762355600	-1.97156173928672	-32.3038019321555
3784092900	-2.05366034036003	-101.494675882238
3805830200	-2.24135322673878	-175.323296529523
3827567500	-2.29658744602207	109.275604068674
3849304800	-2.22232704400913	36.6818147063233
3871042100	-2.206220285374	-33.0999633881176
3892779400	-2.30046855752345	-104.010557990642
3914516700	-2.39045311703934	-176.865080177163
3936254000	-2.35779719830261	109.935580684858
3957991300	-2.33598893670326	38.4537971758692
3979728600	-2.44757120768745	-33.1361177224647
4001465900	-2.64079229267734	-106.413596244547
4023203200	-2.66093112178933	179.80791605909
4044940500	-2.52658990443179	108.651239523549
4066677800	-2.42204856665143	39.5295928725378
4088415100	-2.6342783961496	-31.9318916344889
4110152400	-3.03452261971577	-108.32210145845
4131889700	-3.06031863520501	175.348809094648
4153627000	-2.69507011490426	104.794769828357
4175364300	-2.48899753873006	38.5376450190509
4197101600	-2.74769288072512	-30.5914725322099
4218838900	-3.37583190114035	-108.03324832855
4240576200	-3.5130809043896	171.093161509906
4262313500	-3.00917730208865	98.8185405119659
4284050800	-2.57870089645062	34.6550368321977
4305788100	-2.73059139611912	-30.9688143370295
4327525400	-3.49057567985024	-106.468957678191
4349262700	-3.92175347700876	169.960969071596
4371000000	-3.32825890056406	94.3775850275135
