!Keysight Technologies N9923A: A.08.19
!Date: Thursday, 16 January 2020 11:30:00
!TimeZone: (GMT-03:00) Brasilia!Model: N9923A
!Serial: MY51491501
!GPS Latitude: 
!GPS Longitude: 
!GPS TimeStamp: 0001-01-01 00:00:00Z
!GPS Seconds Since Last Read: 0
!CHECKSUM:1078980270
!Correction: S11(ON U)
!S1P File: Measurement: S11:
# Hz S DB R 50
23740000	-0.138193259996327  -35.6477408994188
45476300	-0.302337005237026	-50.8848727905774
67212600	-0.381572250625341	-128.387207683079
88948900	-1.28838267231872	52.4257416516213
110685200	-0.649725565864681	-15.3830611795971
132421500	-0.715393537547068	-49.3817356397207
154157800	-0.932657210843826	-70.1816776719284
175894100	-1.00706080199186	-88.7296780951218
197630400	-0.677819632923196	-113.254047986755
219366700	-2.20103815584651	175.743798852192
241103000	-2.27315822947092	-16.3065615597375
262839300	-1.07771901761386	-74.677734711637
284575600	-0.866630258124822	-95.2516962678077
306311900	-1.11777480344339	-113.118025303818
328048200	-1.49301742008757	-119.370103018602
349784500	-1.16092035431464	-135.00258309263
371520800	-3.01296501427516	-165.265643876443
393257100	-5.98713128286824	-59.452090547264
414993400	-1.05936076734967	-116.183074924274
436729700	-1.02409971046676	-129.165081075266
458466000	-0.639260122168825	-141.221541705229
480202300	-0.919550744349524	-153.336861190963
501938600	-1.79071987842751	-167.889853565014
523674900	-8.43538507348142	155.052664831827
545411200	-2.27701860913938	-120.302671452875
567147500	-1.06530517682171	-143.188038018361
588883800	-0.800949838774828	-154.381831975936
610620100	-1.21271698719368	-163.575361181929
632356400	-1.5378846416829	-169.53765245253
654092700	-2.26690893464291	-178.661948136266
675829000	-7.86477940091588	-176.259326134965
697565300	-1.93167068919062	-152.890637038112
719301600	-1.38991707120938	-165.691210577336
741037900	-1.29011101686219	-171.86085781014
762774200	-1.3046149346968	-178.816658431506
784510500	-1.80080487569866	175.118455510896
806246800	-2.80996809798022	169.817924926046
827983100	-5.24175776345639	-178.533551988382
849719400	-2.17517309604587	-172.261493639136
871455700	-1.43811726205796	178.559264192172
893192000	-1.62692435618758	171.560966851787
914928300	-2.17335001541805	167.75187090646
936664600	-2.6995272654496	166.157342523828
958400900	-3.44312697411844	168.9134395442
980137200	-2.57130210767567	175.64438523417
1001873500	-1.53900497959753	170.282222923851
1023609800	-1.49399933174633	164.246260519237
1045346100	-1.81802145791114	159.798442268826
1067082400	-2.10610282749055	157.874308458619
1088818700	-2.64312321776445	156.290683181939
1110555000	-3.12248476950035	158.96136938149
1132291300	-2.460152066755	163.039439833659
1154027600	-1.82217954523531	159.98672334869
1175763900	-1.62729111951331	156.10927847296
1197500200	-1.65699474865604	153.66597052404
1219236500	-1.74559608956174	151.202827926797
1240972800	-1.91406553750334	149.627398339131
1262709100	-1.88816307417295	149.658450956193
1284445400	-1.76554158903712	148.65153358274
1306181700	-1.60420618450712	146.640854633358
1327918000	-1.54871983104601	144.827507191609
1349654300	-1.5854225089491	142.834956369804
1371390600	-1.57547536134815	141.251271583108
1393126900	-1.59640154600876	140.260924458991
1414863200	-1.51887269301145	139.010197392154
1436599500	-1.45011397176933	137.246647741271
1458335800	-1.45769295500565	135.805566163471
1480072100	-1.41752105354997	134.349758635259
1501808400	-1.38741897071778	132.945327911808
1523544700	-1.35432985998356	131.481987205176
1545281000	-1.29690261441102	130.071780911604
1567017300	-1.27637407730097	128.576083686873
1588753600	-1.24633358082548	126.958113075241
1610489900	-1.18666163471489	125.680339052097
1632226200	-1.17992881058215	124.078244637544
1653962500	-1.1181786320388	122.452320659918
1675698800	-1.04274705639898	121.041717851926
1697435100	-1.07096588318866	119.03359879858
1719171400	-1.07510346238674	117.052608081653
1740907700	-1.13714163471209	116.131583509014
1762644000	-1.21213826398653	115.061351291777
1784380300	-1.07009207656163	114.044769678737
1806116600	-0.980080163501233	112.93363857937
1827852900	-0.970187945984133	110.908200108746
1849589200	-0.88123840993931	109.17545451395
1871325500	-0.873849300108326	107.752090545871
1893061800	-0.947347706203777	105.745147053601
1914798100	-0.907233372930081	104.473981849232
1936534400	-0.907217668675686	103.577149807884
1958270700	-0.876819047620919	101.624410052423
1980007000	-0.825302041345968	99.9667029543722
2001743300	-0.867651425253858	98.4882969528811
2023479600	-0.970906099022484	96.6999152781394
2045215900	-0.98670161245179	96.1590568844957
2066952200	-0.921010083293512	95.5507891566862
2088688500	-0.819523577606476	93.9307235238403
2110424800	-0.745749630622327	92.2788651572871
2132161100	-0.723009579585975	90.6174731127713
2153897400	-0.74323428716914	88.7787751437453
2175633700	-0.813223954368623	87.3970026694495
2197370000	-0.786983519946797	86.6859583000685
2219106300	-0.686399985926795	85.5126445722133
2240842600	-0.645459428340241	83.7087196866965
2262578900	-0.57332579186095	82.1647578209428
2284315200	-0.583709510370871	80.6068899763948
2306051500	-0.642759933644558	78.8138433240057
2327787800	-0.55924836434651	77.7724988310046
2349524100	-0.530617184787147	76.4364808967601
2371260400	-0.555898193354131	74.5139493344017
2392996700	-0.45275638067102	73.1486301576464
2414733000	-0.448874898584216	71.6931706943501
2436469300	-0.523706617960967	69.4799194892018
2458205600	-0.458698260769285	68.2410125632367
2479941900	-0.542756709135663	66.9349537624967
2501678200	-0.616401480039776	65.1726578127855
2523414500	-0.520017673086607	64.5710367920317
2545150800	-0.502982112663532	63.3809439447343
2566887100	-0.490504904048907	61.1661084737156
2588623400	-0.38872317966594	59.7964520593925
2610359700	-0.441276799604973	58.2390185497807
2632096000	-0.524897789455535	56.1349295647602
2653832300	-0.498331988806278	55.1472409853244
2675568600	-0.524571944839943	54.1236385744694
2697304900	-0.526543307771069	52.358423425587
2719041200	-0.458091965865894	51.1638140482694
2740777500	-0.457512228714039	49.5444677020611
2762513800	-0.514687664945597	47.6408901415348
2784250100	-0.539014321417758	46.3250654070783
2805986400	-0.536740581543092	45.2500929852647
2827722700	-0.567510886647957	43.9067587288519
2849459000	-0.535124075722383	42.4196456843073
2871195300	-0.506596572292855	41.0266219483513
2892931600	-0.574593159159499	39.7277965280762
2914667900	-0.581021988867238	38.2529149638103
2936404200	-0.516264530078444	36.9986231871955
2958140500	-0.577442085852803	35.8298820146458
2979876800	-0.577848667144461	34.2693620130707
3001613100	-0.449613452319729	32.9831721042939
3023349400	-0.508683016854677	31.4073414980824
3045085700	-0.59004055106325	29.485606571088
3066822000	-0.515451203008829	28.4328748559627
3088558300	-0.624726947866124	27.5010455878519
3110294600	-0.635227864827116	25.855684779393
3132030900	-0.457483931135958	24.9075046823389
3153767200	-0.526869564367208	23.3449437732147
3175503500	-0.567236363409748	21.2388070442761
3197239800	-0.462637749077874	20.2903521086589
3218976100	-0.595539667811292	19.0234497354486
3240712400	-0.589240895351745	17.3153888531209
3262448700	-0.45268956811907	16.351165965845
3284185000	-0.52296420511087	14.7397488747272
3305921300	-0.55590737519043	12.8463079167524
3327657600	-0.481862487570073	11.8863214695543
3349393900	-0.529224892699234	10.5742931274539
3371130200	-0.524390341240746	9.00668715683653
3392866500	-0.414033965738666	7.82086379999369
3414602800	-0.405966154821318	6.22911734522099
3436339100	-0.428748669679482	4.49120568120098
3458075400	-0.354559340826974	3.02390994762994
3479811700	-0.347962391918328	1.56905928694612
3501548000	-0.389908210684094	-0.0399927928802516
3523284300	-0.330471300038356	-1.54197140340223
3545020600	-0.278558563427855	-3.08499329485105
3566756900	-0.342909199791257	-4.81308642377998
3588493200	-0.288613619892726	-6.56663341763379
3610229500	-0.24418695809781	-7.90732432957552
3631965800	-0.30613381272164	-9.65263481772476
3653702100	-0.260800006628763	-11.4532543887991
3675438400	-0.187909824072135	-12.8555580878933
3697174700	-0.268707572317215	-14.6831710700291
3718911000	-0.222232950532147	-16.5887990553592
3740647300	-0.163662756202158	-17.9439598947332
3762383600	-0.245986428448633	-19.8252858926572
3784119900	-0.208165262923623	-21.7277649221356
3805856200	-0.14822457358534	-23.1112242804166
3827592500	-0.240957977454289	-25.1432696394805
3849328800	-0.198581505141139	-27.0771977582281
3871065100	-0.136806714464509	-28.4306203384785
3892801400	-0.20562191349467	-30.718064848514
3914537700	-0.189599359894524	-32.4926714214016
3936274000	-0.138784553738104	-33.9842445564476
3958010300	-0.205763218074178	-36.1480065305832
3979746600	-0.19602163572664	-38.0515862131498
4001482900	-0.140859167206064	-39.6765016430091
4023219200	-0.201265715236692	-41.7639975244747
4044955500	-0.186173812792607	-43.8407172615854
4066691800	-0.135797706471209	-45.5162879809017
4088428100	-0.206163861650137	-47.6751243483599
4110164400	-0.192411843102474	-49.7966690581707
4131900700	-0.1398312581753	-51.5490811767497
4153637000	-0.197462445000905	-53.5687517238765
4175373300	-0.192752377914048	-55.7486025673398
4197109600	-0.136381148116224	-57.7816455490022
4218845900	-0.200508927378412	-59.7857306683264
4240582200	-0.222763547059421	-62.175351393744
4262318500	-0.13739872829925	-64.088791158413
4284054800	-0.222806990904458	-66.1471724543299
4305791100	-0.260596984247925	-68.5609464249352
4327527400	-0.188900200385051	-70.4894951277645
4349263700	-0.219012534492613	-72.9123954002978
4371000000	-0.281632583777128	-75.5739882374141
