!Keysight Technologies N9952A: A.10.01
!Date: Friday, 04 October 2019 12:19:23
!TimeZone: !Model: N9952A
!Serial: MY57201149
!GPS Latitude: 
!GPS Longitude: 
!GPS TimeStamp: 0001-01-01 00:00:00Z
!GPS Seconds Since Last Read: 0
!CHECKSUM:1426556715
!Correction: S11(Rdy)
!S1P File: Measurement: S11:
# Hz S DB R 50
23540000	-0.802234136998502	-110.158968898638
45277300	-1.09491671361382	159.769406298676
67014600	-1.19739207235891	36.7292947658269
88751900	-0.942439353271652	147.128583858385
110489200	-0.937667239297027	-12.7617045724091
132226500	-1.18297608433859	-118.128526792573
153963800	-1.77114133469254	143.245242196504
175701100	-3.54830277124906	55.7212175977696
197438400	-3.54405049729099	-22.9086357381202
219175700	-4.15539187997075	-124.634638256961
240913000	-11.0063914161374	31.1341936404253
262650300	-2.65691525167503	166.015499247603
284387600	-2.20739981356914	61.2315312139183
306124900	-2.39577215355327	-20.9653560121877
327862200	-3.25958225577584	-101.404668294843
349599500	-3.68492953898159	178.5739719229
371336800	-3.68522021670075	94.8386065996677
393074100	-6.81494325944426	7.14886610571237
414811400	-3.7845163562986	-12.6206765141591
436548700	-2.29665273819338	-104.692259196367
458286000	-2.71815207453207	169.56157920485
480023300	-3.04102566250047	92.0608038226904
501760600	-2.72150789835837	17.8186068049819
523497900	-3.03134357634347	-59.8447636070598
545235200	-6.32735148336026	-132.541235879871
566972500	-4.42709928478615	172.481705951188
588709800	-3.25011375281139	93.5578642858987
610447100	-2.89358639117992	20.8281630601232
632184400	-2.14345850169421	-53.3995172412999
653921700	-2.20116936438108	-132.574808836977
675659000	-3.32102559527677	147.246112323012
697396300	-4.20747695381846	82.6886382373329
719133600	-3.20169837517526	14.0522642537973
740870900	-2.88369032287699	-57.2826372971646
762608200	-2.4817860058308	-131.973970647858
784345500	-2.48455014359218	148.397105417576
806082800	-3.05944998328559	73.3266011612481
827820100	-3.46426142611558	8.18904945221499
849557400	-2.98069949026444	-60.290682421479
871294700	-2.71648808214382	-136.103430351465
893032000	-2.66099263126969	145.584677247768
914769300	-2.89500875491728	71.0526429700228
936506600	-3.45873608771996	1.71725640865411
958243900	-3.76183418379681	-65.4110567177471
979981200	-3.37446081089458	-137.700824951054
1001718500	-2.90107666435338	146.313327916494
1023455800	-2.51618859250776	72.7446939474439
1045193100	-2.62608347077412	1.27226134433172
1066930400	-3.61758820813878	-68.689999441717
1088667700	-4.00397371089391	-136.845650295946
1110405000	-3.15234934648223	147.849272519896
1132142300	-2.42893016355654	73.3445588853416
1153879600	-2.12576615689977	3.1975663000329
1175616900	-2.27718330288005	-68.6434867379919
1197354200	-2.99161331387199	-146.58464402776
1219091500	-4.08441203987794	135.906873477601
1240828800	-3.83730232251884	70.829002146585
1262566100	-2.72871525650157	4.94225748848576
1284303400	-2.34544215374421	-64.8954709401188
1306040700	-2.53809294121937	-140.952525127178
1327778000	-2.7946765772502	137.784434044706
1349515300	-3.02928134455035	61.0375934010993
1371252600	-3.32127416927013	-4.29136155014233
1392989900	-3.08532887408863	-66.5732678980592
1414727200	-2.88075907358941	-137.635859726174
1436464500	-2.79435043957464	142.18111010913
1458201800	-2.51718340008499	62.7485482509704
1479939100	-2.3463018305327	-9.61546059962926
1501676400	-2.75686190891207	-77.8804353805235
1523413700	-3.53918120795247	-145.281782346161
1545151000	-3.56881384243433	141.870315711838
1566888300	-3.00769505181203	64.4475621250938
1588625600	-2.42829460585055	-8.98056467266883
1610362900	-2.24429623427439	-78.5420896040675
1632100200	-2.57677345157389	-149.86861258197
1653837500	-3.3570209922922	134.204094189259
1675574800	-3.76986625590625	60.2965316172769
1697312100	-3.2265950455975	-10.2419243730389
1719049400	-2.72790388004274	-79.0455005076614
1740786700	-2.59953416499351	-148.240030668423
1762524000	-2.71036129777329	138.067610832406
1784261300	-2.93852955862916	60.3460879726817
1805998600	-3.16596107319209	-14.4482285932171
1827735900	-3.1109318627577	-82.6233451703188
1849473200	-2.85518318570075	-150.945582227295
1871210500	-2.7671538845371	137.694140986078
1892947800	-2.73924536696479	62.8834812077477
1914685100	-2.79711254187463	-12.6131121381851
1936422400	-2.97681142293676	-85.3408232880745
1958159700	-3.14693281560491	-154.309074466287
1979897000	-3.00140615993611	136.721626584207
2001634300	-2.75981789984943	64.7270741249518
2023371600	-2.66207647482515	-9.27678596876232
2045108900	-2.71701979834351	-82.9717657549018
2066846200	-2.80684601158166	-155.199845666667
2088583500	-2.77198734364408	134.08520139404
2110320800	-2.59910634491706	63.3984689207405
2132058100	-2.45148718610995	-8.75905970656001
2153795400	-2.47691935502522	-82.7204282387107
2175532700	-2.57847438475394	-157.150402306822
2197270000	-2.53359195367335	129.848830281738
2219007300	-2.34388435800434	58.9465972568307
2240744600	-2.20626953563927	-11.3896420131338
2262481900	-2.2652241745494	-83.4762298882541
2284219200	-2.47774696547648	-158.15105761114
2305956500	-2.51911886251612	126.941284891093
2327693800	-2.34029533099686	54.3059980955435
2349431100	-2.18301643993266	-15.9652456056406
2371168400	-2.25681761693944	-86.7578501045529
2392905700	-2.52946001856529	-160.328407124192
2414643000	-2.70275807814682	123.75144145642
2436380300	-2.56943006958584	48.9389401168492
2458117600	-2.35835366112384	-22.653719138603
2479854900	-2.37281881285306	-92.8561102136055
2501592200	-2.68998370984915	-164.741738753564
2523329500	-3.00432274235476	120.369185698209
2545066800	-3.03637316407558	44.7384155929295
2566804100	-2.86850741196546	-27.6713163873143
2588541400	-2.75214967476048	-96.8803670626625
2610278700	-2.81477451654629	-167.069824026134
2632016000	-3.09447227120999	118.109434019984
2653753300	-3.27458960644033	40.1893248198079
2675490600	-3.18009951682565	-35.4352759627065
2697227900	-3.08748882429996	-105.03025949294
2718965200	-3.09404398861315	-171.563033295467
2740702500	-3.18389008441919	118.399456783793
2762439800	-3.2710314219792	41.1049362673065
2784177100	-3.22960054181515	-38.0816939035787
2805914400	-3.06794702968431	-111.040979569546
2827651700	-2.87077577127351	-177.64274573147
2849389000	-2.80508843288674	115.052526614672
2871126300	-2.87687944754421	40.5829000133897
2892863600	-2.92454853713894	-40.2420925615277
2914600900	-2.72390713399302	-117.040410948199
2936338200	-2.50931182719284	174.664045381977
2958075500	-2.46582807252814	109.581453699363
2979812800	-2.6445444284188	39.7532022318454
3001550100	-2.8245714793191	-39.4468681482636
3023287400	-2.72393076328013	-119.339106126493
3045024700	-2.42546707369602	170.042503771832
3066762000	-2.19620583574397	105.677886995129
3088499300	-2.24509337016155	38.4243189928283
3110236600	-2.57643300335821	-38.6366226673677
3131973900	-2.73408782692301	-120.385444862402
3153711200	-2.43659395075824	166.3395545466
3175448500	-2.07994663842702	102.253416116607
3197185800	-1.97169590189221	38.3351437648037
3218923100	-2.24032597136372	-34.5770952766266
3240660400	-2.65098105204407	-116.991923485241
3262397700	-2.52014475186195	165.060933940233
3284135000	-2.0917459204691	98.6604190896761
3305872300	-1.82133677603605	36.3375035224849
3327609600	-1.93138422162194	-31.6452687366921
3349346900	-2.40508653421228	-110.440170298699
3371084200	-2.53782641011842	168.964060695766
3392821500	-2.16735507797775	98.5645896814708
3414558800	-1.80877889562842	35.501013957219
3436296100	-1.7819588657445	-29.7004860519232
3458033400	-2.1661108785065	-104.609803459934
3479770700	-2.48264579837768	174.080413522758
3501508000	-2.25578513629961	99.5555986549366
3523245300	-1.87908467238285	34.2348741563335
3544982600	-1.73356784190753	-29.9694732921829
3566719900	-1.98439607116909	-101.1736496253
3588457200	-2.35196217429576	179.501203763994
3610194500	-2.31039378680471	102.213479098676
3631931800	-1.9979068578846	33.470015919315
3653669100	-1.8198759130753	-31.5947472808969
3675406400	-1.93767205639489	-100.541382197373
3697143700	-2.23909831374359	-176.399317910506
3718881000	-2.31332365049869	106.661967608106
3740618300	-2.12640129636452	35.2128258494092
3762355600	-1.98899941185448	-32.2238659245076
3784092900	-2.06226912487213	-101.474129142255
3805830200	-2.23250385440137	-175.209258678884
3827567500	-2.30883064950883	109.331606448051
3849304800	-2.23781873473561	36.7353693043696
3871042100	-2.22205746372715	-33.1925160057977
3892779400	-2.29910290521251	-103.950590970082
3914516700	-2.38404864729552	-176.900681581105
3936254000	-2.36155108425267	109.986402036441
3957991300	-2.3234441402179	38.4208286573379
3979728600	-2.44681057909117	-33.0877255011081
4001465900	-2.64217937803858	-106.45866002032
4023203200	-2.65910855078779	179.788759826433
4044940500	-2.49490229220127	108.689788099805
4066677800	-2.41547334188382	39.5417856669773
4088415100	-2.64312574820363	-32.0370949881955
4110152400	-3.0365092088005	-108.222717269377
4131889700	-3.05389089584416	175.323143914817
4153627000	-2.70880558561136	104.784796409131
4175364300	-2.49641130286537	38.5769197831761
4197101600	-2.74631590661929	-30.6286758758709
4218838900	-3.36929973305751	-108.152610611934
4240576200	-3.51122056748605	171.138479598254
4262313500	-2.99836667944928	98.8903222329193
4284050800	-2.58312211983331	34.5899867722815
4305788100	-2.7154766211704	-31.0388970162429
4327525400	-3.48913763905764	-106.545530933744
4349262700	-3.90652921751318	169.95685051947
4371000000	-3.32338124409821	94.497283578238
