!Keysight Technologies N9923A: A.08.19
!Date: Thursday, 16 January 2020 11:30:00
!TimeZone: (GMT-03:00) Brasilia!Model: N9923A
!Serial: MY51491501
!GPS Latitude: 
!GPS Longitude: 
!GPS TimeStamp: 0001-01-01 00:00:00Z
!GPS Seconds Since Last Read: 0
!CHECKSUM:1078980270
!Correction: S11(ON U)
!S1P File: Measurement: S11:
# Hz S DB R 50
23740000 0.00344774370600344 -28.092786240342
47276300 0.00379902388539248 -62.5163053103132
70812600 -0.0413135200081564 -130.49491961536
94348900 -0.218799521624805 56.5311722132156
117885200 -0.16790631790509 -22.3107833709773
141421500 -0.0304449630854683 -56.4685533809064
164957800 -0.0542076313649799 -80.250314476142
188494100 -0.184828172830573 -103.272206556964
212030400 -1.28725001785998 -137.243108833098
235566700 -14.139051729718 158.140216314193
259103000 -0.700091234866867 -64.010997177488
282639300 -0.210211134562541 -103.008767910635
306175600 -0.335968317910812 -121.634384149738
329711900 -0.874676776238878 -137.071186280448
353248200 -2.3599346939605 -146.365350095297
376784500 -2.55586630143219 -152.497730774055
400320800 -12.8257343675198 171.959503084528
423857100 -1.15638496060017 -129.794204856033
447393400 -1.19377861985338 -149.571989275503
470929700 -2.18243535226954 -156.93256692909
494466000 -1.95715984441395 -156.066524860249
518002300 -1.28482589599727 -162.964909335844
541538600 -1.47321516443997 -172.735079380519
565074900 -2.22275531888649 -174.197413757734
588611200 -2.28232429802489 178.044984271003
612147500 -4.21329493654574 -179.275102258056
635683800 -2.48579859764521 -170.368285160216
659220100 -1.50865771124012 -178.345504295559
682756400 -1.41937715200358 175.984181113113
706292700 -0.961752479704446 170.608240943279
729829000 -1.13329022070844 162.120175060166
753365300 -2.18374159209178 155.154397955495
776901600 -3.04481018074716 160.448140757446
800437900 -2.55738379422405 160.220550087631
823974200 -2.16286895000205 160.929109765458
847510500 -1.32013656810447 155.192716054732
871046800 -1.37768928679416 146.559821990714
894583100 -2.47240758492651 140.000980911645
918119400 -3.31841219411441 146.058741611094
941655700 -2.62234866014291 149.315311313976
965192000 -1.56858792244965 146.30852291148
988728300 -1.0600207586728 138.428422113662
1012264600 -1.1719246393501 129.281318674508
1035800899 -2.19761469051441 118.572229326941
1059337200 -6.38385005886208 121.176372860636
1082873500 -3.16700518061312 149.678430507486
1106409800 -1.16401094112853 137.988126018707
1129946100 -0.742720894571178 128.099854718391
1153482400 -0.799715404757949 119.328693297186
1177018700 -1.43451471331007 110.646207591107
1200555000 -3.3189309826874 106.588427403656
1224091300 -4.38740629921032 124.290744592026
1247627600 -3.69209682165711 126.905698291862
1271163900 -4.05705810265235 119.352955175355
1294700200 -3.94423701001805 110.423140378229
1318236500 -3.38124398893469 103.101917157174
1341772800 -2.72591330904139 98.350453330753
1365309100 -2.18888730879606 95.2118959061191
1388845400 -1.79645043256094 92.7351100928022
1412381700 -1.51621507997296 90.4320473290544
1435918000 -1.31387381187862 88.1058988370445
1459454300 -1.16457334608666 85.6908923557018
1482990600 -1.05185060938403 83.1734009281433
1506526900 -0.964944546223335 80.5587286993575
1530063200 -0.896718934965432 77.8579061961417
1553599500 -0.842320746007039 75.0826690800831
1577135800 -0.798354385146546 72.2437121870662
1600672100 -0.762377058422608 69.3502317855127
1624208400 -0.732587710795551 66.4099536384165
1647744700 -0.707632457858882 63.4293237555285
1671281000 -0.686480899982011 60.4137341067683
1694817300 -0.668346311378172 57.3677355309162
1718353600 -0.652633576312538 54.2952224183996
1741889900 -0.638905160792907 51.1995861555802
1765426200 -0.626859269482392 48.083838203855
1788962500 -0.61631673687862 44.9507036713245
1812498800 -0.607214760272807 41.8026839286497
1836035100 -0.599606638380219 38.6420822600993
1859571400 -0.593667361719942 35.4709785541574
1883107700 -0.589705072911554 32.291125020872
1906644000 -0.588177405452866 29.1037103132807
1930180300 -0.589707552116538 25.9088978424515
1953716600 -0.595082530659391 22.704982381497
1977252900 -0.605183783864383 19.4869538347292
2000789199 -0.620726814624982 16.2443637106342
2024325500 -0.641562193309917 12.9592146481211
2047861800 -0.665255160615196 9.60738976185665
2071398100 -0.685379473696869 6.17199117223996
2094934400 -0.692284335319646 2.67328932101657
2118470700 -0.679728266525389 -0.813107103244241
2142007000 -0.652020842598184 -4.19802084737713
2165543300 -0.62063945024307 -7.44381024316396
2189079600 -0.594974646367793 -10.5686383389783
2212615900 -0.578858108973239 -13.6078608902104
2236152200 -0.572442321596589 -16.5886895314893
2259688500 -0.574539465621126 -19.5259532469865
2283224800 -0.583810440447367 -22.4257219722655
2306761100 -0.599143262433489 -25.2892026224352
2330297400 -0.619696128711196 -28.1152413092687
2353833700 -0.644843906484551 -30.9016861460172
2377370000 -0.674114167241027 -33.6460781177519
2400906300 -0.704520694083912 -36.3652315551334
2424442600 -0.703104706827136 -39.2804471085497
2447978900 -0.699060469037724 -42.1622516186594
2471515200 -0.692675293647867 -45.0101418342488
2495051500 -0.684229885782279 -47.8238163642242
2518587800 -0.673996357169858 -50.6031631902228
2542124100 -0.662236567730732 -53.3482466454052
2565660400 -0.649200770780921 -56.059294219972
2589196700 -0.635126531062467 -58.736683495541
2612733000 -0.620237879534026 -61.380929448307
2636269300 -0.604744665406741 -63.9926722966593
2659805600 -0.588842064156173 -66.5726660037824
2683341900 -0.572710200104188 -69.1217674802507
2706878200 -0.556513843657904 -71.6409264659431
2730414500 -0.540402146542765 -74.131176004871
2753950800 -0.524508383641295 -76.5936233611679
2777487100 -0.508949677752981 -79.0294411607312
2801023400 -0.493826694249743 -81.439858483411
2824559700 -0.479223306799056 -83.8261515797013
2848096000 -0.465206253597447 -86.1896338506216
2871632300 -0.451824826215037 -88.5316447197166
2895168600 -0.43911066005994 -90.8535370542749
2918704900 -0.427077725773984 -93.1566628728614
2942241200 -0.415722652747507 -95.4423572207811
2965777500 -0.405025546510724 -97.7119203111249
2989313800 -0.394951487311926 -99.9665983109222
3012850100 -0.385452913987989 -102.207563472013
3036386400 -0.376473103093466 -104.435894603194
3059922700 -0.36795095006377 -106.652559044072
3083459000 -0.359827256053331 -108.858397151941
3106995300 -0.352052740183652 -111.054109560459
3130531600 -0.344598061166164 -113.24024562206
3154067900 -0.337466271646143 -115.417187601933
3177604200 -0.330708320631722 -117.585117560469
3201140500 -0.324442230387171 -119.743938791403
3224676800 -0.318875440261252 -121.893094065069
3248213100 -0.314324245501916 -124.03116763739
3271749400 -0.311204277334633 -126.155074754119
3295285700 -0.309906426725274 -128.258624447266
3318822000 -0.310341375321086 -130.330834512545
3342358300 -0.310869487995322 -132.357234591667
3365894600 -0.307247096451123 -134.33241410535
3389430900 -0.294736737370421 -136.281652374664
3412967200 -0.273774019284584 -138.251816528479
3436503500 -0.249978917775548 -140.265895211073
3460039800 -0.228031504038953 -142.313504375567
3483576100 -0.209403470131733 -144.376404147001
3507112400 -0.193831616043316 -146.442723707819
3530648700 -0.180653302844365 -148.50719956805
3554185000 -0.169290677746427 -150.568338352987
3577721300 -0.159330956631806 -152.626410161466
3601257600 -0.150495719422218 -154.682429160897
3624793900 -0.142597971058889 -156.737692109412
3648330200 -0.135509280088445 -158.793580965558
3671866500 -0.12913802139877 -160.851483129586
3695402800 -0.123415696860368 -162.912762884681
3718939100 -0.118288505941787 -164.97875480474
3742475400 -0.113712196395788 -167.050766374435
3766011700 -0.109648938333345 -169.130084282046
3789548000 -0.106065444135191 -171.217982007701
3813084300 -0.102931857236212 -173.31572772059
3836620600 -0.100221117103837 -175.424592110739
3860156900 -0.0979086202064695 -177.545856048178
3883693200 -0.0959720656610313 -179.680818076426
3907229500 -0.0943914167379141 178.169198206386
3930765800 -0.0931489358109874 176.002836808498
3954302100 -0.0922292668759427 173.818701972772
3977838400 -0.0916195501799636 171.615350697493
4001374700 -0.0913095601046971 169.391285076579
4024911000 -0.0912918616399272 167.144944387739
4048447300 -0.091561983459823 164.874696858386
4071983600 -0.0921186073215066 162.578831039926
4095519900 -0.0929637745958736 160.255546721431
4119056200 -0.094103111433328 157.902945313819
4142592500 -0.0955460744986689 155.519019635795
4166128800 -0.0973062194613733 153.101643033068
4189665100 -0.0994014945444906 150.648557763219
4213201400 -0.101854561434391 148.157362580384
4236737700 -0.104693145730715 145.625499457086
4260274000 -0.107950418848746 143.050239385947
4283810300 -0.111665412834297 140.428667212167
4307346600 -0.115883468853241 137.757665459965
4330882900 -0.12065671909099 135.033897133718
4354419200 -0.126044600329762 132.253787499195
4377955500 -0.13211439541864 129.413504884196
4401491800 -0.138941796026451 126.5089405838
4425028100 -0.146611476233543 123.535688016758
4448564400 -0.155217661378822 120.489021360576
4472100700 -0.164864669767114 117.363873998719
4495637000 -0.175667395915532 114.154817250493
4519173300 -0.18775169245467 110.856040029974
4542709600 -0.20125459300551 107.461330303733
4566245900 -0.216324299685159 103.964059497938
4589782200 -0.233119835719045 100.357171354625
4613318500 -0.251810235428925 96.6331771655375
4636854800 -0.272573110381026 92.7841598301377
4660391100 -0.295592392029214 88.8017897993538
4683927400 -0.321055009058821 84.6773566793141
4707463700 -0.349146214680076 80.4018210699399
4731000000 -0.380043240562116 75.9658920740547
