!Keysight Technologies N9923A: A.08.19
!Date: Thursday, 16 January 2020 11:30:00
!TimeZone: (GMT-03:00) Brasilia!Model: N9923A
!Serial: MY51491501
!GPS Latitude: 
!GPS Longitude: 
!GPS TimeStamp: 0001-01-01 00:00:00Z
!GPS Seconds Since Last Read: 0
!CHECKSUM:1078980270
!Correction: S11(ON U)
!S1P File: Measurement: S11:
# Hz S DB R 50
21660000 0.00174158600253029 -41.4855152376831
43316700 -0.098741253039549 91.6832812685922
64973400 -0.0965374608930875 -17.7682681815077
86630100 -0.0185767144013264 -51.6516744155446
108286800 -0.17675306443284 -109.110290293143
129943499 -0.754546015749606 -23.047089459437
151600200 -0.0979382792084202 -65.0067700663774
173256900 -0.187775561637255 -94.8656546217971
194913600 -14.4671311382708 64.9317808972245
216570300 -0.65546478723356 -77.1837962422497
238227000 -0.220169985960985 -105.851035545565
259883700 -2.1553818789334 -141.448519324675
281540400 -4.20996263726726 -91.8149642192072
303197100 -0.426745082594786 -113.3699021771
324853800 -0.894147033615891 -134.848013395677
346510500 -3.72846194351187 -126.650109667657
368167200 -2.03172963241308 -126.360440305066
389823900 -0.751287209977188 -143.408572058049
411480600 -3.39044295001244 -151.39539458024
433137300 -2.29884971049764 -146.908648811337
454794000 -1.11963897570568 -148.019129560319
476450700 -1.90476613019413 -160.236020514455
498107400 -1.38234605984703 -156.386346599102
519764099 -1.30695842229932 -167.280817523363
541420800 -1.95834582128476 -170.872568086524
563077500 -2.11304492074276 -164.921338778789
584734200 -1.11903523960514 -174.332746378003
606390900 -2.32712339672659 -178.591018568677
628047600 -2.09902068509848 -174.043306360124
649704300 -0.797981628069879 179.911902451653
671361000 -0.848178653282781 168.898935568646
693017700 -3.78788731697367 161.893009544031
714674400 -1.3965977112021 177.623708328134
736331100 -0.827237004383204 165.022859436634
757987800 -2.71572667206235 153.419456321957
779644500 -1.7474247128679 172.704529471847
801301200 -0.698993897952221 159.886819578327
822957900 -1.11418267992057 149.277501592383
844614600 -4.18510556204114 144.980364492711
866271300 -1.12700312755587 160.445346039927
887928000 -0.959327975261664 146.309016232117
909584700 -2.73007948159421 138.692260955045
931241400 -1.51579714981168 155.043923144674
952898100 -0.768812288340984 141.585258700976
974554800 -1.61937033559491 132.61300669078
996211500 -3.44052313207346 136.096091203144
1017868199 -1.23472112518805 141.606040793757
1039524900 -1.332452143574 129.643211489333
1061181600 -2.60040626002137 129.036509686696
1082838300 -1.58444031274434 134.968668897962
1104495000 -1.01119822395302 124.494254803336
1126151700 -1.98160188024709 119.20516838212
1147808400 -2.35634978693934 123.187535189296
1169465100 -1.64676986482429 122.883958406901
1191121800 -1.69018067675459 120.179657077942
1212778500 -1.71938130749733 117.449839941384
1234435200 -1.73341171422501 114.704838508366
1256091900 -1.73136905876157 111.959269900194
1277748600 -1.71264226810123 109.233844228827
1299405300 -1.67740806536484 106.557412274564
1321062000 -1.62757968953214 103.96822859841
1342718700 -1.56838818993432 101.51151507113
1364375400 -1.51040231806295 99.2272860483721
1386032100 -1.47053986656442 97.1210740545565
1407688800 -1.46865767794276 95.1214360727714
1429345500 -1.51706371182959 93.0608974362978
1451002200 -1.60876046837859 90.7333155426306
1472658900 -1.71803793244012 88.0072839397665
1494315600 -1.81538482871122 84.8854514996627
1515972300 -1.88122155249641 81.4623372663317
1537629000 -1.90826149365367 77.8501105506852
1559285700 -1.89676995282098 74.1373949119297
1580942400 -1.84958740143017 70.3847800931094
1602599100 -1.7694887938761 66.6370720296007
1624255800 -1.65876396909386 62.9383414680823
1645912500 -1.52051587734581 59.343105758558
1667569200 -1.36121771522376 55.9175697405309
1689225900 -1.19326752198605 52.7235844515471
1710882600 -1.03478156724055 49.7859172923091
1732539300 -0.904316946305192 47.0651257377608
1754196000 -0.812963722347394 44.4680028680528
1775852700 -0.760324577463633 41.8941854736847
1797509400 -0.737179171999474 39.2776355089124
1819166100 -0.731150283767859 36.5937240822531
1840822800 -0.731150395094056 33.8416052857047
1862479500 -0.72956414560998 31.0254313146841
1884136200 -0.722735214693033 28.1465245249406
1905792900 -0.710311094633166 25.2045813051075
1927449600 -0.693990673307519 22.2007446797245
1949106300 -0.676336621478682 19.137918828417
1970763000 -0.660218516228763 16.0178016237369
1992419700 -0.649472979587066 12.8369401200475
2014076400 -0.651707990668895 9.59384287243972
2035733099 -0.679219896752245 6.34866771172114
2057389800 -0.727057672959736 3.25854259757351
2079046500 -0.768533848974634 0.314862366658386
2100703200 -0.802154331923374 -2.6142165309462
2122359900 -0.838296272202104 -5.55787429941041
2144016600 -0.881965665735682 -8.49798612504679
2165673300 -0.934534370343176 -11.4165760948339
2187330000 -0.996121119575015 -14.3015857117671
2208986700 -1.06645588808849 -17.1450260772044
2230643400 -1.12625150998943 -19.9088622147948
2252300100 -1.10942341697653 -22.5158666541078
2273956800 -1.09263611512663 -25.1230775052295
2295613500 -1.07606936715736 -27.7294810640751
2317270200 -1.05992395286025 -30.3340131005611
2338926900 -1.04442490563966 -32.9355328287744
2360583600 -1.02982522498054 -35.5327843683217
2382240300 -1.01640989352289 -38.1243405386213
2403897000 -1.00449976385731 -40.7085218654545
2425553700 -0.994454392801482 -43.2832812376683
2447210400 -0.986672031302866 -45.8460420030894
2468867100 -0.981583481113286 -48.3934753745566
2490523800 -0.979634066148702 -50.9212042610148
2512180500 -0.981244179684457 -53.423430515918
2533837200 -0.986733708714209 -55.8925120650016
2555493900 -0.996190300238448 -58.3185844273816
2577150600 -1.00926046891268 -60.6894530164565
2598807300 -1.02485727298129 -62.9911903589226
2620464000 -1.04082874891609 -65.2100922493079
2642120700 -1.05373558188648 -67.3366214658008
2663777400 -1.05901746548276 -69.3711880931295
2685434100 -1.05184490981525 -71.3297210489084
2707090800 -1.02863588787927 -73.2449286885225
2728747500 -0.988583111748728 -75.1597752469441
2750404200 -0.934180799168835 -77.114754715153
2772060900 -0.870303191590346 -79.1360598228004
2793717600 -0.802462033058618 -81.2312155683998
2815374300 -0.735310776511477 -83.392609466511
2837031000 -0.671971889402127 -85.6045327316527
2858687700 -0.614084395214702 -87.8494183246673
2880344400 -0.562191561472139 -90.111538725776
2902001100 -0.516166513024049 -92.3784304215323
2923657800 -0.475541119465249 -94.6409579841726
2945314500 -0.439717086655482 -96.8927919318495
2966971200 -0.408084119616067 -99.1297512795636
2988627900 -0.380077342498608 -101.349211254665
3010284600 -0.355199438696536 -103.549636744802
3031941300 -0.33302422020492 -105.73023962009
3053598000 -0.313191483127486 -107.890737044545
3075254700 -0.295398528631755 -110.031185214934
3096911400 -0.27939107328037 -112.151866822103
3118568100 -0.264954797513623 -114.253215734497
3140224800 -0.251908005737329 -116.335767048477
3161881500 -0.24009548839323 -118.400124252288
3183538200 -0.229383503737462 -120.446937862768
3205194900 -0.219655732522764 -122.476891720158
3226851600 -0.210810046843004 -124.490694376932
3248508300 -0.202755945870443 -126.489073862615
3270165000 -0.195412531308328 -128.472774675062
3291821700 -0.188706916974074 -130.442556229076
3313478400 -0.182572986881724 -132.399192247222
3335135100 -0.176950433362546 -134.343470746745
3356791800 -0.171784020956759 -136.276194388634
3378448500 -0.167023033246771 -138.198181028762
3400105200 -0.162620868843834 -140.110264359121
3421761900 -0.158534759762972 -142.013294557907
3443418600 -0.154725590760196 -143.908138886115
3465075300 -0.151157802139869 -145.795682179395
3486732000 -0.147799361283865 -147.676827189779
3508388700 -0.144621789873251 -149.552494734606
3530045400 -0.141600234589372 -151.423623611097
3551702100 -0.13871356908911 -153.291170235953
3573358800 -0.135944514330965 -155.156107971353
3595015500 -0.133279762971715 -157.019426103233
3616672200 -0.130710091670997 -158.882128446067
3638328900 -0.128230442894413 -160.745231562099
3659985600 -0.125839955428037 -162.609762603578
3681642300 -0.123541920636986 -164.476756815356
3703299000 -0.121343639958016 -166.347254773114
3724955700 -0.119256158768212 -168.222299479738
3746612400 -0.117293853276374 -170.102933497906
3768269100 -0.115473851150732 -171.990196358093
3789925800 -0.113815273901833 -173.885122543216
3811582500 -0.112338300088765 -175.788740406881
3833239200 -0.111063063376477 -177.702072422235
3854895900 -0.110008417972912 -179.62613717188
3876552600 -0.109190624942169 178.438046535289
3898209300 -0.108622034444307 176.489453106472
3919866000 -0.108309858453679 174.527040977538
3941522700 -0.108255142795311 172.549740782569
3963179400 -0.108452053188349 170.556441083439
3984836100 -0.108887584741889 168.545972098955
4006492800 -0.109541786620615 166.517088101659
4028149499 -0.110388563840025 164.468449338777
4049806200 -0.111397078934714 162.398604451393
4071462900 -0.112533732071471 160.305974390492
4093119599 -0.113764654809462 158.188838751479
4114776300 -0.115058616102843 156.045325278367
4136433000 -0.116390214281514 153.8734030493
4158089699 -0.117743218644435 151.670879582169
4179746400 -0.119113929446097 149.435401833023
4201403100 -0.120514443441653 147.164460837733
4223059799 -0.121975739832988 144.855399596188
4244716500 -0.123550533440623 142.505423731866
4266373200 -0.12531587316846 140.111614477663
4288029899 -0.127375490041949 137.670943629457
4309686600 -0.129861917259887 135.18029025234
4331343300 -0.132938413198884 132.636459097848
4353000000 -0.136800716820773 130.036200871392
