!Keysight Technologies N9923A: A.08.19
!Date: Thursday, 16 January 2020 11:30:00
!TimeZone: (GMT-03:00) Brasilia!Model: N9923A
!Serial: MY51491501
!GPS Latitude: 
!GPS Longitude: 
!GPS TimeStamp: 0001-01-01 00:00:00Z
!GPS Seconds Since Last Read: 0
!CHECKSUM:1078980270
!Correction: S11(ON U)
!S1P File: Measurement: S11:
# Hz S DB R 50
2000000.0 -2.45803945100437 -23.0523051392642
2998000.0 -4.50384434094309 -30.7637098060457
3996000.0 -7.75409205445702 -30.4012113725568
4994000.0 -10.3628989489793 -4.94702486180511
5992000.0 -7.84515189102093 18.4554453658196
6990000.0 -5.15376951271543 19.3373573428835
7988000.0 -3.62257122197303 13.5944850776043
8986000.0 -2.93465327504347 6.90130909016939
9984000.0 -2.62339246289035 0.921607412952542
10982000.0 -2.61217482867228 -4.4609651857788
11980000.0 -2.8013806461079 -9.05301874968419
12978000.0 -3.12409338776765 -12.4617014914151
13976000.0 -3.58463203741628 -15.0232013974372
14974000.0 -4.03299866332558 -16.2645107421637
15972000.0 -4.45308547115406 -16.1050927772125
16970000.0 -4.7202098897884 -14.9685218822989
17968000.0 -4.7754519109911 -13.7459321167892
18966000.0 -4.67688582489963 -13.0467393314968
19964000.0 -4.50360642140168 -13.0643871516393
20962000.0 -4.30246742597011 -14.3568310097322
21960000.0 -4.20378802121115 -16.6282739046717
22958000.0 -4.1939089223641 -19.1796848692809
23956000.0 -4.34945990505944 -21.8659908244273
24954000.0 -4.601080725936 -24.6331249792701
25952000.0 -5.00840160118138 -26.9132478464649
26950000.0 -5.48212328346622 -28.3971642422351
27948000.0 -6.05712213003161 -29.0783439201393
28946000.0 -6.64480666247401 -28.9334634102897
29944000.0 -7.16933521560997 -27.5491299004244
30942000.0 -7.64660860664491 -25.3200731310135
31940000.0 -7.96967329692193 -23.0904864837165
32938000.0 -8.21086897103265 -20.3982403888207
33936000.0 -8.37347443172307 -17.3367088911469
34934000.0 -8.41665936931413 -14.7209038585933
35932000.0 -8.38318911403514 -11.7607382367583
36930000.0 -8.31105272704196 -9.1339371675636
37928000.0 -8.16449907435504 -6.66612387090866
38926000.0 -7.94847903336754 -4.53243268661648
39924000.0 -7.66139806814961 -2.43143960655138
40922000.0 -7.36552487150552 -1.09156671650458
41920000.0 -7.00534029618097 -0.152916267223732
42918000.0 -6.65071102299315 0.193659739956946
43916000.0 -6.34545621683796 0.236594233551311
44914000.0 -6.04465306727176 0.00408959017606697
45912000.0 -5.76992997067494 -0.555862383447166
46910000.0 -5.5143125246379 -1.38445448351782
47908000.0 -5.35526188258049 -2.23036204455897
48906000.0 -5.18897426785492 -2.95073018891464
49904000.0 -5.03878496267208 -3.84375380960836
50902000.0 -4.93179752146357 -4.70092091245512
51900000.0 -4.82441495712202 -5.43933064855339
52898000.0 -4.70223075282902 -6.21724461463263
53896000.0 -4.61132057318475 -7.03305896767535
54894000.0 -4.53222795078463 -7.77120378297738
55892000.0 -4.43244861850249 -8.59163178150745
56890000.0 -4.36596506281208 -9.27889094168992
57888000.0 -4.29379390180432 -10.2399338883238
58886000.0 -4.22934746699132 -10.8779406897318
59884000.0 -4.18664492380327 -11.4895225306243
60882000.0 -4.12475651104547 -12.3595652559365
61880000.0 -4.09827954766395 -13.1397989652107
62878000.0 -4.04049568663748 -13.6707299392947
63876000.0 -4.01623382614817 -14.4023698602411
64874000.0 -3.97764876815332 -15.1416065110693
65872000.0 -3.95332687664004 -15.6524106230311
66870000.0 -3.93153608176476 -16.2244758405189
67868000.0 -3.87541406582425 -16.8723556990543
68866000.0 -3.84399534429179 -17.7033725895126
69864000.0 -3.82725755877696 -18.2425401653433
70862000.0 -3.81818448608189 -18.6110828025265
71860000.0 -3.78073700544543 -19.3108445167423
72858000.0 -3.75691050934008 -19.781931592347
73856000.0 -3.73136232810686 -20.2635003908457
74854000.0 -3.69309158407718 -20.8734615741215
75852000.0 -3.66272414287177 -21.3671444974348
76850000.0 -3.61989416292289 -21.8999180675558
77848000.0 -3.60775682097166 -22.4411811455759
78846000.0 -3.56222864843275 -22.9972841407011
79844000.0 -3.54540353798845 -23.5707265841255
80842000.0 -3.51653281276011 -24.1582789206682
81840000.0 -3.48518190481716 -24.8115560372098
82838000.0 -3.43012180433266 -25.3392948178006
83836000.0 -3.43263446597966 -25.7264298303227
84834000.0 -3.41715930958091 -26.4303869140773
85832000.0 -3.38683285091414 -26.9624269820058
86830000.0 -3.35790995546862 -27.6285062569143
87828000.0 -3.31454011473051 -28.2701167559321
88826000.0 -3.34912648606576 -28.7317567430829
89824000.0 -3.31550237062797 -29.3511034961703
90822000.0 -3.32803179612525 -30.0165085424536
91820000.0 -3.32998762325856 -30.4606429421405
92818000.0 -3.30197357941495 -31.0488460521658
93816000.0 -3.29130236687306 -31.4270252886239
94814000.0 -3.28666357418216 -31.9397001391479
95812000.0 -3.26949759596179 -32.3164385210182
96810000.0 -3.25923106888477 -32.8130774437757
97808000.0 -3.26492610390273 -33.3454747013732
98806000.0 -3.26090824999177 -33.7045881895064
99804000.0 -3.21689599164755 -34.1991083412641
100802000.0 -3.20469195715133 -34.6799660817932
101800000.0 -3.18761380831113 -35.1841924053343
102798000.0 -3.16080483618249 -35.4897376329611
103796000.0 -3.1605401774538 -36.043705927443
104794000.0 -3.13105203948247 -36.6673861199159
105792000.0 -3.10582516553756 -37.0305895141325
106790000.0 -3.08625568971091 -37.6172782379773
107788000.0 -3.07078811942042 -38.1800732111453
108786000.0 -3.03793014249036 -38.5902283286704
109784000.0 -3.0264615956029 -39.1815621617431
110782000.0 -3.02177011621838 -39.796337334124
111780000.0 -3.01698945647805 -40.5614778533954
112778000.0 -2.97736875646427 -41.0168542168372
113776000.0 -2.98892712190436 -41.5821820955437
114774000.0 -2.96973423047302 -42.1752848769085
115772000.0 -2.95739578646116 -42.6935068035517
116770000.0 -2.98455905846572 -43.3539653377578
117768000.0 -2.97553650834298 -43.7944739562211
118766000.0 -2.98008314200418 -44.4132205717098
119764000.0 -2.974865181667 -44.7253687139294
120762000.0 -2.98011644065201 -45.4329762527133
121760000.0 -2.98496421734498 -45.9657790994449
122758000.0 -2.97629512352555 -46.5684915953166
123756000.0 -2.99266433623786 -46.9554272887964
124754000.0 -3.00641664905309 -47.5096670382551
125752000.0 -2.99902832868837 -47.8647386543401
126750000.0 -3.00798110074469 -48.5049651894439
127748000.0 -2.98768207959795 -48.8218334736064
128746000.0 -2.99427926777318 -49.3414470575921
129744000.0 -3.01018931332463 -49.8103845554199
130742000.0 -3.02541540793469 -50.3003326168032
131740000.0 -3.01800275085978 -50.7810100095395
132738000.0 -3.00873885997088 -51.2556173128241
133736000.0 -3.01431089065041 -51.6453948688945
134734000.0 -3.01136460595368 -52.1413343507596
135732000.0 -3.00751428303232 -52.6667519764278
136730000.0 -3.00822569027986 -53.1772464626803
137728000.0 -2.99612426733595 -53.6658452832624
138726000.0 -3.00130876127577 -54.0612328763656
139724000.0 -2.99195202409516 -54.5401501945247
140722000.0 -3.00150964355665 -54.957250330389
141720000.0 -2.99340416574815 -55.4886176256708
142718000.0 -2.99874958092907 -55.9185504837854
143716000.0 -2.98488771702167 -56.6260802949679
144714000.0 -2.99263807730882 -57.0960543558329
145712000.0 -3.00220440717354 -57.5962085499095
146710000.0 -2.98492478750327 -58.0965163224192
147708000.0 -3.01203716081296 -58.5629762299008
148706000.0 -3.017020331657 -59.1453805796298
149704000.0 -3.01062558143629 -59.701895678471
150702000.0 -3.0255942074102 -60.2623682022794
151700000.0 -3.04019875536435 -60.7311586851538
152698000.0 -3.05860399435337 -60.9945870038961
153696000.0 -3.06630051648988 -61.7993358249624
154694000.0 -3.0601518725295 -62.2169897601823
155692000.0 -3.08144946469333 -62.6828279358637
156690000.0 -3.09488622139454 -63.191682694394
157688000.0 -3.13187575291575 -63.6102834445437
158686000.0 -3.13045516789133 -64.0407340386274
159684000.0 -3.15942080071014 -64.4360516585042
160682000.0 -3.16271532173376 -65.077272070578
161680000.0 -3.1795267785243 -65.6050728515113
162678000.0 -3.22630789966512 -66.1068445090266
163676000.0 -3.24903703368109 -66.4472371083734
164674000.0 -3.25093192054588 -66.7589514174338
165672000.0 -3.28666222259503 -67.231752002356
166670000.0 -3.32498631875753 -67.5959209731185
167668000.0 -3.34884085152957 -68.1073831675907
168666000.0 -3.33977446953172 -68.556615915713
169664000.0 -3.38578576666797 -68.8005402485759
170662000.0 -3.40456976934479 -69.1749266170195
171660000.0 -3.45279181742338 -69.7050834542332
172658000.0 -3.46402309146542 -70.10731332107
173656000.0 -3.50305153265613 -70.3813998730683
174654000.0 -3.5242771867242 -70.7458008344745
175652000.0 -3.57635182074814 -71.0727781819867
176650000.0 -3.62151320203098 -71.2424319483411
177648000.0 -3.63880918883583 -71.5063522209671
178646000.0 -3.67333067236089 -71.7725817234447
179644000.0 -3.72651235742109 -71.9433464405782
180642000.0 -3.74036380981921 -72.3616323209444
181640000.0 -3.72636106649337 -72.432166473727
182638000.0 -3.76436363591711 -72.8569507736257
183636000.0 -3.82025819101587 -73.0196178865746
184634000.0 -3.84348477479047 -73.0894242309967
185632000.0 -3.85808396031738 -73.3391968204957
186630000.0 -3.90344721827626 -73.5832390181382
187628000.0 -3.91665408186368 -73.6348963789357
188626000.0 -3.9263383500238 -73.8349641537116
189624000.0 -3.95839238246412 -73.8385075953879
190622000.0 -3.96925368867738 -73.8453835482538
191620000.0 -3.97819662685581 -74.0291253031303
192618000.0 -3.99649887492699 -74.2535856925906
193616000.0 -4.01401461414251 -74.3905528853181
194614000.0 -3.98984133086238 -74.2247704733096
195612000.0 -4.01066904552194 -74.3615710648295
196610000.0 -4.01505910127919 -74.3355923277044
197608000.0 -4.03489583059038 -74.5265620216424
198606000.0 -4.02261170416201 -74.6609318717817
199604000.0 -4.03434511143133 -74.8545857837043
200602000.0 -4.01231233416172 -74.8702540729348
201600000.0 -4.02459408253661 -74.8037642077498
202598000.0 -3.99467106398173 -75.0421819747033
203596000.0 -3.99138700444086 -74.9645714351661
204594000.0 -3.96659296220463 -75.2143594389983
205592000.0 -3.96145679237484 -75.4375716370617
206590000.0 -3.94833053070921 -75.5273081736858
207588000.0 -3.92618537830802 -75.4612377408018
208586000.0 -3.92114623905087 -75.6535441176993
209584000.0 -3.91633315661517 -76.0194998156936
210582000.0 -3.87100794639977 -75.984212627147
211580000.0 -3.87540911857301 -76.2198204754333
212578000.0 -3.8282275565652 -76.4922510878777
213576000.0 -3.83503481482817 -76.660125196299
214574000.0 -3.79195785450029 -76.6926572267816
215572000.0 -3.77851711942688 -76.9580049640159
216570000.0 -3.7566610502461 -77.053602124589
217568000.0 -3.72969061403993 -77.3409630200425
218566000.0 -3.72333696206837 -77.4047014443428
219564000.0 -3.71338879328753 -77.9494511033515
220562000.0 -3.67051362387369 -78.0363043794314
221560000.0 -3.67531233816233 -78.2014810056937
222558000.0 -3.65535029666154 -78.5351476128525
223556000.0 -3.62909248592467 -78.8570551177113
224554000.0 -3.59987678885141 -79.0155145202513
225552000.0 -3.58448644297533 -79.4239517586911
226550000.0 -3.575470569494 -79.7059969991665
227548000.0 -3.52216929522124 -79.8384435743887
228546000.0 -3.54024693378026 -80.0053990974377
229544000.0 -3.49079842170051 -80.5779232014749
230542000.0 -3.47340413778271 -80.8234279898324
231540000.0 -3.47400624578613 -80.9573766608873
232538000.0 -3.47891942543272 -81.3249168625858
233536000.0 -3.42333407308734 -81.5833373134457
234534000.0 -3.41265678480995 -81.9403939361947
235532000.0 -3.39027155057392 -82.1582418022419
236530000.0 -3.37293131957209 -82.4115530431916
237528000.0 -3.36587946271631 -82.9144644623191
238526000.0 -3.32302472922817 -83.1536088051452
239524000.0 -3.31087788551994 -83.5145661070558
240522000.0 -3.28080860711176 -83.8424915317342
241520000.0 -3.26021304226254 -84.2497075086629
242518000.0 -3.27790954439447 -84.6410954797562
243516000.0 -3.24814654830319 -84.9354203232342
244514000.0 -3.2427177377246 -85.2810282942701
245512000.0 -3.21581628861828 -85.5583128031496
246510000.0 -3.20519607257508 -86.0273058425778
247508000.0 -3.19222911786881 -86.3185876226019
248506000.0 -3.14974454514568 -86.5111132775037
249504000.0 -3.1596133586428 -87.0869780366116
250502000.0 -3.13553018249671 -87.3482224530169
251500000.0 -3.12051105671994 -88.0152083079345
252498000.0 -3.1181937703987 -88.2186289901852
253496000.0 -3.09664672590424 -88.7095459699243
254494000.0 -3.10510375279795 -89.1035653054324
255492000.0 -3.0583007137523 -89.4598497739043
256490000.0 -3.09671612520292 -89.764852070323
257488000.0 -3.06701894149812 -90.2099602934621
258486000.0 -3.07993769874077 -90.6027304848364
259484000.0 -3.0743671521485 -91.0989725130599
260482000.0 -3.07097275676766 -91.4495581255151
261480000.0 -3.0504518986363 -91.899183648881
262478000.0 -3.04952008838641 -92.4227839573346
263476000.0 -3.06110149273622 -92.539805880699
264474000.0 -3.05929950327846 -92.9564652297182
265472000.0 -3.04222906429192 -93.5811429347426
266470000.0 -3.05206038540271 -93.9009841874437
267468000.0 -3.05465999382054 -94.4247390724935
268466000.0 -3.06089974723322 -94.8079869026115
269464000.0 -3.07791487879856 -94.9003584543551
270462000.0 -3.07239997414374 -95.4895768310972
271460000.0 -3.09655870845536 -95.700793634209
272458000.0 -3.08873271326185 -96.1808936089547
273456000.0 -3.09129306633686 -96.5181106501689
274454000.0 -3.10024727461921 -96.9065380741991
275452000.0 -3.11540357476731 -97.1865441345317
276450000.0 -3.11422212902358 -97.4737707478976
277448000.0 -3.12992224210399 -98.0060130364656
278446000.0 -3.16236644055302 -98.4157834135221
279444000.0 -3.18842391544337 -98.6648514321954
280442000.0 -3.16405470579945 -99.0505378759401
281440000.0 -3.21474234491026 -99.3091863584129
282438000.0 -3.21374600356967 -99.7880684322223
283436000.0 -3.23728879594432 -99.7706733490992
284434000.0 -3.23899231742976 -100.223254341082
285432000.0 -3.24579891481334 -100.583759469901
286430000.0 -3.28314381512248 -101.065822940766
287428000.0 -3.2959575200667 -101.283854945382
288426000.0 -3.31000601887988 -101.412055536067
289424000.0 -3.32770777113836 -101.708248670529
290422000.0 -3.35480285449216 -102.005608328013
291420000.0 -3.36882956438338 -102.315956907822
292418000.0 -3.38793130709821 -102.354294535954
293416000.0 -3.39481033447746 -102.686191414189
294414000.0 -3.39710242505348 -102.879177225989
295412000.0 -3.44009123802056 -102.996384958652
296410000.0 -3.46625734850624 -103.490435263567
297408000.0 -3.45755948681646 -103.603348359516
298406000.0 -3.49642524121663 -103.892980891795
299404000.0 -3.51614123188581 -104.126195125513
300402000.0 -3.52454496302114 -104.266985138264
301400000.0 -3.54043419453408 -104.57870048049
302398000.0 -3.57256729360927 -104.726465475702
303396000.0 -3.55656448055925 -104.975154195439
304394000.0 -3.6139018682416 -104.978737625735
305392000.0 -3.63166891107509 -105.149800394729
306390000.0 -3.61682976802167 -105.304994110501
307388000.0 -3.6557104095639 -105.463743610558
308386000.0 -3.63852768098056 -105.698983665773
309384000.0 -3.65605785697005 -105.920810015532
310382000.0 -3.69068256918772 -106.139287220301
311380000.0 -3.72613306216589 -106.367962910418
312378000.0 -3.75503731371879 -106.135580841472
313376000.0 -3.75210998888239 -106.412267632372
314374000.0 -3.76693098114716 -106.625444001507
315372000.0 -3.78408810005609 -106.577641784268
316370000.0 -3.79078857017625 -106.654179327346
317368000.0 -3.79936751949606 -106.971090775999
318366000.0 -3.81983695999989 -107.142720014054
319364000.0 -3.83118747940353 -107.262233051281
320362000.0 -3.83613389395019 -107.206041518941
321360000.0 -3.85495150689388 -107.432869197194
322358000.0 -3.83747005850137 -107.430701663919
323356000.0 -3.90690093726995 -107.584441214522
324354000.0 -3.87748100450585 -107.666848320845
325352000.0 -3.87221096088034 -107.919716663135
326350000.0 -3.8742671098564 -107.870663334945
327348000.0 -3.89426576749303 -108.113437859007
328346000.0 -3.90886798754854 -107.972935243975
329344000.0 -3.90557418841976 -108.191344870182
330342000.0 -3.91338663265552 -108.20913392255
331340000.0 -3.93258026791706 -108.347411777392
332338000.0 -3.94369349993451 -108.472764641868
333336000.0 -3.94309023693743 -108.345381792335
334334000.0 -3.92221800578111 -108.623218056069
335332000.0 -3.92519157170797 -108.809662963686
336330000.0 -3.93627368969967 -108.930979473089
337328000.0 -3.94446290988848 -109.011895467119
338326000.0 -3.95727220401605 -109.152153530386
339324000.0 -3.95205048377439 -109.136342787549
340322000.0 -3.95148130974476 -109.255136100132
341320000.0 -3.93786838375709 -109.220216889818
342318000.0 -3.92856427865494 -109.420690267284
343316000.0 -3.92988568241865 -109.514819601327
344314000.0 -3.90452863767834 -109.679989489016
345312000.0 -3.9315127977721 -109.771235419866
346310000.0 -3.91250832051718 -109.816871673511
347308000.0 -3.90300599071806 -110.136110238347
348306000.0 -3.92780698343123 -110.250014908906
349304000.0 -3.9043061383694 -110.062887174166
350302000.0 -3.90606180788355 -110.424658664071
351300000.0 -3.91076845581774 -110.444834921844
352298000.0 -3.90016141177378 -110.647729149538
353296000.0 -3.89305460964291 -110.788425818277
354294000.0 -3.90340348385215 -110.874476198114
355292000.0 -3.85635775571318 -111.068736921263
356290000.0 -3.89693081404431 -111.097112594706
357288000.0 -3.85707707959812 -111.444588638362
358286000.0 -3.87674964801733 -111.500135596583
359284000.0 -3.85017986694228 -111.632773569062
360282000.0 -3.84467972997135 -111.517894070243
361280000.0 -3.82968572274772 -111.661605339913
362278000.0 -3.86279766100666 -111.803424722315
363276000.0 -3.82295115661232 -111.833243470955
364274000.0 -3.83274070455859 -112.03826517526
365272000.0 -3.79464560047284 -112.109001693057
366270000.0 -3.7913639331203 -112.309145497669
367268000.0 -3.78198648026787 -112.418083131329
368266000.0 -3.79309891857753 -112.695516806918
369264000.0 -3.75646231669302 -112.79295540548
370262000.0 -3.74208981212598 -112.827414488088
371260000.0 -3.75957978764025 -112.99539915397
372258000.0 -3.72675622028761 -112.997669104735
373256000.0 -3.72864558295869 -112.91306689358
374254000.0 -3.69527792005744 -113.111230136025
375252000.0 -3.67562023353097 -113.460003420437
376250000.0 -3.67018247021858 -113.537624760242
377248000.0 -3.66551579285707 -113.683437264203
378246000.0 -3.62223555095066 -113.765571165323
379244000.0 -3.60496505214516 -113.993906466239
380242000.0 -3.58340546669484 -114.06991937588
381240000.0 -3.58373880836183 -114.346662015619
382238000.0 -3.56099724209827 -114.417235078328
383236000.0 -3.54223832519844 -114.54681454153
384234000.0 -3.52859046759385 -114.53488238553
385232000.0 -3.49596108419387 -114.908554584238
386230000.0 -3.48836082379278 -115.027113135726
387228000.0 -3.45812127441174 -115.066000473254
388226000.0 -3.4525409227153 -115.504987558168
389224000.0 -3.42170129460763 -115.565098009958
390222000.0 -3.39578959251659 -115.648317721684
391220000.0 -3.36900033673524 -115.93021125371
392218000.0 -3.37507986088977 -116.207955834082
393216000.0 -3.37663234656896 -116.351262865712
394214000.0 -3.3175846445195 -116.585034379603
395212000.0 -3.31844028559374 -116.783690471065
396210000.0 -3.31915263164016 -116.87311992589
397208000.0 -3.31049501726703 -116.924970584288
398206000.0 -3.26869845446235 -117.344169026262
399204000.0 -3.2572531096089 -117.409939468406
400202000.0 -3.23234779268483 -117.960268791325
401200000.0 -3.22190728940272 -117.946644718808
402198000.0 -3.19398460941771 -118.191087942505
403196000.0 -3.19798721340978 -118.237097236586
404194000.0 -3.18324628123334 -118.595442339945
405192000.0 -3.17389411421183 -118.925738153153
406190000.0 -3.16323442064622 -119.016289984473
407188000.0 -3.17248093424676 -119.32270940099
408186000.0 -3.15059006156402 -119.35747808053
409184000.0 -3.13908680140461 -119.47808632181
410182000.0 -3.14815001477066 -119.836886741376
411180000.0 -3.11860620572482 -119.998860404409
412178000.0 -3.10242017317651 -120.08075201875
413176000.0 -3.0961692654397 -120.517752879299
