!Keysight Technologies N9923A: A.08.19
!Date: Thursday, 16 January 2020 11:30:00
!TimeZone: (GMT-03:00) Brasilia!Model: N9923A
!Serial: MY51491501
!GPS Latitude: 
!GPS Longitude: 
!GPS TimeStamp: 0001-01-01 00:00:00Z
!GPS Seconds Since Last Read: 0
!CHECKSUM:1078980270
!Correction: S11(ON U)
!S1P File: Measurement: S11:
# Hz S DB R 50
2000000.0 -1.7729402371682 -23.6317268961449
2998000.0 -3.33829520088827 -34.3324115057229
3996000.0 -6.16890182445912 -43.4624362228026
4994000.0 -11.2477783570999 -35.5866522807312
5992000.0 -11.6285744913399 13.8100665414422
6990000.0 -7.02618189525402 23.0428835557131
7988000.0 -4.75328531255214 15.9538166340951
8986000.0 -3.70989843456372 7.5723975767991
9984000.0 -3.32959436801832 0.142952530117114
10982000.0 -3.32256021631963 -6.14570547029537
11980000.0 -3.5521831440228 -11.4608195434327
12978000.0 -3.95597402539517 -15.7902553996571
13976000.0 -4.48863890488647 -18.6423876457049
14974000.0 -5.13461303039985 -20.5075239130853
15972000.0 -5.74000960650683 -20.6225743699997
16970000.0 -6.30233961658029 -19.1031786114041
17968000.0 -6.54560014632797 -16.4178952450904
18966000.0 -6.52909534989174 -14.036224855973
19964000.0 -6.31190414241182 -12.8012044676974
20962000.0 -6.01201286085634 -13.4562274815517
21960000.0 -5.87437682510542 -15.4342179449434
22958000.0 -5.88916834586969 -18.1645604583565
23956000.0 -6.14737564181966 -21.0159146785101
24954000.0 -6.57855261528874 -23.0974734379603
25952000.0 -7.15888274123984 -24.5284685044696
26950000.0 -7.76747941913224 -24.4551202712911
27948000.0 -8.43939238700673 -22.7914152480489
28946000.0 -8.98001310506915 -20.0549848801236
29944000.0 -9.31870854038824 -16.2008045381306
30942000.0 -9.46595497314584 -12.2165164375543
31940000.0 -9.47526919570353 -8.89750903908255
32938000.0 -9.37822828442641 -5.73913383468894
33936000.0 -9.25386816444466 -2.79163630554187
34934000.0 -9.05633135549459 -0.603262909644767
35932000.0 -8.80565072599322 1.8168071440484
36930000.0 -8.59480502338787 3.72069271622649
37928000.0 -8.28006835517033 5.3524333225602
38926000.0 -7.92180127722649 6.76842967156566
39924000.0 -7.53211369806729 7.82399404283313
40922000.0 -7.17054997654756 8.19659855726947
41920000.0 -6.81934636789029 8.18176920653353
42918000.0 -6.496477637872 7.88843771626575
43916000.0 -6.22341407676384 7.50086242834776
44914000.0 -5.95816268817683 6.81623821687846
45912000.0 -5.70289991245755 6.28277408274782
46910000.0 -5.48180633723429 5.34808850356766
47908000.0 -5.30846406595951 4.47957156143123
48906000.0 -5.12173830271305 3.85470143853742
49904000.0 -4.96068739229001 2.91814362796146
50902000.0 -4.7969097711657 2.04817466555404
51900000.0 -4.65232541897013 1.07952997415143
52898000.0 -4.50295673136251 0.194970426524195
53896000.0 -4.39076234841058 -0.881830115728428
54894000.0 -4.26563936013093 -1.89402811318797
55892000.0 -4.17483170147624 -2.9087679489958
56890000.0 -4.08289057014048 -3.86180034251368
57888000.0 -4.01825656758486 -5.0296102454947
58886000.0 -3.95136307519035 -5.86650104158567
59884000.0 -3.90411149277438 -6.8080398457136
60882000.0 -3.85636247996745 -7.69948587038523
61880000.0 -3.82842548370344 -8.57804556663342
62878000.0 -3.77839307438707 -9.26225868093546
63876000.0 -3.75601249574253 -10.080022467424
64874000.0 -3.7309439692414 -10.8814039591774
65872000.0 -3.68605542639163 -11.320429773183
66870000.0 -3.6621477116269 -12.0412316114805
67868000.0 -3.60041423031738 -12.7573430071711
68866000.0 -3.55907545500214 -13.5478434234633
69864000.0 -3.52933887982274 -13.9618812138981
70862000.0 -3.5021633156899 -14.5669343153259
71860000.0 -3.43189395614711 -15.4057118644064
72858000.0 -3.40425080757022 -16.0625617106651
73856000.0 -3.36585906905117 -16.662414901807
74854000.0 -3.31043320051997 -17.3537845886086
75852000.0 -3.27442891113981 -17.9744329127519
76850000.0 -3.23481540354619 -18.7856610361023
77848000.0 -3.20324569138266 -19.4390644658949
78846000.0 -3.16290698657222 -20.0637484509898
79844000.0 -3.15674588785714 -20.7878761606604
80842000.0 -3.1129325637155 -21.4100700360221
81840000.0 -3.106555566567 -22.2084674546284
82838000.0 -3.0529106728209 -22.820567494783
83836000.0 -3.04768387046472 -23.5966236358142
84834000.0 -3.0194008221739 -24.0800077476723
85832000.0 -2.99318631099557 -24.713144861891
86830000.0 -2.97077651756784 -25.3806491134296
87828000.0 -2.93342572081013 -26.1207287123356
88826000.0 -2.92971669391565 -26.683778299319
89824000.0 -2.89807180957315 -27.3166042843864
90822000.0 -2.8902647237345 -28.1557350841243
91820000.0 -2.88278319033767 -28.4877285513197
92818000.0 -2.87760725979569 -29.3580479288648
93816000.0 -2.84647872301115 -29.9528761244489
94814000.0 -2.82881934571634 -30.4815385872653
95812000.0 -2.80422014733074 -31.1200298067
96810000.0 -2.82909731715047 -31.6630417568008
97808000.0 -2.80818871199703 -32.3406618443643
98806000.0 -2.79524381093131 -32.9573506071517
99804000.0 -2.75698862114928 -33.6829708049592
100802000.0 -2.76221389355009 -34.1346671299894
101800000.0 -2.7383641864816 -34.7922485796529
102798000.0 -2.72780235695338 -35.3059161986438
103796000.0 -2.75310675857279 -36.1913681230039
104794000.0 -2.7200573210178 -36.7181012023092
105792000.0 -2.71794471241505 -37.2402446220068
106790000.0 -2.71107848010997 -37.7732131696673
107788000.0 -2.72557188947942 -38.3976543697618
108786000.0 -2.68501558787362 -38.8925051713633
109784000.0 -2.69764637801562 -39.5869718709778
110782000.0 -2.70081040637144 -40.1950832783462
111780000.0 -2.71024184687776 -40.8913602952796
112778000.0 -2.67282326700517 -41.3935815964804
113776000.0 -2.67641559619612 -41.925082403259
114774000.0 -2.68281375523041 -42.6161755339183
115772000.0 -2.65929952637011 -42.9871045905866
116770000.0 -2.69293533751597 -43.6315199391931
117768000.0 -2.69132496144909 -44.1779477019974
118766000.0 -2.67785082449307 -44.7912098027704
119764000.0 -2.68410574126057 -45.1899853790951
120762000.0 -2.6643444845834 -45.9697056197889
121760000.0 -2.67129509243202 -46.5604776194276
122758000.0 -2.64126598773179 -47.0932839433146
123756000.0 -2.6730881469407 -47.5138625783125
124754000.0 -2.662598048229 -48.24986545609
125752000.0 -2.65242039032083 -48.6332327463872
126750000.0 -2.64534703192999 -49.3957635697307
127748000.0 -2.63984429007487 -49.8968408844763
128746000.0 -2.64884637436666 -50.5352989907147
129744000.0 -2.6487990726238 -51.1494947766218
130742000.0 -2.66069110706156 -51.9000507277829
131740000.0 -2.66270891785942 -52.4244213963161
132738000.0 -2.66560206278646 -53.080303468374
133736000.0 -2.65395481939687 -53.6409035487489
134734000.0 -2.66985518686063 -54.1357055926226
135732000.0 -2.67022254182543 -54.8839891457331
136730000.0 -2.67744153772466 -55.4475952441962
137728000.0 -2.68801471812565 -56.155056631395
138726000.0 -2.71003393764756 -56.6899325081726
139724000.0 -2.69091550348398 -57.3268352353614
140722000.0 -2.7249902613049 -57.8980282791563
141720000.0 -2.73708867064958 -58.5331746070897
142718000.0 -2.74537845555474 -59.1213619332348
143716000.0 -2.74733676897102 -59.8745613642823
144714000.0 -2.79703869200377 -60.6379868509785
145712000.0 -2.80922423795005 -61.021415851563
146710000.0 -2.82967089517299 -61.7933139779801
147708000.0 -2.86648128487875 -62.2742867641504
148706000.0 -2.9158066770755 -62.9978619492
149704000.0 -2.92854215092415 -63.5966655829264
150702000.0 -2.96617200840061 -64.2014308106717
151700000.0 -3.00097252008559 -64.785786733862
152698000.0 -3.04147403317672 -65.2921965824206
153696000.0 -3.09136972651213 -66.1164997831171
154694000.0 -3.10043780428274 -66.4817610067995
155692000.0 -3.14321771499163 -67.0646797132986
156690000.0 -3.17582371106578 -67.6167405054572
157688000.0 -3.24724529019071 -67.999883470039
158686000.0 -3.30198513246279 -68.6192070271763
159684000.0 -3.34630534650241 -69.0636766595154
160682000.0 -3.38771576774133 -69.6664015272014
161680000.0 -3.45296150584094 -70.0796435475019
162678000.0 -3.50444119768966 -70.5443565897634
163676000.0 -3.53830241939526 -70.9917389549455
164674000.0 -3.61328073616231 -71.2406715569182
165672000.0 -3.68399475375105 -71.6615268455921
166670000.0 -3.74384663089871 -72.0202218045693
167668000.0 -3.80029429135894 -72.4139995132102
168666000.0 -3.84803540004811 -72.8759987507573
169664000.0 -3.91716227459978 -72.9313034499738
170662000.0 -3.96747093668192 -73.3450721793262
171660000.0 -4.04760443936713 -73.6213522753039
172658000.0 -4.10111526763434 -73.8163840135309
173656000.0 -4.17432797046761 -73.8241447690333
174654000.0 -4.22525088554751 -74.1688755991281
175652000.0 -4.28777206472018 -74.2626936350175
176650000.0 -4.33848350991384 -74.4588558707619
177648000.0 -4.40225883471757 -74.4726447735237
178646000.0 -4.45721879463189 -74.4705460570902
179644000.0 -4.52534938857151 -74.3683805243984
180642000.0 -4.55532303364449 -74.4951766330641
181640000.0 -4.57250069059765 -74.3831206435232
182638000.0 -4.62166869085347 -74.3901494650939
183636000.0 -4.68355976230714 -74.4114058068924
184634000.0 -4.71520512970627 -74.2357376851502
185632000.0 -4.7405154677001 -74.1367074712645
186630000.0 -4.76354751168187 -74.2003505468002
187628000.0 -4.77290219313598 -74.0154512116848
188626000.0 -4.78831851411659 -73.9200452132932
189624000.0 -4.816846237511 -73.676666941637
190622000.0 -4.81075360983364 -73.5034665254162
191620000.0 -4.81019674437445 -73.5807055339464
192618000.0 -4.80153792193989 -73.4791885953647
193616000.0 -4.80325953918533 -73.3678132666364
194614000.0 -4.75552926066314 -73.1487220420653
195612000.0 -4.77489853469643 -73.1015244448069
196610000.0 -4.77672961614697 -72.8501664983859
197608000.0 -4.73485850258071 -72.9106671648256
198606000.0 -4.70201436833038 -72.7687865871787
199604000.0 -4.67830475058739 -72.9365870905279
200602000.0 -4.65149740997815 -72.8935992170867
201600000.0 -4.61684436258202 -72.8762953260393
202598000.0 -4.57928726273113 -72.9480546558503
203596000.0 -4.55930606723025 -72.8954468158989
204594000.0 -4.51537464559293 -73.2461037865506
205592000.0 -4.4959181734963 -73.2354643292747
206590000.0 -4.4385927216312 -73.1431176924555
207588000.0 -4.40712004956325 -73.334871336641
208586000.0 -4.38428631753614 -73.3706728585632
209584000.0 -4.34020977315186 -73.7132148945894
210582000.0 -4.27026759653341 -73.747202423533
211580000.0 -4.2725346916509 -74.0521825247233
212578000.0 -4.21971292026299 -74.3186874488505
213576000.0 -4.19303113746539 -74.4552567724049
214574000.0 -4.14809368126398 -74.582606872511
215572000.0 -4.1147587570989 -74.845301745784
216570000.0 -4.07862965808742 -75.0221553782486
217568000.0 -4.02738090982258 -75.2566807491494
218566000.0 -4.01686373772964 -75.4379733180528
219564000.0 -3.9829410212094 -75.9438400518632
220562000.0 -3.91854560273784 -76.241611861348
221560000.0 -3.90326468750077 -76.436827741959
222558000.0 -3.87998708864767 -76.8031727817801
223556000.0 -3.84467103263554 -77.1414889151718
224554000.0 -3.80876301211494 -77.3853218420123
225552000.0 -3.79022685420767 -77.7321858539237
226550000.0 -3.75836342080308 -78.1167729910863
227548000.0 -3.71370845092925 -78.4171183466383
228546000.0 -3.72536206864469 -78.6494047327748
229544000.0 -3.6714271879474 -79.1190978941466
230542000.0 -3.66096923706853 -79.5259999305041
231540000.0 -3.64444201236862 -79.7980741042346
232538000.0 -3.61686019555464 -80.2210587462409
233536000.0 -3.59497381765085 -80.4778804628027
234534000.0 -3.55643688750446 -80.8411221032711
235532000.0 -3.5635064071736 -81.2478213266902
236530000.0 -3.52824249407975 -81.5007806197165
237528000.0 -3.51393067820853 -82.1349044481842
238526000.0 -3.47290105664281 -82.34086374038
239524000.0 -3.4875495388917 -82.7459970272276
240522000.0 -3.44383898535347 -83.2009409697881
241520000.0 -3.43074195778614 -83.6138238023944
242518000.0 -3.43514898476826 -83.8744557788037
243516000.0 -3.44377551476532 -84.3572853438413
244514000.0 -3.42277576698744 -84.8069605167161
245512000.0 -3.40568484396796 -85.0312235776423
246510000.0 -3.38516083272581 -85.6876532134528
247508000.0 -3.38224037743446 -85.9445969107638
248506000.0 -3.35719228555595 -86.1474469925216
249504000.0 -3.37366168263109 -86.5653857232535
250502000.0 -3.33848679012847 -86.9646801726845
251500000.0 -3.34561671159737 -87.481599792282
252498000.0 -3.33115134049145 -87.9167877040407
253496000.0 -3.31056920833133 -88.174068269678
254494000.0 -3.34120489572459 -88.6492346132529
255492000.0 -3.29706635636535 -88.9549623367755
256490000.0 -3.32756608791571 -89.3084356411465
257488000.0 -3.29956199917709 -89.6482164297111
258486000.0 -3.31765792323142 -89.9168900403944
259484000.0 -3.31121837362052 -90.5497599049299
260482000.0 -3.29323298550905 -90.6988156889967
261480000.0 -3.30490106667357 -91.3219510289878
262478000.0 -3.31151080147525 -91.7236836623492
263476000.0 -3.30467638471483 -91.8664030131286
264474000.0 -3.31124379594968 -92.250952776349
265472000.0 -3.2888664425263 -92.5793871587081
266470000.0 -3.28713398314 -92.9808326989152
267468000.0 -3.30646162835243 -93.3428809050778
268466000.0 -3.30425703233562 -93.8524438875815
269464000.0 -3.30211912424639 -93.9035732225983
270462000.0 -3.30425250811262 -94.6306488636626
271460000.0 -3.32261182642838 -94.7887519934265
272458000.0 -3.32593593795756 -95.0760651159161
273456000.0 -3.31924277359335 -95.5099938962982
274454000.0 -3.31950673863493 -95.8338146444377
275452000.0 -3.31575421919693 -96.0848986086944
276450000.0 -3.31103550319309 -96.4901977004836
277448000.0 -3.31903481585947 -96.9480003472684
278446000.0 -3.35185064242589 -97.2414344792055
279444000.0 -3.38490265006897 -97.6792057789331
280442000.0 -3.34662400258298 -97.8896990602005
281440000.0 -3.35342068288575 -98.34192090627
282438000.0 -3.362470677425 -98.727579337985
283436000.0 -3.3792599542994 -98.8412320528114
284434000.0 -3.3736145634681 -99.1297077888925
285432000.0 -3.39026440875648 -99.5835161748012
286430000.0 -3.41215521381666 -100.087893374988
287428000.0 -3.42829395060934 -100.290587093211
288426000.0 -3.40011242317775 -100.297268680131
289424000.0 -3.44113990782201 -100.72260022659
290422000.0 -3.44738159520607 -101.274742523636
291420000.0 -3.46447767956638 -101.573852759998
292418000.0 -3.49072559229982 -101.811199684804
293416000.0 -3.49474091912933 -102.035939609404
294414000.0 -3.51820945116524 -102.260217445615
295412000.0 -3.53959236821139 -102.492645635933
296410000.0 -3.55779680258864 -102.773666992513
297408000.0 -3.55215882005459 -103.076832511984
298406000.0 -3.60194767178225 -103.542184088931
299404000.0 -3.60312587760107 -103.652412905212
300402000.0 -3.62508981157367 -103.736821452572
301400000.0 -3.6190616003462 -104.131192539321
302398000.0 -3.66145982246183 -104.391912746831
303396000.0 -3.66268486867304 -104.705666701929
304394000.0 -3.70601192561866 -104.851192094148
305392000.0 -3.73605064076974 -105.07666348991
306390000.0 -3.71328654498954 -105.284350077643
307388000.0 -3.75908685674583 -105.39839848097
308386000.0 -3.75940108306533 -105.71269167788
309384000.0 -3.79605717583453 -105.88227628331
310382000.0 -3.80731305760713 -106.038649285512
311380000.0 -3.84060661480996 -106.294925956641
312378000.0 -3.85483974110935 -106.296275058306
313376000.0 -3.88276719095312 -106.558743550027
314374000.0 -3.89904206546595 -106.73818779975
315372000.0 -3.93400054696067 -106.76072830359
316370000.0 -3.95347224626882 -106.92132409772
317368000.0 -3.96448195812749 -106.989534309298
318366000.0 -3.97707926370759 -107.167043633118
319364000.0 -4.00459216743604 -107.275654709321
320362000.0 -3.99983178424988 -107.430832862208
321360000.0 -4.00865770161756 -107.636467858406
322358000.0 -4.02810765454453 -107.712235456539
323356000.0 -4.06301915391612 -107.745602267375
324354000.0 -4.05844529351555 -107.788021023704
325352000.0 -4.05932575974209 -107.973006948562
326350000.0 -4.06932405361208 -108.040768871731
327348000.0 -4.09968199028248 -108.025456297201
328346000.0 -4.10668567355795 -107.958057460368
329344000.0 -4.09193559780897 -108.338336744763
330342000.0 -4.11403829152052 -108.23821269538
331340000.0 -4.13002372369206 -108.449700833809
332338000.0 -4.12844621912997 -108.366482099119
333336000.0 -4.15041353318658 -108.236359716934
334334000.0 -4.14122550143573 -108.428739871647
335332000.0 -4.1278617010119 -108.587116803183
336330000.0 -4.13813811028896 -108.649008884307
337328000.0 -4.13868100072674 -108.657179675502
338326000.0 -4.13174978153285 -108.663146363419
339324000.0 -4.12943820108967 -108.684225835876
340322000.0 -4.12280795687329 -108.754354310305
341320000.0 -4.11525990097358 -108.827944110682
342318000.0 -4.10241172973568 -109.067213622592
343316000.0 -4.11607948007718 -109.084099273469
344314000.0 -4.07871372299613 -109.062687811178
345312000.0 -4.07967786620347 -109.131574867839
346310000.0 -4.05625115013828 -109.249375912283
347308000.0 -4.04702212499798 -109.332390436528
348306000.0 -4.05047338074766 -109.328987081577
349304000.0 -4.02687598457589 -109.292179967209
350302000.0 -4.00006170618614 -109.420405807578
351300000.0 -3.97345670591169 -109.651981011546
352298000.0 -3.98298835449551 -109.707086764634
353296000.0 -3.98086715285837 -109.962564955963
354294000.0 -3.94966884958808 -109.957353625812
355292000.0 -3.92985055533581 -110.263025973405
356290000.0 -3.93513321366807 -110.254959078977
357288000.0 -3.90035214391218 -110.306424138944
358286000.0 -3.89716765110898 -110.393067804638
359284000.0 -3.86286694408842 -110.492546280392
360282000.0 -3.82639811268859 -110.609320592072
361280000.0 -3.80960035647516 -110.772883101103
362278000.0 -3.80010030122512 -110.977318626278
363276000.0 -3.76849233572269 -111.195903644807
364274000.0 -3.77088912600458 -111.275472161039
365272000.0 -3.7300957658485 -111.494586830034
366270000.0 -3.71192546860836 -111.659472427632
367268000.0 -3.70674375310755 -111.760396683058
368266000.0 -3.70177080218674 -111.904460338398
369264000.0 -3.63702612853164 -112.051405325519
370262000.0 -3.62889890806865 -112.140790697427
371260000.0 -3.62212918530099 -112.501554360829
372258000.0 -3.59755454384933 -112.535812247397
373256000.0 -3.5784213481669 -112.793903153866
374254000.0 -3.56180874187928 -112.967554930368
375252000.0 -3.53895867993325 -113.290305121908
376250000.0 -3.50265101770607 -113.486305046639
377248000.0 -3.48312109994967 -113.562500009598
378246000.0 -3.45236279363133 -113.649627219883
379244000.0 -3.42933434880403 -114.006653662208
380242000.0 -3.42451213406814 -114.165582618409
381240000.0 -3.40746696785043 -114.496879062821
382238000.0 -3.39396026650992 -114.752610462844
383236000.0 -3.36931684298181 -114.958556439055
384234000.0 -3.34281630669023 -114.984914363177
385232000.0 -3.31953784035637 -115.380580257833
386230000.0 -3.29973546523745 -115.624116631191
387228000.0 -3.28226660741 -115.782921106905
388226000.0 -3.25944260534592 -116.190803604871
389224000.0 -3.2287156001016 -116.106976075456
390222000.0 -3.22679262756489 -116.502698392096
391220000.0 -3.21191076392577 -116.740221228939
392218000.0 -3.20091737710427 -117.125622127847
393216000.0 -3.20928939600023 -117.104334771855
394214000.0 -3.15729176337043 -117.57121526168
395212000.0 -3.15521358973265 -117.675825735757
396210000.0 -3.12029075278942 -117.861129919541
397208000.0 -3.12869237522098 -118.116075201404
398206000.0 -3.09823753252216 -118.421741005306
399204000.0 -3.09327498372652 -118.559260688056
400202000.0 -3.06415147917823 -118.994223361141
401200000.0 -3.03514975960981 -119.050243450783
402198000.0 -3.03334492479656 -119.391244768094
403196000.0 -3.02795442566503 -119.470864543243
404194000.0 -3.00568309460868 -119.744521494526
405192000.0 -2.98306899365141 -120.156318955938
406190000.0 -3.01152238910469 -120.395204656208
407188000.0 -3.01839242729386 -120.719471557123
408186000.0 -2.96806264881832 -120.87566989825
409184000.0 -2.97156781323634 -121.082166989265
410182000.0 -2.9987016154238 -121.348469189369
411180000.0 -2.96617309018019 -121.603193499282
412178000.0 -2.94958009941863 -121.819409624078
413176000.0 -2.92905602663361 -122.025675882456
414174000.0 -2.92230408492681 -122.279677364258
