!Keysight Technologies N9923A: A.08.19
!Date: Thursday, 16 January 2020 11:30:00
!TimeZone: (GMT-03:00) Brasilia!Model: N9923A
!Serial: MY51491501
!GPS Latitude: 
!GPS Longitude: 
!GPS TimeStamp: 0001-01-01 00:00:00Z
!GPS Seconds Since Last Read: 0
!CHECKSUM:1078980270
!Correction: S11(ON U)
!S1P File: Measurement: S11:
# Hz S DB R 50
2000000.0 -1.78198959835793 -24.4190498663103
2998000.0 -3.41093789986714 -36.4943560552273
3996000.0 -6.72899491539663 -48.3176251615309
4994000.0 -13.8474617490198 -37.0610716670305
5992000.0 -11.6114255601985 30.2359223377018
6990000.0 -6.39320644569528 30.28451896249
7988000.0 -4.19857752502673 20.5056465913667
8986000.0 -3.29193319675965 11.2353916648048
9984000.0 -2.9621660180885 3.508265349168
10982000.0 -2.99983667587049 -2.83630661137694
11980000.0 -3.24346466870578 -8.07788754466253
12978000.0 -3.68136852561974 -12.1694449379173
13976000.0 -4.27898203805302 -14.5859938583892
14974000.0 -4.91495944669571 -15.4394862346854
15972000.0 -5.46379501572901 -14.0912020596981
16970000.0 -5.72594351889135 -11.011646713448
17968000.0 -5.62346491940619 -8.2096322277198
18966000.0 -5.27799939422728 -7.10509384618557
19964000.0 -4.90225669904161 -7.57973461565571
20962000.0 -4.60743751993329 -9.63424886220593
21960000.0 -4.49314023040976 -12.2208046595199
22958000.0 -4.53893883211006 -15.4400012763119
23956000.0 -4.76680627965473 -18.2544969230808
24954000.0 -5.08897391652889 -20.4449270046577
25952000.0 -5.5348768731042 -22.0117561395865
26950000.0 -5.97133865802589 -22.7280597558808
27948000.0 -6.46851615827612 -22.3776460459246
28946000.0 -6.91045245893839 -21.5913106055769
29944000.0 -7.28393588764087 -19.8307852884222
30942000.0 -7.59213463690106 -17.5938835040852
31940000.0 -7.76389647452936 -15.2455731582138
32938000.0 -7.84645880436302 -12.7168167340113
33936000.0 -7.86926200113771 -10.2705750966454
34934000.0 -7.79499795454887 -7.99988315364453
35932000.0 -7.64085839807686 -5.90479449034364
36930000.0 -7.49120282494231 -4.16841605435521
37928000.0 -7.25708236823841 -2.62874927157705
38926000.0 -7.01388925465807 -1.51502210886953
39924000.0 -6.74845437519684 -0.613102097682714
40922000.0 -6.49578592790725 -0.219603033895206
41920000.0 -6.21967656982101 0.0695681588007886
42918000.0 -5.95969359597834 0.0788272290884259
43916000.0 -5.73746574852366 -0.0435681429421172
44914000.0 -5.50628917509173 -0.539756541638045
45912000.0 -5.2705863937981 -0.858968125225661
46910000.0 -5.04841856828254 -1.73507708204973
47908000.0 -4.90690346678787 -2.59562092388217
48906000.0 -4.72359027313624 -3.20424163013241
49904000.0 -4.58849580264127 -4.25569562940437
50902000.0 -4.46184101788454 -5.16659608199825
51900000.0 -4.35475941331904 -6.13297730936713
52898000.0 -4.25597252715405 -7.09428154742186
53896000.0 -4.18105046745531 -7.97019887785051
54894000.0 -4.09059027926172 -8.95115501621691
55892000.0 -4.0359070923212 -9.90374495040461
56890000.0 -3.9865501815137 -10.8950189195507
57888000.0 -3.93904262496414 -11.6943366259797
58886000.0 -3.90258852438738 -12.4715679142512
59884000.0 -3.87600662633684 -13.2213004057228
60882000.0 -3.84054861444374 -14.0244135171797
61880000.0 -3.82626876290486 -14.7225427566001
62878000.0 -3.77564599948539 -15.2940700423289
63876000.0 -3.76162467100189 -16.0758334465743
64874000.0 -3.72997350132558 -16.8070694724237
65872000.0 -3.7031088293345 -17.4039965416657
66870000.0 -3.68645100122628 -18.0698520924363
67868000.0 -3.65405733319916 -18.7407868701396
68866000.0 -3.60866602641801 -19.5317083622244
69864000.0 -3.59496510081324 -19.9506294586064
70862000.0 -3.58781768153165 -20.7865783122249
71860000.0 -3.52129108394192 -21.3525352077674
72858000.0 -3.54897971005283 -22.0194891266966
73856000.0 -3.52698532026784 -22.6914920523894
74854000.0 -3.51134346274019 -23.3366721979545
75852000.0 -3.50898795229028 -23.8730356167338
76850000.0 -3.49809073788138 -24.4141831071155
77848000.0 -3.50250498995454 -25.1566426577696
78846000.0 -3.47435220533755 -25.5100027408192
79844000.0 -3.4791130733862 -26.0347912267351
80842000.0 -3.46082771470909 -26.6139063344097
81840000.0 -3.46331047151483 -27.1640168302868
82838000.0 -3.41512331871921 -27.6402577845628
83836000.0 -3.44537005654929 -28.015247462434
84834000.0 -3.41155049160194 -28.4260672086359
85832000.0 -3.39727598030055 -28.9659036834846
86830000.0 -3.37098057425544 -29.3599041213689
87828000.0 -3.34281792863649 -29.8526719884974
88826000.0 -3.34500863859765 -30.3844486870269
89824000.0 -3.31326916509284 -30.8214590185496
90822000.0 -3.30374029833209 -31.3232340548005
91820000.0 -3.2667060386588 -31.6986689904691
92818000.0 -3.24149436786503 -32.3222639600906
93816000.0 -3.21215501988429 -32.6428190186044
94814000.0 -3.17723672188376 -33.301000989476
95812000.0 -3.14138068801928 -33.701959435823
96810000.0 -3.12916006301131 -34.252368988981
97808000.0 -3.10839778431186 -34.7399420409576
98806000.0 -3.0785521959763 -35.2064952899884
99804000.0 -3.02857592545606 -35.8901036282683
100802000.0 -3.00249302540263 -36.3847972810845
101800000.0 -2.98809362826485 -37.0528285006356
102798000.0 -2.95253993100999 -37.6340415612985
103796000.0 -2.94870693994061 -38.2419827540175
104794000.0 -2.91343798454846 -38.9428223001121
105792000.0 -2.88436884827705 -39.4191474540922
106790000.0 -2.85662205044721 -40.0206800981954
107788000.0 -2.85057114463314 -40.8697218755435
108786000.0 -2.80614408132509 -41.4147023485375
109784000.0 -2.81808231091464 -42.0638144040059
110782000.0 -2.80613068302963 -42.8063144605211
111780000.0 -2.81171735239107 -43.561243622303
112778000.0 -2.76854584585032 -44.0419732776486
113776000.0 -2.77832494267824 -44.5976920265109
114774000.0 -2.75887397270313 -45.5729603659592
115772000.0 -2.74293467837635 -46.0433060224872
116770000.0 -2.76000586087887 -46.8114062792878
117768000.0 -2.78077584629265 -47.3733230548604
118766000.0 -2.76355957752842 -48.0957036765013
119764000.0 -2.76571158449899 -48.6162985789567
120762000.0 -2.75242901128269 -49.3630334082549
121760000.0 -2.76957363128228 -50.0232580652319
122758000.0 -2.7750935721125 -50.7821476306075
123756000.0 -2.78843820982576 -51.3358237908423
124754000.0 -2.79583753539451 -52.1331109048998
125752000.0 -2.79182080816458 -52.5222631352207
126750000.0 -2.80947274512156 -53.3968241536495
127748000.0 -2.81800194133242 -53.9344147439233
128746000.0 -2.84043726656495 -54.5647699466875
129744000.0 -2.86220752524633 -55.3347591897463
130742000.0 -2.88919361041042 -56.1466114574682
131740000.0 -2.91610629004156 -56.6644998518523
132738000.0 -2.93106893901435 -57.3745078236827
133736000.0 -2.95576613930189 -57.9238789555022
134734000.0 -2.98253435264216 -58.655206893874
135732000.0 -3.02379380709227 -59.1580444366832
136730000.0 -3.04512279582473 -59.8650311829716
137728000.0 -3.07032766893678 -60.5208910009255
138726000.0 -3.11403580898556 -61.0603676581722
139724000.0 -3.13808812323363 -61.6510518137443
140722000.0 -3.19782471835203 -62.2144394442399
141720000.0 -3.24479056188278 -62.7228493917806
142718000.0 -3.27463649581803 -63.271647919105
143716000.0 -3.32935303879762 -63.8574109473439
144714000.0 -3.37272511529256 -64.4813332413183
145712000.0 -3.40649615944057 -64.8658907189727
146710000.0 -3.45202832172037 -65.4909182487426
147708000.0 -3.50755344342274 -65.7713806736209
148706000.0 -3.56338531567249 -66.4521759330006
149704000.0 -3.60949588760003 -66.8010218789106
150702000.0 -3.65967209075722 -67.2587887673168
151700000.0 -3.72724368720433 -67.7219456014166
152698000.0 -3.79772405261346 -68.1085284175977
153696000.0 -3.82666146614079 -68.6693749391399
154694000.0 -3.87573702894288 -68.7644632637717
155692000.0 -3.93441363268655 -69.3410581103191
156690000.0 -3.98594035252153 -69.5373402417044
157688000.0 -4.06087225412382 -69.9831906454697
158686000.0 -4.11956665592929 -70.0841143250421
159684000.0 -4.15510829568613 -70.2817210616615
160682000.0 -4.22960210409085 -70.476578622023
161680000.0 -4.26924263650517 -70.6638315708197
162678000.0 -4.3113318198414 -71.0508845069519
163676000.0 -4.35759021718695 -71.2036881553671
164674000.0 -4.41981402381915 -71.2522509048033
165672000.0 -4.49371122503403 -71.3809664820436
166670000.0 -4.51947703381126 -71.4774209497353
167668000.0 -4.56282087681426 -71.5910217439293
168666000.0 -4.600942105559 -71.8327326091375
169664000.0 -4.65844700884792 -71.6184303718355
170662000.0 -4.6616111465708 -71.6528963362298
171660000.0 -4.73729406032861 -71.7639847847635
172658000.0 -4.7215880510652 -71.7704559438979
173656000.0 -4.77816560044553 -71.4824479037636
174654000.0 -4.77269421134596 -71.7847851967262
175652000.0 -4.8184121794669 -71.8239708993354
176650000.0 -4.82380345776627 -71.7346245908788
177648000.0 -4.85940643510175 -71.8548830470786
178646000.0 -4.85663309885898 -71.6746721755701
179644000.0 -4.89678714270539 -71.5904320447056
180642000.0 -4.86983720540311 -71.7094602444464
181640000.0 -4.84997994150807 -71.6593456549467
182638000.0 -4.84671835033869 -71.601846452402
183636000.0 -4.87331875585652 -71.7369349777093
184634000.0 -4.86621653812055 -71.6921440468663
185632000.0 -4.86030587597614 -71.7564040860312
186630000.0 -4.86202630311632 -71.7530342500193
187628000.0 -4.82924562394022 -71.6154275233729
188626000.0 -4.80155377928805 -71.8522109553018
189624000.0 -4.81624719293913 -71.7329892794818
190622000.0 -4.78324734315007 -71.9922872695709
191620000.0 -4.78870915597818 -71.9783892375705
192618000.0 -4.75599685800026 -72.1655733478802
193616000.0 -4.76867430172582 -72.3342967456775
194614000.0 -4.72053938549858 -72.3452309741062
195612000.0 -4.72564605472467 -72.2930952232367
196610000.0 -4.7007969867032 -72.1880317694873
197608000.0 -4.68867149490644 -72.4855152846279
198606000.0 -4.65548850789095 -72.6361193640653
199604000.0 -4.62796391675859 -72.7726553161297
200602000.0 -4.61872873699619 -72.9803254610149
201600000.0 -4.61186936513092 -72.9310422534093
202598000.0 -4.59364890295002 -73.1911539985499
203596000.0 -4.57389834558613 -73.2274908388479
204594000.0 -4.54222902098714 -73.553586390107
205592000.0 -4.54280613321435 -73.5997207621311
206590000.0 -4.49012208982116 -73.7969824725681
207588000.0 -4.48615303369147 -74.0480776295391
208586000.0 -4.46629922480978 -74.0525582620025
209584000.0 -4.46751598236027 -74.4495120203529
210582000.0 -4.40544980434255 -74.282402613956
211580000.0 -4.40948627761035 -74.7143859540211
212578000.0 -4.3647981605962 -74.8851586416287
213576000.0 -4.37026868952272 -74.9546085954473
214574000.0 -4.3450626624827 -75.1389884939632
215572000.0 -4.30123596675918 -75.2526832831085
216570000.0 -4.28477944056514 -75.4419971859016
217568000.0 -4.24322512556156 -75.6264855941685
218566000.0 -4.22890058234262 -75.6672504970042
219564000.0 -4.210965441868 -76.2084213817763
220562000.0 -4.16924055312541 -76.3963441460594
221560000.0 -4.17632037826652 -76.4816907445002
222558000.0 -4.1585108531167 -76.8333790854157
223556000.0 -4.12365514359758 -77.0969069249642
224554000.0 -4.08708598809175 -77.1590652276194
225552000.0 -4.05593107210228 -77.5780755080125
226550000.0 -4.03839701072561 -77.9180931461994
227548000.0 -4.00954782986665 -77.9516461941482
228546000.0 -3.9984825631983 -78.1565217169219
229544000.0 -3.92315859865588 -78.6667085728277
230542000.0 -3.94444839692442 -78.9648713874681
231540000.0 -3.91855168051378 -79.1205137301838
232538000.0 -3.9124628455039 -79.4332392774428
233536000.0 -3.86034436906509 -79.7906060327268
234534000.0 -3.8289770141989 -80.1188041667962
235532000.0 -3.83175626395279 -80.392667420983
236530000.0 -3.80472921494249 -80.5349600807909
237528000.0 -3.7872211936234 -81.0160531942415
238526000.0 -3.75837685055411 -81.1415005398319
239524000.0 -3.74864210101475 -81.6893419517259
240522000.0 -3.72748652809951 -81.9639293109091
241520000.0 -3.67942570174595 -82.4157987136735
242518000.0 -3.6993772660378 -82.5892244174965
243516000.0 -3.6812842011435 -82.9447334459482
244514000.0 -3.66233452832247 -83.2791496857697
245512000.0 -3.64554556585975 -83.6550423311688
246510000.0 -3.66944565789381 -84.1003102184481
247508000.0 -3.64913476773655 -84.4045841505757
248506000.0 -3.60126162509892 -84.5665986251458
249504000.0 -3.61848174535692 -84.968735880958
250502000.0 -3.57372167464175 -85.1541354586525
251500000.0 -3.58451687178341 -85.6952810877122
252498000.0 -3.56560515155816 -85.9381299051824
253496000.0 -3.5839044852764 -86.2208118736333
254494000.0 -3.5624437274591 -86.5832264086665
255492000.0 -3.5124402727786 -87.0290184614633
256490000.0 -3.55248980917989 -87.1578624829953
257488000.0 -3.51764321364994 -87.5845826147469
258486000.0 -3.54569829739323 -87.7860847750092
259484000.0 -3.51904824747241 -88.2222230474354
260482000.0 -3.52037485622541 -88.4428172871177
261480000.0 -3.52765142791272 -88.7711934039442
262478000.0 -3.50530275890365 -89.2674308505125
263476000.0 -3.49303529111627 -89.2529592034953
264474000.0 -3.49828256321425 -89.477514166427
265472000.0 -3.48279474423687 -90.0422187584077
266470000.0 -3.46787301156458 -90.3269470932836
267468000.0 -3.48043821425412 -90.6946782305351
268466000.0 -3.46197264786058 -90.8476469703035
269464000.0 -3.44461579552113 -91.0371580990524
270462000.0 -3.47881136164214 -91.4927696896563
271460000.0 -3.4572855359312 -91.6356044326774
272458000.0 -3.4473473649469 -91.9566340819374
273456000.0 -3.44703551194205 -92.1921323367223
274454000.0 -3.4191404338065 -92.4746926423623
275452000.0 -3.43521667817156 -92.6288738209088
276450000.0 -3.40862203665842 -92.8185281233922
277448000.0 -3.44579100178764 -93.3491899183903
278446000.0 -3.42482554944989 -93.6235344456951
279444000.0 -3.44750024159565 -93.926718140272
280442000.0 -3.40864168459651 -94.2136521216698
281440000.0 -3.41042336385417 -94.4476041873444
282438000.0 -3.38866406536062 -94.8135335178697
283436000.0 -3.40844591274405 -94.821137209645
284434000.0 -3.38595581025936 -95.1884550514698
285432000.0 -3.38551673748784 -95.5720243030469
286430000.0 -3.40546498377757 -95.9327075665685
287428000.0 -3.40720959966814 -96.165644344279
288426000.0 -3.38628334733671 -96.149720575365
289424000.0 -3.39445111884409 -96.4420238502553
290422000.0 -3.39090570479553 -96.8437355481844
291420000.0 -3.395755016371 -97.1500078589716
292418000.0 -3.38939704939419 -97.2569411601365
293416000.0 -3.39172648673376 -97.3885704534697
294414000.0 -3.37091399889401 -97.6490389765672
295412000.0 -3.38281968916378 -97.8827549892592
296410000.0 -3.38346440754865 -98.1075961983251
297408000.0 -3.35489480578773 -98.2998691633495
298406000.0 -3.39923477244905 -98.7115534673828
299404000.0 -3.39062680481955 -98.8455837464709
300402000.0 -3.37961251153502 -98.9062880036238
301400000.0 -3.34898463984598 -99.2949316837871
302398000.0 -3.37108641952925 -99.5596294667817
303396000.0 -3.35318609446114 -99.6286280091985
304394000.0 -3.37762970567009 -99.8617689979173
305392000.0 -3.36913719836424 -100.002839853402
306390000.0 -3.34726698816445 -100.206131779395
307388000.0 -3.3500851374547 -100.432704221103
308386000.0 -3.33694455524756 -100.670931791407
309384000.0 -3.34894025694658 -100.79322438107
310382000.0 -3.32515216255786 -101.127070855259
311380000.0 -3.35255288456346 -101.437989150452
312378000.0 -3.34073416194052 -101.287083651354
313376000.0 -3.32021833226233 -101.726491783365
314374000.0 -3.31697442140559 -101.916685760464
315372000.0 -3.31710062574804 -101.989625879524
316370000.0 -3.32245782706872 -102.283164053166
317368000.0 -3.32585511973022 -102.428484926265
318366000.0 -3.3279465865494 -102.690244906917
319364000.0 -3.31940514317571 -102.985812231183
320362000.0 -3.28052294240706 -102.861909502723
321360000.0 -3.28223723835486 -103.231815855047
322358000.0 -3.27757449856328 -103.481256705959
323356000.0 -3.26605168921871 -103.678468120086
324354000.0 -3.26420688698259 -103.770256939196
325352000.0 -3.24616020139533 -104.048630900686
326350000.0 -3.225956625212 -104.331226795199
327348000.0 -3.24154388728222 -104.542786649864
328346000.0 -3.24530668232791 -104.515877435768
329344000.0 -3.21385940758265 -104.886220592364
330342000.0 -3.21698688531854 -105.041808504156
331340000.0 -3.2372487481571 -105.321463909504
332338000.0 -3.19901971175286 -105.441362131477
333336000.0 -3.21081359124895 -105.435069730622
334334000.0 -3.19595054384603 -105.874550220079
335332000.0 -3.18142246419498 -106.033031441859
336330000.0 -3.16790048735576 -106.470388002142
337328000.0 -3.16247909054179 -106.63198942202
338326000.0 -3.15993567268766 -106.926162609309
339324000.0 -3.16387857262286 -106.914380151571
340322000.0 -3.15153379010127 -107.242990382174
341320000.0 -3.11610456531542 -107.364733313858
342318000.0 -3.11658638617043 -107.711276611698
343316000.0 -3.11216731571302 -107.951556860358
344314000.0 -3.08086945302662 -108.123562516996
345312000.0 -3.07677134856689 -108.457938457468
346310000.0 -3.07792955235301 -108.519075571228
347308000.0 -3.05715352123984 -108.832281651386
348306000.0 -3.06852920594224 -109.136532614649
349304000.0 -3.05634411708278 -109.069578929032
350302000.0 -3.04600203675641 -109.56463795928
351300000.0 -3.03961989615468 -109.74354601603
352298000.0 -2.99658974041725 -110.100649510015
353296000.0 -3.03171540360294 -110.401182165856
354294000.0 -3.0116168654349 -110.463479234981
355292000.0 -2.98746703523151 -110.863742191793
356290000.0 -3.01455336232519 -111.104239477801
357288000.0 -2.9766513256833 -111.310415170507
358286000.0 -2.99265602764974 -111.560825476879
359284000.0 -2.97266196836537 -111.934495849078
360282000.0 -2.96355806333467 -112.047322324413
361280000.0 -2.95782302344141 -112.339518316548
362278000.0 -2.97833811909295 -112.511877165212
363276000.0 -2.94968603842784 -112.653783330499
364274000.0 -2.96481522482464 -113.053058942765
365272000.0 -2.94113635815635 -113.342078118919
366270000.0 -2.9426448237277 -113.613115257629
367268000.0 -2.93093206866665 -113.771831188475
368266000.0 -2.95055244019531 -114.086853254822
369264000.0 -2.90634018066073 -114.463316241049
370262000.0 -2.92114595446027 -114.525845497311
371260000.0 -2.91825665332153 -114.77620977582
372258000.0 -2.92160256009857 -115.065730604653
373256000.0 -2.93131895146592 -115.274378280272
374254000.0 -2.90898452980126 -115.419367084046
375252000.0 -2.90538026749416 -115.904979004578
376250000.0 -2.90825992955685 -116.082737685465
377248000.0 -2.90476108375701 -116.306232424833
378246000.0 -2.87896807301705 -116.412210875859
379244000.0 -2.88781763963772 -116.705520702731
380242000.0 -2.86700118577255 -116.866504829635
381240000.0 -2.90512765222251 -117.335902796945
382238000.0 -2.88825568626912 -117.64605441669
383236000.0 -2.88358786473052 -117.786112012921
384234000.0 -2.87852829546342 -117.75197474001
385232000.0 -2.88607774945462 -118.014619941869
386230000.0 -2.89117837040418 -118.378504197196
387228000.0 -2.83805607465751 -118.462886089383
388226000.0 -2.87112549150182 -118.912676494157
389224000.0 -2.86549292657692 -118.986294802161
390222000.0 -2.87303640539466 -119.110300685091
391220000.0 -2.8798977137471 -119.374742103111
392218000.0 -2.85884192413987 -119.85684184173
393216000.0 -2.87257033545748 -119.92739471289
394214000.0 -2.85082379027901 -120.073367813621
395212000.0 -2.8597840105474 -120.397123621668
396210000.0 -2.85045700448621 -120.674956038344
397208000.0 -2.87970893085464 -120.557399347141
398206000.0 -2.83616935090309 -120.944966147883
399204000.0 -2.85295864315825 -121.041174284722
400202000.0 -2.84656799841914 -121.433146651882
401200000.0 -2.84104174812417 -121.589947370301
402198000.0 -2.84041146751323 -121.728828695839
403196000.0 -2.85095928298392 -121.792619560206
404194000.0 -2.83342460265532 -122.095215322031
405192000.0 -2.81692635044726 -122.454651505704
406190000.0 -2.83467616101879 -122.579048143765
407188000.0 -2.84947113280248 -122.772550203413
408186000.0 -2.83567868303377 -122.963296821161
409184000.0 -2.83466092851137 -123.015412641944
410182000.0 -2.84817177473071 -123.375325982538
411180000.0 -2.82471088543543 -123.52666728909
412178000.0 -2.82020818525623 -123.721892851029
413176000.0 -2.81145014827022 -123.928458468605
