!Keysight Technologies N9923A: A.08.19
!Date: Thursday, 16 January 2020 11:30:00
!TimeZone: (GMT-03:00) Brasilia!Model: N9923A
!Serial: MY51491501
!GPS Latitude: 
!GPS Longitude: 
!GPS TimeStamp: 0001-01-01 00:00:00Z
!GPS Seconds Since Last Read: 0
!CHECKSUM:1078980270
!Correction: S11(ON U)
!S1P File: Measurement: S11:
# Hz S DB R 50
2000000.0 -1.86149158743526 -24.8541139229082
2998000.0 -3.73325587926297 -37.3452424549631
3996000.0 -7.67192109664823 -47.3915015837927
4994000.0 -14.7953613794785 -17.0257992585185
5992000.0 -9.42537012484472 32.1558474512687
6990000.0 -5.34305550434454 27.658869864822
7988000.0 -3.58024889277041 18.089007905186
8986000.0 -2.81301722295029 9.42795612977429
9984000.0 -2.50053578135009 1.70881667248631
10982000.0 -2.53112120470057 -4.75069555716837
11980000.0 -2.77649010994098 -10.3604372567184
12978000.0 -3.22297086791194 -15.0648551329216
13976000.0 -3.85367854505747 -18.6129560502749
14974000.0 -4.66900135557352 -20.5805380572132
15972000.0 -5.50523673416303 -19.8770916853033
16970000.0 -6.13411867502462 -16.3626973718245
17968000.0 -6.27793230731724 -11.4496574415312
18966000.0 -5.98590726494052 -7.59747358368579
19964000.0 -5.41304857191723 -6.31901583748437
20962000.0 -4.91535489845048 -7.25107071197493
21960000.0 -4.56714542200756 -9.9449179020864
22958000.0 -4.43684919284615 -12.9921932269309
23956000.0 -4.48674115936283 -16.2005672564447
24954000.0 -4.68375583094243 -19.2419566955983
25952000.0 -5.04044735657907 -21.7227441296025
26950000.0 -5.44703231006207 -23.4763516144634
27948000.0 -5.95448744815686 -24.1390266956817
28946000.0 -6.4409690195139 -24.2668805989709
29944000.0 -6.89840662075294 -23.2838733115791
30942000.0 -7.28719905088853 -21.6965890633225
31940000.0 -7.58969396435267 -19.9180387559076
32938000.0 -7.79769581027741 -17.873561209047
33936000.0 -7.96799777801314 -15.6745941628384
34934000.0 -8.03935623745229 -13.7523452941363
35932000.0 -8.04911368301147 -11.4229697721327
36930000.0 -8.10245113919716 -9.36987730959829
37928000.0 -8.04247388627731 -6.95811786582808
38926000.0 -7.91538120960399 -4.72877631710956
39924000.0 -7.71730129584535 -2.49639889584545
40922000.0 -7.47472845013498 -0.965466889263972
41920000.0 -7.17175436947273 0.578571694651634
42918000.0 -6.84182206896845 1.56766504550472
43916000.0 -6.52533614703818 1.93582295726994
44914000.0 -6.19300246574123 2.07982725126923
45912000.0 -5.88111693455271 1.93884035749238
46910000.0 -5.57967343098765 1.40487815075019
47908000.0 -5.32458193102449 0.751818515605126
48906000.0 -5.09182567371716 0.118757626573308
49904000.0 -4.87278576503211 -0.982892171136971
50902000.0 -4.71486811534949 -1.99034774679986
51900000.0 -4.53499930907439 -3.04525838618624
52898000.0 -4.39202579492859 -4.11293433400641
53896000.0 -4.27691657771828 -5.29452709970746
54894000.0 -4.17351954184198 -6.52576069255408
55892000.0 -4.09630084342191 -7.62625015521158
56890000.0 -4.03630202180556 -8.68484432639082
57888000.0 -3.98346945805703 -9.82980375476534
58886000.0 -3.95460898893801 -10.836055862857
59884000.0 -3.95531926528179 -11.7675312383024
60882000.0 -3.93831155616281 -12.6939963068006
61880000.0 -3.95101163120854 -13.5942614600456
62878000.0 -3.92771869567181 -14.1326736399765
63876000.0 -3.93470898961768 -14.7276161568265
64874000.0 -3.91700808904861 -15.4125597830267
65872000.0 -3.92179579327563 -15.9297621877719
66870000.0 -3.90139891509057 -16.3907419707921
67868000.0 -3.87432856706245 -16.7534008872963
68866000.0 -3.87311910462628 -17.4975451833163
69864000.0 -3.83228332965609 -17.9027758134276
70862000.0 -3.82533317226482 -18.2966630171333
71860000.0 -3.79821621932098 -18.7844678967344
72858000.0 -3.78131470525804 -19.2858493455599
73856000.0 -3.74336444972542 -19.6577609674917
74854000.0 -3.70378651172067 -20.2678366786572
75852000.0 -3.69185067576407 -20.6134665792825
76850000.0 -3.63908138341752 -21.2006456458774
77848000.0 -3.61735772791668 -21.5946088979376
78846000.0 -3.54721956553343 -22.1054200554655
79844000.0 -3.57043232548033 -22.6109279410615
80842000.0 -3.49958506448205 -23.15105829945
81840000.0 -3.43222675492866 -23.6996839628672
82838000.0 -3.401501254133 -24.2295903604871
83836000.0 -3.3819309521864 -24.6391224586609
84834000.0 -3.34793894253305 -25.1803104032746
85832000.0 -3.32082744439112 -25.740927675319
86830000.0 -3.28384552202944 -26.2883793789849
87828000.0 -3.2347472705304 -27.0418484989742
88826000.0 -3.22848014359897 -27.5259107939454
89824000.0 -3.1830080326616 -28.0900969097
90822000.0 -3.17332396765813 -28.6477573933388
91820000.0 -3.15083985840267 -29.2062955747093
92818000.0 -3.12347987511356 -30.0283130083513
93816000.0 -3.09764244826324 -30.4932586317425
94814000.0 -3.07212143436847 -30.8763772942174
95812000.0 -3.06299636391866 -31.4387781773717
96810000.0 -3.04820873466647 -32.0370522618928
97808000.0 -3.03925427871237 -32.5500204019564
98806000.0 -3.01468449698765 -32.9701870140689
99804000.0 -2.99101838389306 -33.7685570653871
100802000.0 -2.97392355672243 -34.1490033683066
101800000.0 -2.93688877390827 -34.7301516544194
102798000.0 -2.94109825496174 -35.2168953390827
103796000.0 -2.93419158933751 -35.9660522787638
104794000.0 -2.90427944472118 -36.4590631636388
105792000.0 -2.87545020176362 -36.8782961688482
106790000.0 -2.87187305759625 -37.4417519775886
107788000.0 -2.83346170281374 -38.0519778945554
108786000.0 -2.78727199335023 -38.3696772893711
109784000.0 -2.80487620326466 -39.0794050451346
110782000.0 -2.78877907449006 -39.6748912861789
111780000.0 -2.76765111933625 -40.3657338290453
112778000.0 -2.7286124741587 -40.9191272055363
113776000.0 -2.72836899230063 -41.3676244147342
114774000.0 -2.68454884906746 -42.2182873260309
115772000.0 -2.68291061468968 -42.7396221524936
116770000.0 -2.68727005126801 -43.4437721640816
117768000.0 -2.66605160607975 -43.8023169652339
118766000.0 -2.66868759270484 -44.620724064764
119764000.0 -2.65488379684339 -45.2626671407042
120762000.0 -2.62925725433784 -45.9204668649265
121760000.0 -2.64979614314907 -46.7053234907681
122758000.0 -2.61198977744344 -47.4088814687929
123756000.0 -2.63864335269563 -47.9944783358281
124754000.0 -2.64260773868396 -48.7083478375531
125752000.0 -2.65912623465798 -49.3114870813876
126750000.0 -2.65016418403912 -50.1815277809166
127748000.0 -2.64849896584999 -50.7212442851888
128746000.0 -2.67106203455393 -51.4276710096426
129744000.0 -2.68691148585103 -52.1434474051666
130742000.0 -2.70783876938997 -52.7559216947382
131740000.0 -2.74288682082148 -53.3830027095896
132738000.0 -2.75008780154341 -54.0549619490231
133736000.0 -2.77311274025376 -54.5650440328364
134734000.0 -2.81414436044295 -55.1802092417513
135732000.0 -2.82490714738773 -55.7557140011233
136730000.0 -2.86655219754861 -56.3891787006868
137728000.0 -2.8880975384006 -57.0044568672691
138726000.0 -2.91785631373331 -57.4868659101123
139724000.0 -2.94898768437394 -57.9225162310001
140722000.0 -2.9751355438715 -58.3117375150974
141720000.0 -3.00773956963262 -58.8540087295905
142718000.0 -3.05286490933435 -59.3525310870881
143716000.0 -3.07237161131619 -59.9250118284552
144714000.0 -3.11786634206414 -60.3893401344087
145712000.0 -3.15757995179403 -60.737691817354
146710000.0 -3.16707797289209 -61.2730184737263
147708000.0 -3.21363683125529 -61.6184023198173
148706000.0 -3.24378346423414 -62.0754752703053
149704000.0 -3.26490281773969 -62.517342595397
150702000.0 -3.28901806240649 -62.9911819163305
151700000.0 -3.34130856512518 -63.295393018395
152698000.0 -3.37925777724752 -63.6792745524125
153696000.0 -3.39465313473713 -64.2169205286151
154694000.0 -3.41417574838066 -64.4335326241771
155692000.0 -3.44389894784062 -64.7913994811453
156690000.0 -3.46258996579471 -65.0053201614409
157688000.0 -3.48984608020914 -65.3897002004146
158686000.0 -3.53157434937891 -65.6735729351166
159684000.0 -3.56140851524495 -66.0375967692421
160682000.0 -3.58821597291702 -66.2425585444209
161680000.0 -3.59786995380597 -66.626087578373
162678000.0 -3.64092848409637 -67.0384757358388
163676000.0 -3.64470632719615 -67.3097273815094
164674000.0 -3.68488295367234 -67.4897820938103
165672000.0 -3.72505242358946 -67.6300676242746
166670000.0 -3.72803314632272 -67.8495485214781
167668000.0 -3.76964707220747 -68.354237029666
168666000.0 -3.7805477589737 -68.4839630899109
169664000.0 -3.7877253303847 -68.8146759603299
170662000.0 -3.79238902871879 -69.0181826269288
171660000.0 -3.83527710688714 -69.227703063113
172658000.0 -3.83722698305762 -69.5850975726409
173656000.0 -3.85675589590723 -69.4888106641841
174654000.0 -3.87384063050445 -69.9031510656855
175652000.0 -3.89029989216754 -70.1756484722377
176650000.0 -3.89698075882523 -70.3453429183847
177648000.0 -3.9329476604858 -70.5396472911903
178646000.0 -3.93051498234363 -70.6789786223022
179644000.0 -3.94275132341322 -70.768647160294
180642000.0 -3.96324473119081 -71.159736120813
181640000.0 -3.92839114715104 -71.2933445974044
182638000.0 -3.94547898753022 -71.4405699648625
183636000.0 -3.96921888522516 -71.623037512785
184634000.0 -3.96586086343002 -71.8364309351381
185632000.0 -3.96372605095615 -72.1153017467982
186630000.0 -3.98546676036026 -72.4201962878869
187628000.0 -3.96422177722916 -72.5262395199169
188626000.0 -3.95481343899603 -72.771962860713
189624000.0 -3.9889854653845 -72.7964832067477
190622000.0 -3.9796167644541 -73.0990359845817
191620000.0 -3.96900330223695 -73.2038988993161
192618000.0 -3.9773386007329 -73.5441341363215
193616000.0 -3.99826870042205 -73.8339754912871
194614000.0 -3.96011833441452 -73.8708101525907
195612000.0 -3.96592491315304 -73.9846600599733
196610000.0 -3.97892987659696 -74.2412014474816
197608000.0 -3.96090036475079 -74.4744297553193
198606000.0 -3.96268822210648 -74.6703423289716
199604000.0 -3.95966610118329 -75.0295836485417
200602000.0 -3.96916826615965 -75.2276214216696
201600000.0 -3.94019548153039 -75.3442115717773
202598000.0 -3.93015639702111 -75.6344519669534
203596000.0 -3.93242267911758 -75.7985644804937
204594000.0 -3.94569375315859 -76.2348242048254
205592000.0 -3.92470539504813 -76.3686593612112
206590000.0 -3.91700532452622 -76.5012318273352
207588000.0 -3.89565445602441 -76.7872254238814
208586000.0 -3.93708696091063 -77.0466626252669
209584000.0 -3.91281900274909 -77.5071255150617
210582000.0 -3.89884651598528 -77.5598279134918
211580000.0 -3.91040121620801 -77.9851457663241
212578000.0 -3.88783473079416 -78.3152342581048
213576000.0 -3.91238381649155 -78.5265698572741
214574000.0 -3.91283316889079 -78.6733308085806
215572000.0 -3.91218874531261 -78.9571879912491
216570000.0 -3.90799826907338 -79.1076927739741
217568000.0 -3.88412826714234 -79.4581224538176
218566000.0 -3.91591888845306 -79.511856885044
219564000.0 -3.88733561015887 -79.9142500220017
220562000.0 -3.89315047178856 -80.080130354867
221560000.0 -3.88196418653311 -80.3365673382076
222558000.0 -3.9086219488693 -80.7098527043492
223556000.0 -3.89313578822748 -81.0869248243833
224554000.0 -3.91133382031044 -81.214790622274
225552000.0 -3.90518266692908 -81.4505446171226
226550000.0 -3.91879984203658 -81.7989381078823
227548000.0 -3.89926879123456 -81.9639739698356
228546000.0 -3.94995562581279 -82.0981393271177
229544000.0 -3.89584255572806 -82.4031076261208
230542000.0 -3.92165853519555 -82.6731262877696
231540000.0 -3.93697100049368 -82.7730896628207
232538000.0 -3.91791164386086 -82.9592900809112
233536000.0 -3.89968359930343 -83.1447535266131
234534000.0 -3.9019057267987 -83.6089575412815
235532000.0 -3.92419124921148 -83.7021298973175
236530000.0 -3.90859400310006 -83.8385533187257
237528000.0 -3.91966506657094 -84.3370218723451
238526000.0 -3.91608045735256 -84.2943081178025
239524000.0 -3.91064685060919 -84.5967574768477
240522000.0 -3.90999230615566 -84.7829731051572
241520000.0 -3.88588878775322 -84.9421083170613
242518000.0 -3.92049069169206 -85.1953992848605
243516000.0 -3.91439377511298 -85.3630315275614
244514000.0 -3.90779211412823 -85.6868370270741
245512000.0 -3.86943324814112 -85.7154594800609
246510000.0 -3.89434358353056 -86.1558573986698
247508000.0 -3.88517054350497 -86.3658139051715
248506000.0 -3.87154603514033 -86.4224926977027
249504000.0 -3.88988214676378 -86.6532081899458
250502000.0 -3.85808588941704 -86.7948017478327
251500000.0 -3.8651289383306 -87.1724871469351
252498000.0 -3.86189491471883 -87.2635319607649
253496000.0 -3.8431105806649 -87.4778775299828
254494000.0 -3.85609646375688 -87.6404710020271
255492000.0 -3.82545414022863 -87.9166132321078
256490000.0 -3.824838749319 -87.9414049418402
257488000.0 -3.80335244112871 -88.2237741756202
258486000.0 -3.82311543021867 -88.4295414105612
259484000.0 -3.78128932570888 -88.8708839150933
260482000.0 -3.78469659502581 -88.793851944981
261480000.0 -3.7827195512589 -89.0543134968834
262478000.0 -3.76533065907488 -89.4857905656597
263476000.0 -3.75219502009453 -89.3883323340753
264474000.0 -3.74148697296279 -89.7020935493087
265472000.0 -3.71891215294604 -89.9871573391093
266470000.0 -3.70703023662343 -90.2621778248435
267468000.0 -3.69595950831946 -90.4837370244351
268466000.0 -3.68168957554354 -90.6871292214053
269464000.0 -3.68003599385773 -90.7319517992532
270462000.0 -3.6703599396794 -91.0682967683893
271460000.0 -3.6626051523665 -91.3062795207454
272458000.0 -3.62071514259165 -91.5486800422124
273456000.0 -3.61915959607118 -91.7815681938137
274454000.0 -3.58760113358974 -91.9909314242417
275452000.0 -3.56833123115769 -92.1477552971126
276450000.0 -3.53985013451393 -92.4558019424218
277448000.0 -3.53522596472729 -92.8502770670417
278446000.0 -3.54467613504929 -92.9454940794894
279444000.0 -3.55158306797541 -93.345250869121
280442000.0 -3.46978348074667 -93.6690291215613
281440000.0 -3.48612700781344 -94.0349508622659
282438000.0 -3.47602788878179 -94.2941601313501
283436000.0 -3.46096328107905 -94.381850897972
284434000.0 -3.46367666915058 -94.6874834631536
285432000.0 -3.44726380218443 -95.1696668278023
286430000.0 -3.45060388340258 -95.4199615075499
287428000.0 -3.44641129809423 -95.6242214256295
288426000.0 -3.4061905513252 -95.7533521995094
289424000.0 -3.40736751308683 -96.1293289486264
290422000.0 -3.39811422860204 -96.4363356321453
291420000.0 -3.39749632730177 -96.8819322739266
292418000.0 -3.38901801892272 -96.9938403578104
293416000.0 -3.40162908159297 -97.1357971248276
294414000.0 -3.40464824542395 -97.4929849430101
295412000.0 -3.37300817550492 -97.8093172606051
296410000.0 -3.40635951527567 -98.0564368563692
297408000.0 -3.37403624231507 -98.246866484024
298406000.0 -3.40792169245675 -98.6948726907352
299404000.0 -3.41520181835672 -98.8919217670575
300402000.0 -3.37692947174641 -99.0955672112198
301400000.0 -3.37031868496641 -99.34559360772
302398000.0 -3.36814744854567 -99.688479699401
303396000.0 -3.36965061704249 -99.8315528339607
304394000.0 -3.40124177034163 -100.130971771084
305392000.0 -3.3803281659188 -100.290106758952
306390000.0 -3.33812257852275 -100.525127886249
307388000.0 -3.36286529410267 -100.577573321608
308386000.0 -3.35515107484465 -100.953407746937
309384000.0 -3.34526527902736 -101.277807403299
310382000.0 -3.34080103750831 -101.429843650866
311380000.0 -3.37712451461967 -101.803985224831
312378000.0 -3.34957175877268 -101.752377255254
313376000.0 -3.35011834010409 -102.054068928638
314374000.0 -3.35865678478053 -102.40814633787
315372000.0 -3.37087299804848 -102.474894256343
316370000.0 -3.37722567383142 -102.800614161323
317368000.0 -3.37105469824662 -102.952427752263
318366000.0 -3.35238300210941 -103.224721468419
319364000.0 -3.34818418539753 -103.515047968771
320362000.0 -3.32894745166733 -103.622995439248
321360000.0 -3.33526856999176 -103.880995137358
322358000.0 -3.33760753999943 -104.143333702117
323356000.0 -3.35198738329759 -104.403195606829
324354000.0 -3.35888324402598 -104.528856189459
325352000.0 -3.34487654022751 -104.925211593387
326350000.0 -3.33097001072047 -105.085338972221
327348000.0 -3.34344166048196 -105.289993825307
328346000.0 -3.35029236481859 -105.270727438681
329344000.0 -3.32609101791114 -105.736987167174
330342000.0 -3.33839955556614 -105.887799850721
331340000.0 -3.34339728814557 -106.188682561744
332338000.0 -3.33597567848819 -106.253649906745
333336000.0 -3.35593966542211 -106.239593095497
334334000.0 -3.33379973357142 -106.674277744046
335332000.0 -3.32450668368357 -106.970982420892
336330000.0 -3.35834331596662 -107.379391687021
337328000.0 -3.32991300394293 -107.546155877102
338326000.0 -3.34233889424235 -107.712291990178
339324000.0 -3.34880375673336 -107.767499807263
340322000.0 -3.36616531437852 -107.988460838756
341320000.0 -3.33368564675192 -108.240616989046
342318000.0 -3.32265391018751 -108.504319740445
343316000.0 -3.33242405115318 -108.721086181535
344314000.0 -3.32350305483856 -108.836175912897
345312000.0 -3.32732624629809 -109.037647355925
346310000.0 -3.31984627820638 -109.35388434459
347308000.0 -3.31560892927621 -109.570451800452
348306000.0 -3.34164193224623 -109.85133839313
349304000.0 -3.32075224254316 -109.766578519742
350302000.0 -3.30940507926289 -110.038537114137
351300000.0 -3.32897937048047 -110.22554013593
352298000.0 -3.32465483810401 -110.540363885759
353296000.0 -3.32248336512366 -110.769436301292
354294000.0 -3.32730123840469 -110.866650896212
355292000.0 -3.31625581408154 -111.289768568946
356290000.0 -3.31298316707979 -111.343115148698
357288000.0 -3.28609694681261 -111.54593410096
358286000.0 -3.30793590105629 -111.771681605178
359284000.0 -3.28609038141724 -112.076258615063
360282000.0 -3.29468083005512 -111.992223821102
361280000.0 -3.30234174170967 -112.309205614724
362278000.0 -3.30856076486201 -112.485844469862
363276000.0 -3.2904253501953 -112.590553705195
364274000.0 -3.30031715585325 -112.857946878508
365272000.0 -3.2783043277965 -113.051311963534
366270000.0 -3.28064501479046 -113.249393493062
367268000.0 -3.28254094181373 -113.502978389444
368266000.0 -3.27284190879359 -113.772361516921
369264000.0 -3.26231706493673 -113.982447553046
370262000.0 -3.25403238006148 -114.063661875258
371260000.0 -3.27313276161697 -114.400443694787
372258000.0 -3.28224646934949 -114.430184347648
373256000.0 -3.26275585518464 -114.540730532455
374254000.0 -3.2645533845065 -114.783822270933
375252000.0 -3.2381132763861 -115.077856291792
376250000.0 -3.22289626312813 -115.204300167962
377248000.0 -3.23797326518789 -115.303963358978
378246000.0 -3.20651641970821 -115.346797536911
379244000.0 -3.20199927867599 -115.678141968208
380242000.0 -3.17999840113692 -115.917747212372
381240000.0 -3.17600567408601 -116.226925515039
382238000.0 -3.17895972897304 -116.511036088726
383236000.0 -3.1940929006038 -116.621928517427
384234000.0 -3.20427419910956 -116.650424845583
385232000.0 -3.1878618503821 -116.937764459814
386230000.0 -3.17995932767289 -117.152288903993
387228000.0 -3.17719468475794 -117.152436772111
388226000.0 -3.15824006958575 -117.454924794417
389224000.0 -3.15209107042443 -117.527223342588
390222000.0 -3.13411512033081 -117.693983042604
391220000.0 -3.11583342410347 -117.948895044409
392218000.0 -3.11598037808188 -118.325800124526
393216000.0 -3.13054662151143 -118.48124889437
394214000.0 -3.07422119216823 -118.732751650519
395212000.0 -3.07938670083594 -118.86247575841
396210000.0 -3.09676816939278 -119.197778715163
397208000.0 -3.09823029545109 -119.111479187015
398206000.0 -3.08709379507756 -119.42502833462
399204000.0 -3.08147876840058 -119.570926949729
400202000.0 -3.07079584353054 -119.802381933454
401200000.0 -3.06120149504166 -119.946536389735
402198000.0 -3.03388556423224 -120.203565176483
403196000.0 -3.0378852822418 -120.306059689563
404194000.0 -3.00461670266036 -120.593612208131
405192000.0 -2.97278450338708 -120.811941335173
406190000.0 -2.99359865819182 -121.181552579399
407188000.0 -3.01312588980126 -121.428297334883
408186000.0 -2.97685191999763 -121.482482932981
409184000.0 -2.9808358297368 -121.583894512314
410182000.0 -3.00141087620721 -121.952607292218
411180000.0 -2.97673742508447 -122.086410253023
412178000.0 -2.98750833903363 -122.304864279339
413176000.0 -2.95796812809457 -122.507331742487
