!Keysight Technologies N9923A: A.08.19
!Date: Thursday, 16 January 2020 11:30:00
!TimeZone: (GMT-03:00) Brasilia!Model: N9923A
!Serial: MY51491501
!GPS Latitude: 
!GPS Longitude: 
!GPS TimeStamp: 0001-01-01 00:00:00Z
!GPS Seconds Since Last Read: 0
!CHECKSUM:1078980270
!Correction: S11(ON U)
!S1P File: Measurement: S11:
# Hz S DB R 50
2000000.0 -1.03503354472642 -22.0737204159426
2998000.0 -2.31927342399325 -35.5394185888206
3996000.0 -5.35790530255408 -51.1276876820687
4994000.0 -13.3910572588635 -49.8602811370532
5992000.0 -11.9146358506595 35.0742310975426
6990000.0 -5.86872013468573 32.5644520554203
7988000.0 -3.57939775813857 22.151378352886
8986000.0 -2.55574338601526 12.5408301468503
9984000.0 -2.0564518280294 4.41643204415004
10982000.0 -1.93757945477784 -2.63065693198035
11980000.0 -2.03521283687326 -9.06889582326629
12978000.0 -2.34539511274466 -14.9962103276529
13976000.0 -2.93048309216402 -20.1001127035387
14974000.0 -3.72703075175484 -24.1438757174621
15972000.0 -4.78856950550598 -25.7318150265654
16970000.0 -5.88187010130213 -23.5048583941648
17968000.0 -6.56718821185167 -17.3747929821533
18966000.0 -6.44477414555472 -10.2225516999773
19964000.0 -5.7500930486943 -6.15798325270952
20962000.0 -4.92727072667329 -6.26574268234602
21960000.0 -4.34322412641148 -8.85556804237855
22958000.0 -4.01200639604006 -12.5893843988342
23956000.0 -3.96055790515322 -16.9981035600701
24954000.0 -4.06981862342904 -21.1492963953995
25952000.0 -4.41514577848286 -24.9122440446932
26950000.0 -4.87537662559223 -27.9507833104462
27948000.0 -5.52194063945104 -30.3694757261644
28946000.0 -6.23463059148713 -31.6080338803441
29944000.0 -7.04562342038294 -31.6477387423534
30942000.0 -7.8356986302822 -29.7802268567816
31940000.0 -8.51056667639027 -26.769890771423
32938000.0 -9.02809918802942 -22.4457440119075
33936000.0 -9.3055254130178 -17.3483250978891
34934000.0 -9.3259079198556 -12.5881946475114
35932000.0 -9.18013777332842 -8.07388350964394
36930000.0 -8.95514537718663 -4.48431812989975
37928000.0 -8.61928036296273 -1.57407671347432
38926000.0 -8.23825824553622 0.902918897619347
39924000.0 -7.82324608534728 2.75644632871374
40922000.0 -7.40181358108631 3.91158404958708
41920000.0 -7.01188100521796 4.70097782708197
42918000.0 -6.62527333627564 4.89956484601556
43916000.0 -6.28726281640216 4.73887487279473
44914000.0 -5.95876452271812 4.33872674029908
45912000.0 -5.65231454157041 3.82192737043733
46910000.0 -5.38599646867922 3.15923422638691
47908000.0 -5.17474764854516 2.45678019023072
48906000.0 -4.94218109939542 1.59984638992176
49904000.0 -4.75066677704555 0.68277731255998
50902000.0 -4.56908615103309 -0.251486185991396
51900000.0 -4.39285753453917 -1.04568035443163
52898000.0 -4.24213306230162 -2.02963695588809
53896000.0 -4.09111794780863 -3.07555203799165
54894000.0 -3.96700707319624 -4.0433930466427
55892000.0 -3.85394205745233 -5.06428586946256
56890000.0 -3.75729110887412 -6.15402835635433
57888000.0 -3.66792153632422 -7.24615319417094
58886000.0 -3.57965393489482 -8.25856870568417
59884000.0 -3.52384372912201 -9.19819276124202
60882000.0 -3.45540067746253 -10.1748199466736
61880000.0 -3.40470437244196 -11.1948563276315
62878000.0 -3.34363284309778 -12.0224452522887
63876000.0 -3.31617590397792 -12.8858787761842
64874000.0 -3.27019442261522 -13.7763677758811
65872000.0 -3.24513117190416 -14.4992591765691
66870000.0 -3.18423282972573 -15.4065325943904
67868000.0 -3.13788269215468 -16.2569661171637
68866000.0 -3.10062017772566 -17.0847817940442
69864000.0 -3.0387589055758 -17.8536665194693
70862000.0 -3.01932069623282 -18.745675757761
71860000.0 -2.99382730202426 -19.6264659919723
72858000.0 -2.9731006597233 -20.5890985592415
73856000.0 -2.96021950518779 -21.5501828799191
74854000.0 -2.94678229828969 -22.4330887996836
75852000.0 -2.95480328704827 -23.278296684795
76850000.0 -2.95045349482953 -24.0825948717875
77848000.0 -2.98309227343177 -24.9892017943718
78846000.0 -2.97820518110073 -25.6810987044461
79844000.0 -3.00743452271797 -26.2348577068915
80842000.0 -3.02645689020528 -27.0127369105505
81840000.0 -3.03268610632784 -27.815611942781
82838000.0 -3.04679727295358 -28.3036143474271
83836000.0 -3.08649516506918 -29.0006157868034
84834000.0 -3.11090360690147 -29.3548722345057
85832000.0 -3.14135543821935 -29.8605109205262
86830000.0 -3.12629330644146 -30.2248725426173
87828000.0 -3.12581165357738 -30.9234693466742
88826000.0 -3.16378475283996 -31.0619407066906
89824000.0 -3.16015578673364 -31.4966674268948
90822000.0 -3.20810148274437 -32.1248120083935
91820000.0 -3.18789231657171 -32.2999440245983
92818000.0 -3.17509944326723 -32.7110648918921
93816000.0 -3.17135848641259 -33.1234217185254
94814000.0 -3.18211314281617 -33.329411158828
95812000.0 -3.15570542145073 -33.6593285864979
96810000.0 -3.13427151102368 -33.9926307847752
97808000.0 -3.12569689199123 -34.336872211812
98806000.0 -3.10666817496078 -34.6108105840538
99804000.0 -3.06610419321855 -35.2841832840221
100802000.0 -3.03157885734858 -35.608998327478
101800000.0 -2.98679481177624 -36.0053104207293
102798000.0 -2.96611045957418 -36.4510577155381
103796000.0 -2.94220342131858 -36.8012921182353
104794000.0 -2.8997547364518 -37.4846452738145
105792000.0 -2.87694831123567 -37.8199857598709
106790000.0 -2.84263901577504 -38.4546363038731
107788000.0 -2.82303974468717 -39.0192399189826
108786000.0 -2.76606509309665 -39.452052718973
109784000.0 -2.76459352455587 -40.0815951704263
110782000.0 -2.73555405989476 -40.6987596653145
111780000.0 -2.72921708984626 -41.4289846866342
112778000.0 -2.68917397510543 -41.9890790009003
113776000.0 -2.67093360134092 -42.5281024376487
114774000.0 -2.65287966877987 -43.3995016557524
115772000.0 -2.6285008262999 -43.8006121679266
116770000.0 -2.63174057553118 -44.5344613095354
117768000.0 -2.61299324294153 -45.113791527235
118766000.0 -2.62607503754953 -45.8263614564837
119764000.0 -2.60570729667183 -46.4311717868266
120762000.0 -2.57413802518355 -47.1915107531764
121760000.0 -2.60267526130682 -47.89176720393
122758000.0 -2.57615227276289 -48.6172382452126
123756000.0 -2.62117592411245 -49.1208885879571
124754000.0 -2.60497126060761 -49.7694371437418
125752000.0 -2.60355195682603 -50.3525369611373
126750000.0 -2.62464600822332 -51.0874613347061
127748000.0 -2.62791248437275 -51.7779317289875
128746000.0 -2.6564862296969 -52.3919550476737
129744000.0 -2.66877477767162 -53.0597198880472
130742000.0 -2.69838361109801 -53.8450252200319
131740000.0 -2.71530083146885 -54.3677224516674
132738000.0 -2.72160486068801 -54.9297394696264
133736000.0 -2.75598507531745 -55.4399376394903
134734000.0 -2.78009445103512 -56.0045572014457
135732000.0 -2.76840708706932 -56.5435817554374
136730000.0 -2.81640401281986 -57.1939909348747
137728000.0 -2.82459432206045 -57.8404055670337
138726000.0 -2.86047352647161 -58.3242600722416
139724000.0 -2.86871775940915 -58.7923298072548
140722000.0 -2.91045085679791 -59.2780142794269
141720000.0 -2.9222001122922 -59.8512693906741
142718000.0 -2.96295893889698 -60.3075729365797
143716000.0 -2.98703855856028 -60.9274047947011
144714000.0 -3.01614156025494 -61.524585402508
145712000.0 -3.05250470935454 -61.7429962791446
146710000.0 -3.06411147745817 -62.373481653435
147708000.0 -3.11615990119536 -62.8452331591464
148706000.0 -3.13827141436448 -63.3502163930011
149704000.0 -3.16479532014858 -63.7805538779605
150702000.0 -3.20196197509764 -64.2867176397933
151700000.0 -3.23298826213007 -64.6321424435044
152698000.0 -3.26935619511141 -65.116866340488
153696000.0 -3.29434343890441 -65.6069238669668
154694000.0 -3.32084263883865 -66.0400216436968
155692000.0 -3.33610010692479 -66.4378758064564
156690000.0 -3.39640655464278 -66.7737683619237
157688000.0 -3.43667083340685 -67.1374675827721
158686000.0 -3.47732341847915 -67.513771037723
159684000.0 -3.50333750674424 -67.9518669745812
160682000.0 -3.54989228179379 -68.2140419596423
161680000.0 -3.56811849977666 -68.6067278744435
162678000.0 -3.6199971152587 -68.9815128442683
163676000.0 -3.65481046603235 -69.2567872209832
164674000.0 -3.69301796982892 -69.4783776201333
165672000.0 -3.748482304962 -69.6472366088891
166670000.0 -3.78238224547635 -69.7722574698639
167668000.0 -3.80815715181701 -70.1886138034132
168666000.0 -3.83094369474036 -70.3114504606108
169664000.0 -3.84972996222947 -70.5340448583866
170662000.0 -3.86846248362107 -70.7400288077399
171660000.0 -3.90993509236089 -70.9533973967127
172658000.0 -3.92948603233509 -71.3545182385234
173656000.0 -3.95574695201254 -71.2015490370353
174654000.0 -3.97854668416264 -71.6200256716075
175652000.0 -4.02269188644812 -71.7778621122837
176650000.0 -4.0436317324839 -72.0048371957725
177648000.0 -4.07069556288398 -72.0380955328461
178646000.0 -4.07049248756018 -72.2185482059712
179644000.0 -4.08448201866628 -72.1815597238386
180642000.0 -4.09163612529642 -72.608969426942
181640000.0 -4.07556780177636 -72.615086233651
182638000.0 -4.10548043480102 -72.726884969026
183636000.0 -4.1245610541256 -72.9897527262442
184634000.0 -4.13944019292321 -73.0491693064322
185632000.0 -4.12693937700839 -73.2819672904076
186630000.0 -4.12942284765774 -73.4186387085902
187628000.0 -4.14572637623527 -73.6373520248153
188626000.0 -4.14100576737655 -73.6837528935792
189624000.0 -4.1724402388968 -73.7246234578307
190622000.0 -4.17142224315771 -73.8679730060176
191620000.0 -4.16586670144332 -74.0755319604138
192618000.0 -4.15661540720116 -74.3312667363901
193616000.0 -4.14634961840164 -74.3845062398721
194614000.0 -4.11315282336428 -74.5302107560089
195612000.0 -4.14901107462657 -74.5969850027482
196610000.0 -4.13117760907947 -74.6813945580006
197608000.0 -4.14345810936256 -75.0031011622732
198606000.0 -4.14207378006555 -75.080767045812
199604000.0 -4.12472518769189 -75.5028731554661
200602000.0 -4.14366988448333 -75.4977560693671
201600000.0 -4.12483632554131 -75.5328680233263
202598000.0 -4.10098538655566 -75.8123953605499
203596000.0 -4.10475431543701 -75.932523742779
204594000.0 -4.0891925177044 -76.2658519250169
205592000.0 -4.10224674915405 -76.4007047788643
206590000.0 -4.07020679129401 -76.3664591738837
207588000.0 -4.03836653611094 -76.8196572362355
208586000.0 -4.06052682931281 -76.9779068431061
209584000.0 -4.04669337373514 -77.3309812224771
210582000.0 -4.01634922730383 -77.1771910012358
211580000.0 -4.02894960646216 -77.737234349265
212578000.0 -4.01418837240548 -77.9469736348037
213576000.0 -4.00136313411083 -78.1846623989702
214574000.0 -3.99775504001094 -78.1501003019455
215572000.0 -3.98973081351914 -78.4782876289283
216570000.0 -3.97862037966895 -78.5602827284916
217568000.0 -3.95587668252305 -78.9623155601639
218566000.0 -3.96767740994808 -78.9812942868269
219564000.0 -3.95255130938934 -79.3972641747244
220562000.0 -3.92274559153945 -79.5933335954303
221560000.0 -3.92804129741262 -79.8078439573427
222558000.0 -3.91260427752451 -80.00211410987
223556000.0 -3.88959258212098 -80.4285253798514
224554000.0 -3.87455708163026 -80.5536686699061
225552000.0 -3.87742823591628 -80.852887323793
226550000.0 -3.87778842050161 -81.322389731832
227548000.0 -3.85536570003856 -81.4000642879914
228546000.0 -3.8704911641705 -81.5314823965125
229544000.0 -3.82688825484531 -81.9022364454682
230542000.0 -3.85233063738187 -82.172510601183
231540000.0 -3.84244765012053 -82.1827356199988
232538000.0 -3.84682130514153 -82.4822514532508
233536000.0 -3.79870706486498 -82.7911541234505
234534000.0 -3.78042181620266 -83.2141900887695
235532000.0 -3.79121211995764 -83.3433775528317
236530000.0 -3.76358990115417 -83.5792699372454
237528000.0 -3.76431259455895 -84.0249625020018
238526000.0 -3.74665645219518 -84.1886231379709
239524000.0 -3.73380592815241 -84.6050149620204
240522000.0 -3.72447759267679 -84.7940773098855
241520000.0 -3.70251637845821 -85.198473826106
242518000.0 -3.72584966986079 -85.4989990791922
243516000.0 -3.72544949099507 -85.7273847209713
244514000.0 -3.71567658038569 -85.9276613639959
245512000.0 -3.72942102533945 -86.1367157358391
246510000.0 -3.70784516058892 -86.6232952076048
247508000.0 -3.69507234962664 -86.9770214647238
248506000.0 -3.66795700260016 -87.0735737692628
249504000.0 -3.67748974473937 -87.4380037389434
250502000.0 -3.66816262839089 -87.7499962387203
251500000.0 -3.66632706551954 -88.032757467659
252498000.0 -3.64913674557431 -88.300596542302
253496000.0 -3.65409594843376 -88.5867650603757
254494000.0 -3.6774866628644 -88.9077665164492
255492000.0 -3.62998412340885 -89.2167989041614
256490000.0 -3.66640901725798 -89.3378796478867
257488000.0 -3.62360039557078 -89.6752070609938
258486000.0 -3.65142430196948 -89.7997982660304
259484000.0 -3.63015674476938 -90.3521815596177
260482000.0 -3.6396998282883 -90.5461868374929
261480000.0 -3.6552629969305 -90.888607757053
262478000.0 -3.61956718840922 -91.2356694012484
263476000.0 -3.61334973048955 -91.358746154665
264474000.0 -3.62329083175654 -91.4965432083828
265472000.0 -3.62832841212013 -91.8976729632833
266470000.0 -3.60643245706154 -92.2316152814727
267468000.0 -3.62912896496297 -92.5208623398063
268466000.0 -3.59519201361363 -92.8419810435385
269464000.0 -3.56360310978816 -93.0112927812945
270462000.0 -3.58855189477303 -93.3650382043463
271460000.0 -3.60242752506097 -93.5295972099649
272458000.0 -3.58578252874105 -93.9253811732405
273456000.0 -3.58551290205783 -94.0469649545344
274454000.0 -3.58334150998796 -94.4310893651144
275452000.0 -3.57665331510742 -94.6007008043454
276450000.0 -3.58415127398083 -94.8600383023659
277448000.0 -3.57505928569593 -95.2777196382613
278446000.0 -3.58403353456438 -95.5005474516037
279444000.0 -3.58944840269456 -95.7622320303821
280442000.0 -3.56617861011388 -96.185379023058
281440000.0 -3.57369659485692 -96.3039013477819
282438000.0 -3.5537839380939 -96.7620797274621
283436000.0 -3.57410819501047 -96.6982624940303
284434000.0 -3.57831807355426 -97.1454377230988
285432000.0 -3.57326100725863 -97.6898195156638
286430000.0 -3.61106016927028 -97.804593122286
287428000.0 -3.6203733779978 -98.1330170294264
288426000.0 -3.60322002669769 -98.196332246427
289424000.0 -3.61123112488653 -98.3745727390806
290422000.0 -3.64188512328922 -98.7677749140355
291420000.0 -3.65617832968639 -99.0614793395334
292418000.0 -3.64440109053571 -99.1529628516701
293416000.0 -3.65073368778538 -99.2660898999493
294414000.0 -3.67042998756844 -99.548353294487
295412000.0 -3.64943262490002 -99.6767733233163
296410000.0 -3.68243435185957 -99.9485243572677
297408000.0 -3.66865210136473 -100.125497820234
298406000.0 -3.70916993148025 -100.251200510421
299404000.0 -3.69630217150954 -100.465535488658
300402000.0 -3.69200930926705 -100.658055456139
301400000.0 -3.68022189004028 -101.00871742702
302398000.0 -3.69820669015811 -101.084203740584
303396000.0 -3.71145017774797 -101.158676155058
304394000.0 -3.75016876969698 -101.436507445788
305392000.0 -3.74886268317512 -101.4963628333
306390000.0 -3.70375702001381 -101.402407614354
307388000.0 -3.73184736408195 -101.532689658374
308386000.0 -3.735219521357 -101.877292763848
309384000.0 -3.72904385165489 -101.972156508928
310382000.0 -3.73063639430201 -102.172861721067
311380000.0 -3.74756547188647 -102.435531503775
312378000.0 -3.71741447756865 -102.222080447776
313376000.0 -3.71492987061418 -102.592988796207
314374000.0 -3.73320309212319 -102.736386670532
315372000.0 -3.72573680874009 -102.835679020102
316370000.0 -3.73375009855764 -103.052495484851
317368000.0 -3.72386966939536 -103.140132774517
318366000.0 -3.72595229545976 -103.34405384377
319364000.0 -3.71692227484227 -103.426655768942
320362000.0 -3.69448086948126 -103.512661601268
321360000.0 -3.70745654150326 -103.714276733553
322358000.0 -3.7081071940447 -103.745539435389
323356000.0 -3.70981212296225 -103.947498903925
324354000.0 -3.70082485296782 -104.065656934095
325352000.0 -3.67114395805554 -104.270020169746
326350000.0 -3.64953201793683 -104.381415623576
327348000.0 -3.65071293131658 -104.61654388719
328346000.0 -3.66673991363581 -104.688215742813
329344000.0 -3.62257652370238 -104.993172740082
330342000.0 -3.62980313860874 -105.098774531367
331340000.0 -3.64145118261919 -105.346758455718
332338000.0 -3.63460115737452 -105.418690987327
333336000.0 -3.62695625439977 -105.398135464125
334334000.0 -3.60569237029817 -105.751900232133
335332000.0 -3.61126636061382 -105.913952481833
336330000.0 -3.60723426718841 -106.223249433146
337328000.0 -3.60404299471319 -106.273784626515
338326000.0 -3.59724911703256 -106.372164480349
339324000.0 -3.59732925342004 -106.556383009824
340322000.0 -3.56491485404666 -106.628581267568
341320000.0 -3.558217422742 -106.894956943365
342318000.0 -3.54940923036241 -107.14182317742
343316000.0 -3.53395784185262 -107.379233920962
344314000.0 -3.51091435280737 -107.468580518638
345312000.0 -3.52855587076972 -107.644659163621
346310000.0 -3.50453429162838 -107.67262043178
347308000.0 -3.50174398701626 -107.98376482406
348306000.0 -3.48020720333731 -108.19051502136
349304000.0 -3.46596477912623 -108.286699931967
350302000.0 -3.45990500508112 -108.508271976481
351300000.0 -3.44059538101026 -108.70404781604
352298000.0 -3.43525226554951 -109.039041049828
353296000.0 -3.4520997709662 -109.236356001858
354294000.0 -3.4354678498505 -109.358221127601
355292000.0 -3.41165184316197 -109.736553789028
356290000.0 -3.42039274924497 -109.734577115179
357288000.0 -3.38996483339502 -109.971089144968
358286000.0 -3.39612253850398 -110.046938181597
359284000.0 -3.35437535343235 -110.286834636518
360282000.0 -3.33181399135614 -110.326404002724
361280000.0 -3.32768537264554 -110.784063724485
362278000.0 -3.33620122785533 -110.744697247268
363276000.0 -3.31075908324241 -111.15586681052
364274000.0 -3.31709642302094 -111.57237431788
365272000.0 -3.31405442779178 -111.594089425848
366270000.0 -3.29513331511116 -111.817317327125
367268000.0 -3.29113615571233 -112.113676355076
368266000.0 -3.30471381338616 -112.200409534193
369264000.0 -3.27921516310671 -112.563782242708
370262000.0 -3.27813178626358 -112.520429272737
371260000.0 -3.26125717774678 -112.788200504996
372258000.0 -3.25002239051332 -112.937374948267
373256000.0 -3.23158958964185 -113.022462145627
374254000.0 -3.20429598056486 -113.24475503578
375252000.0 -3.19275349909286 -113.736518980057
376250000.0 -3.15506647198151 -113.883505265259
377248000.0 -3.16958776142694 -114.136767144767
378246000.0 -3.13529675342485 -114.258886448401
379244000.0 -3.12126745356644 -114.68380812084
380242000.0 -3.12722889870056 -114.83929792973
381240000.0 -3.12612263043081 -115.130810496771
382238000.0 -3.13407257815028 -115.317025196452
383236000.0 -3.13125699100369 -115.482406414132
384234000.0 -3.12814576639772 -115.482936558709
385232000.0 -3.09908084637185 -115.760579888356
386230000.0 -3.1040185678733 -115.949111923053
387228000.0 -3.07216746582238 -116.09438663009
388226000.0 -3.05402205501539 -116.492954681326
389224000.0 -3.05532043318068 -116.672932105053
390222000.0 -3.02101009410856 -116.839710623451
391220000.0 -3.0301321196672 -117.27159515687
392218000.0 -3.031432029642 -117.622588268821
393216000.0 -3.03406105445848 -117.802832464976
394214000.0 -2.99702836539351 -117.899918545322
395212000.0 -3.01698997261678 -118.191969678616
396210000.0 -3.00450738951507 -118.306069522647
397208000.0 -3.00929224585249 -118.441380018076
398206000.0 -3.00928018987292 -118.729932550305
399204000.0 -2.98842171458186 -118.841898804633
400202000.0 -2.98998628007815 -119.123058319873
401200000.0 -2.96979809349528 -119.451562221586
402198000.0 -2.95472488307347 -119.573969884992
403196000.0 -2.95159603431566 -119.702144151515
404194000.0 -2.92158409012075 -120.004578197327
405192000.0 -2.90358366389504 -120.275287771211
406190000.0 -2.91540085356208 -120.554466601017
407188000.0 -2.92895417148594 -120.777939933562
408186000.0 -2.9026757228652 -120.895406490495
409184000.0 -2.90761576790035 -121.178445416264
410182000.0 -2.94108546238338 -121.346365639049
411180000.0 -2.92157941854118 -121.672963928239
412178000.0 -2.90284717707312 -121.744511928573
413176000.0 -2.89550318874674 -122.094453459276
414174000.0 -2.91210456643973 -122.14366138508
