!Keysight Technologies N9923A: A.08.19
!Date: Thursday, 16 January 2020 11:30:00
!TimeZone: (GMT-03:00) Brasilia!Model: N9923A
!Serial: MY51491501
!GPS Latitude: 
!GPS Longitude: 
!GPS TimeStamp: 0001-01-01 00:00:00Z
!GPS Seconds Since Last Read: 0
!CHECKSUM:1078980270
!Correction: S11(ON U)
!S1P File: Measurement: S11:
# Hz S DB R 50
2000000.0 -4.55064069028913 -35.8698317160597
2998000.0 -9.39116079923535 -41.5258091844772
3996000.0 -14.4691342448136 3.92443575315586
4994000.0 -8.93428509962439 32.7902110569556
5992000.0 -5.62588867294171 27.8975394053791
6990000.0 -4.08764970716949 19.4706445456755
7988000.0 -3.43240516723221 11.1355379994935
8986000.0 -3.23683067608422 4.17659357625198
9984000.0 -3.35623887268851 -1.50312692815753
10982000.0 -3.67883948512324 -5.44426163909512
11980000.0 -4.09669007462117 -7.88415502961314
12978000.0 -4.49196894780436 -8.60615004289507
13976000.0 -4.74520547602985 -8.0020951051891
14974000.0 -4.766360561595 -7.03232794876847
15972000.0 -4.54994902170607 -6.78755896181417
16970000.0 -4.31206299727045 -7.5078898606668
17968000.0 -4.05476411132689 -9.31092491123452
18966000.0 -3.91108271180661 -12.2123044960823
19964000.0 -3.86091850864417 -15.4318799205065
20962000.0 -3.93604261099405 -18.608050000434
21960000.0 -4.14730097559438 -21.6724581012122
22958000.0 -4.43519778320428 -24.5223190547805
23956000.0 -4.80624199663236 -27.1811013681325
24954000.0 -5.27180001890652 -29.2395229794032
25952000.0 -5.78118087649869 -30.9067008694826
26950000.0 -6.30741999184156 -31.6727837924588
27948000.0 -6.85321801288651 -32.0051398642794
28946000.0 -7.40460399743948 -31.8802494043622
29944000.0 -7.95060585921603 -31.1299962876256
30942000.0 -8.46484534154751 -29.507599637905
31940000.0 -8.93198013836835 -27.9867560569416
32938000.0 -9.43659552271077 -25.7079755176242
33936000.0 -9.87848508006713 -22.5386561388902
34934000.0 -10.2456709555033 -18.7882655414549
35932000.0 -10.4684253245759 -13.9418946797077
36930000.0 -10.5114866665567 -9.1445478221866
37928000.0 -10.3531237644908 -4.15335649182512
38926000.0 -9.99871469235136 -0.0639764180435178
39924000.0 -9.52266148439782 3.66485211929226
40922000.0 -9.04413222289245 5.85347702298117
41920000.0 -8.53792509297885 7.48902262461281
42918000.0 -8.00968290503395 8.40381074529606
43916000.0 -7.54579198067838 8.59775723799781
44914000.0 -7.12133350661328 8.35796339781323
45912000.0 -6.72246391504629 8.03321572550968
46910000.0 -6.36264447550856 7.37376153228412
47908000.0 -6.07393016997587 6.28977539693686
48906000.0 -5.8023885168712 5.5262117563159
49904000.0 -5.56711757012768 4.42649439081867
50902000.0 -5.35414183449952 3.38705534870044
51900000.0 -5.14970012421708 2.2219890917366
52898000.0 -4.97734594291344 1.11855081197962
53896000.0 -4.86638186135806 -0.048687756388555
54894000.0 -4.73627713709291 -1.1788931763306
55892000.0 -4.6412746744604 -2.23179018923955
56890000.0 -4.54829370503148 -3.25319073913464
57888000.0 -4.44191801818892 -4.30839289832504
58886000.0 -4.37025262232323 -5.22533570847196
59884000.0 -4.32300964771146 -6.04719071890215
60882000.0 -4.25291619483637 -6.96309117504992
61880000.0 -4.21840866894541 -7.8337849741626
62878000.0 -4.15136637249158 -8.67599841206311
63876000.0 -4.10220942890234 -9.51389321993124
64874000.0 -4.05904388924036 -10.3507337517078
65872000.0 -3.99483077688014 -10.9353285588899
66870000.0 -3.98681471490421 -11.7753450529907
67868000.0 -3.90907672628884 -12.5078663160485
68866000.0 -3.87948615481892 -13.2036278156132
69864000.0 -3.85720604254034 -13.8856507778722
70862000.0 -3.82447651682501 -14.6455486387286
71860000.0 -3.77795794800012 -15.2850810402946
72858000.0 -3.73727404748053 -15.9081098683654
73856000.0 -3.71101520720485 -16.5976611901051
74854000.0 -3.67153749210936 -17.2791332871635
75852000.0 -3.64029128209308 -17.8950653740998
76850000.0 -3.60089237731433 -18.5538456255962
77848000.0 -3.5849878185491 -19.3751054420683
78846000.0 -3.54591445119843 -19.8220382582031
79844000.0 -3.51567768329159 -20.5699525602956
80842000.0 -3.47548766580481 -21.2182181044061
81840000.0 -3.44690652024697 -21.9562885695403
82838000.0 -3.43486603616206 -22.5970300799012
83836000.0 -3.40219807972489 -23.1569722467956
84834000.0 -3.40652229430469 -23.7332736728141
85832000.0 -3.35988878408743 -24.5495622329176
86830000.0 -3.34048488310725 -25.2024619450143
87828000.0 -3.31347275567908 -25.8484170668838
88826000.0 -3.33169362394453 -26.4475939156244
89824000.0 -3.27969823956025 -27.0726733969524
90822000.0 -3.27273128159101 -27.8018378510156
91820000.0 -3.28068687420115 -28.4286619611179
92818000.0 -3.27267168095774 -29.1876588645523
93816000.0 -3.27602816667019 -29.716370106107
94814000.0 -3.25961404622758 -30.2382314619907
95812000.0 -3.25807490561094 -30.8136074084803
96810000.0 -3.26599682790057 -31.5288034675141
97808000.0 -3.26049379167816 -31.9991410394725
98806000.0 -3.27202088941399 -32.5858985944759
99804000.0 -3.26649067070466 -33.4364598516919
100802000.0 -3.25598771186908 -33.7445534402243
101800000.0 -3.24983479358436 -34.2982332450232
102798000.0 -3.27716920048491 -34.7345330492703
103796000.0 -3.27246197787399 -35.2859026161037
104794000.0 -3.25349299670545 -35.8636657061539
105792000.0 -3.28179361511247 -36.1542973256925
106790000.0 -3.27193095781619 -36.6300655899225
107788000.0 -3.2909725432563 -37.1807054115371
108786000.0 -3.24697103326021 -37.5630576786069
109784000.0 -3.27484948681693 -38.0474016150577
110782000.0 -3.28447276894113 -38.4882940120858
111780000.0 -3.28859982500075 -38.9496156598089
112778000.0 -3.25115582077289 -39.3482262741564
113776000.0 -3.23150307812068 -39.6827159539402
114774000.0 -3.24441239154479 -40.2443138914763
115772000.0 -3.22998579065958 -40.5220067422971
116770000.0 -3.22908439535904 -40.9518511621603
117768000.0 -3.22231916553922 -41.2337476998793
118766000.0 -3.20919186981472 -41.8443465578644
119764000.0 -3.17779466433299 -42.0671106504726
120762000.0 -3.16394388145483 -42.5486750068121
121760000.0 -3.15385915434032 -43.1115280968111
122758000.0 -3.10524890343136 -43.6362737696411
123756000.0 -3.11439750818798 -43.757365563386
124754000.0 -3.08484159878556 -44.4009298714829
125752000.0 -3.04212046290505 -44.6715109354996
126750000.0 -3.02891169458495 -45.3591694905454
127748000.0 -3.01220955310018 -45.6883554540171
128746000.0 -2.98128114266919 -46.3648187430642
129744000.0 -2.96361575639054 -46.9368391401846
130742000.0 -2.93993377142295 -47.497678114524
131740000.0 -2.93499111961087 -48.0315588756317
132738000.0 -2.89583718793424 -48.5478039119685
133736000.0 -2.87497510960636 -49.1532100304251
134734000.0 -2.86288029281083 -49.7280927336918
135732000.0 -2.85158650688194 -50.3366328553017
136730000.0 -2.82938879733172 -50.9632098189957
137728000.0 -2.82335659729467 -51.7152124130211
138726000.0 -2.84312505714653 -52.1066905408045
139724000.0 -2.80812506011647 -52.759209362521
140722000.0 -2.81677694027215 -53.2835325318055
141720000.0 -2.82197323047629 -54.126861929455
142718000.0 -2.8220014458432 -54.5688441301135
143716000.0 -2.82339521105819 -55.3179819148942
144714000.0 -2.84231102099608 -56.0132210128663
145712000.0 -2.84328355998875 -56.4326628567906
146710000.0 -2.85604802035615 -57.1741711991256
147708000.0 -2.88631576959271 -57.6409221868551
148706000.0 -2.90715396937043 -58.2844119177311
149704000.0 -2.92238167085943 -58.9616637180802
150702000.0 -2.93346479463883 -59.4344739774537
151700000.0 -2.95240595022915 -59.9341647506098
152698000.0 -2.99959296175936 -60.4223853676646
153696000.0 -3.02246746095412 -61.0879587089439
154694000.0 -3.03252464833125 -61.4438332400422
155692000.0 -3.0652510344153 -61.9530616405332
156690000.0 -3.07536282079497 -62.354497672313
157688000.0 -3.11598609433004 -62.8952746043816
158686000.0 -3.15361968552464 -63.2571967809779
159684000.0 -3.16506635751679 -63.6168710094738
160682000.0 -3.20161062250658 -64.0852326836329
161680000.0 -3.23405575772576 -64.4734546336404
162678000.0 -3.24944248381276 -64.9879126896249
163676000.0 -3.27472463725531 -65.2925744934731
164674000.0 -3.30074856427662 -65.4423132444525
165672000.0 -3.34417177535224 -65.8021400241645
166670000.0 -3.36040617990535 -66.0774994994783
167668000.0 -3.39724280353973 -66.6047252349294
168666000.0 -3.3824205854806 -66.8205245510559
169664000.0 -3.43381227408948 -67.050279277475
170662000.0 -3.4209885424305 -67.4851296391936
171660000.0 -3.45696096246067 -67.7636300303883
172658000.0 -3.45572491972483 -68.143428233983
173656000.0 -3.50364895872543 -68.2759835651271
174654000.0 -3.50522336081856 -68.758003351929
175652000.0 -3.53470775211035 -69.0279639453863
176650000.0 -3.52999463149376 -69.2177055270568
177648000.0 -3.56938237570618 -69.3506315806423
178646000.0 -3.5760436182508 -69.6099519003232
179644000.0 -3.59039344028032 -69.8882115618902
180642000.0 -3.61642257978828 -70.2395745678562
181640000.0 -3.58736817210542 -70.3591450979094
182638000.0 -3.59529093447979 -70.7404761488979
183636000.0 -3.62288468368389 -70.9579148739497
184634000.0 -3.63708843769224 -71.1431822552609
185632000.0 -3.64451953287477 -71.485817613399
186630000.0 -3.65579889274524 -71.8078879080332
187628000.0 -3.65329625236216 -71.8585758639625
188626000.0 -3.62332523404259 -72.2252929255814
189624000.0 -3.64955899487169 -72.2891364342179
190622000.0 -3.66280640804153 -72.5624978261305
191620000.0 -3.66075880965825 -72.8877416215781
192618000.0 -3.66480824915496 -73.0437107643189
193616000.0 -3.67317045121523 -73.3581171011195
194614000.0 -3.65288991791785 -73.4821015163267
195612000.0 -3.6722151799227 -73.6055161350845
196610000.0 -3.67411676411986 -73.8700467358416
197608000.0 -3.62878866461971 -74.1515670507847
198606000.0 -3.62636316702441 -74.43384252758
199604000.0 -3.64177613726469 -74.5779012533967
200602000.0 -3.6394777770852 -75.0168514296289
201600000.0 -3.61861706042263 -75.0706638589248
202598000.0 -3.61803224383982 -75.4949850680543
203596000.0 -3.6174712877065 -75.5931599458883
204594000.0 -3.59336264689169 -76.0910496187623
205592000.0 -3.58273015338474 -76.1507636334993
206590000.0 -3.56826409925707 -76.4805702338985
207588000.0 -3.58150916082454 -76.6932861699374
208586000.0 -3.57253264092626 -76.8827107574164
209584000.0 -3.56744095997672 -77.5245132803491
210582000.0 -3.53974287315745 -77.4540134696336
211580000.0 -3.55247241480368 -78.0230617607489
212578000.0 -3.51540240421404 -78.3309044297852
213576000.0 -3.54409498483682 -78.4624484778894
214574000.0 -3.51122731156682 -78.6958204298123
215572000.0 -3.5173680241358 -78.9508918344453
216570000.0 -3.48712611297192 -79.2412902078474
217568000.0 -3.47428224244375 -79.600057587794
218566000.0 -3.50703689285706 -79.88552658337
219564000.0 -3.49473013463788 -80.3321477151739
220562000.0 -3.45562470398328 -80.4388284531792
221560000.0 -3.47083592653814 -80.7628238234316
222558000.0 -3.46231756258614 -81.1589914263055
223556000.0 -3.45584162852922 -81.53417839408
224554000.0 -3.44281245226677 -81.7400751224118
225552000.0 -3.44504577595322 -82.0490582315412
226550000.0 -3.43715901128376 -82.476126859526
227548000.0 -3.42662944366958 -82.7641485252847
228546000.0 -3.45251634945691 -82.920555535423
229544000.0 -3.4076929279678 -83.4731733806309
230542000.0 -3.4244688128503 -83.6782115094057
231540000.0 -3.43469908115926 -83.8732999764079
232538000.0 -3.42780395369909 -84.2446151753886
233536000.0 -3.41883595048591 -84.4862433307326
234534000.0 -3.4030860236234 -84.9110553622284
235532000.0 -3.42440044620174 -85.2210173052952
236530000.0 -3.42409897946628 -85.3981403571401
237528000.0 -3.41659673459354 -85.8581387475319
238526000.0 -3.40437412302755 -86.0130351167454
239524000.0 -3.40881388743055 -86.4342097970456
240522000.0 -3.40456294986714 -86.7283369134392
241520000.0 -3.38548611805196 -87.0043931426992
242518000.0 -3.41709423648068 -87.3036126712346
243516000.0 -3.42938259845766 -87.653125131455
244514000.0 -3.42364326180726 -87.9025070876223
245512000.0 -3.40670160459817 -88.2193956648453
246510000.0 -3.41904242492559 -88.6736739904102
247508000.0 -3.40656015111843 -88.8363482859689
248506000.0 -3.39250218356825 -89.1477766133955
249504000.0 -3.39932723479513 -89.4621441170448
250502000.0 -3.42586156780974 -89.662708092576
251500000.0 -3.40541319953754 -90.0353346782588
252498000.0 -3.41277580798328 -90.3435972383672
253496000.0 -3.42337153745608 -90.6905566660623
254494000.0 -3.42494267971397 -91.0366149057335
255492000.0 -3.39254762497858 -91.3072644844039
256490000.0 -3.44521826697114 -91.5860963813854
257488000.0 -3.40522563150141 -91.8480059423218
258486000.0 -3.42744885587152 -92.1972355424856
259484000.0 -3.41495676683346 -92.5513767267698
260482000.0 -3.43063122280551 -92.7412163036569
261480000.0 -3.45335247707682 -93.1537308472846
262478000.0 -3.41601369068254 -93.5993714490563
263476000.0 -3.43990179544649 -93.6666917566444
264474000.0 -3.44771105036003 -93.7666316386078
265472000.0 -3.44239486538194 -94.2900858275563
266470000.0 -3.4376380992078 -94.6848438623102
267468000.0 -3.4532715422863 -94.9683110372014
268466000.0 -3.47270615137978 -95.3834474027646
269464000.0 -3.44994248089905 -95.3493672294166
270462000.0 -3.46469613660206 -95.9432296445086
271460000.0 -3.4812025194032 -96.0785396356846
272458000.0 -3.46452260487558 -96.3963200598434
273456000.0 -3.49317716939043 -96.7106248168046
274454000.0 -3.49438529883695 -96.980510170904
275452000.0 -3.48316393139612 -97.2828893543354
276450000.0 -3.48491735066216 -97.4926187397355
277448000.0 -3.50892161394588 -97.9864544158662
278446000.0 -3.52926389994681 -98.1124407344885
279444000.0 -3.55348919397608 -98.4400824249919
280442000.0 -3.50349554162726 -98.89928618656
281440000.0 -3.56984613630067 -99.1000110355727
282438000.0 -3.57398090240358 -99.2825873612063
283436000.0 -3.58213579617774 -99.3794764788861
284434000.0 -3.59745464458201 -99.7601194603591
285432000.0 -3.59962519273242 -100.187460976414
286430000.0 -3.64931452291259 -100.657378024233
287428000.0 -3.64912077899434 -100.717088306286
288426000.0 -3.63969441557299 -100.84599904581
289424000.0 -3.65737335329903 -101.156251120773
290422000.0 -3.67966388665934 -101.477626973026
291420000.0 -3.70548244247517 -101.598058232319
292418000.0 -3.70173944755958 -101.87781527524
293416000.0 -3.73298433573738 -102.107171623192
294414000.0 -3.73955310721267 -102.246257138691
295412000.0 -3.75635223249652 -102.413301106358
296410000.0 -3.79238758310454 -102.636375649069
297408000.0 -3.78483854539326 -102.787247336728
298406000.0 -3.81145129800224 -103.14384559402
299404000.0 -3.83533110635445 -103.174670528403
300402000.0 -3.85057799992803 -103.369718389095
301400000.0 -3.83185391071328 -103.657937500784
302398000.0 -3.8570079758373 -103.759467550388
303396000.0 -3.86205227334522 -103.949277537387
304394000.0 -3.90814940307833 -104.103879426675
305392000.0 -3.92404589764988 -104.181719918388
306390000.0 -3.90404156826781 -104.343647259519
307388000.0 -3.92141440027442 -104.37350860032
308386000.0 -3.93009428062855 -104.423754568205
309384000.0 -3.94725495760158 -104.676960815856
310382000.0 -3.93955957217923 -104.826529326059
311380000.0 -3.97582743506656 -105.104390985444
312378000.0 -3.97589913080113 -104.820042736751
313376000.0 -3.97286725353613 -105.27187059463
314374000.0 -3.97877368704627 -105.287290763284
315372000.0 -4.00505953738622 -105.227894061732
316370000.0 -4.0008568401151 -105.441410503103
317368000.0 -4.00993112069297 -105.432834274279
318366000.0 -4.02400356813854 -105.794763325126
319364000.0 -4.00916223495664 -105.723961624288
320362000.0 -4.01399672578428 -105.704493141999
321360000.0 -4.0008298286569 -105.880768827908
322358000.0 -4.00811361929313 -106.020645237018
323356000.0 -4.03706133571048 -106.192997415665
324354000.0 -4.00378538699296 -106.177248415517
325352000.0 -4.01147705563855 -106.380660370464
326350000.0 -4.0011782137986 -106.362385885124
327348000.0 -4.00623213157933 -106.543647021107
328346000.0 -4.01541140226491 -106.468079018384
329344000.0 -4.00326416164955 -106.711464447203
330342000.0 -4.00435308175332 -106.832849072309
331340000.0 -4.01152042494106 -106.998182022586
332338000.0 -3.99653143334455 -106.925173126144
333336000.0 -4.00744784935846 -106.933522580353
334334000.0 -3.98034579746948 -107.264358865547
335332000.0 -4.00022498109587 -107.287815653827
336330000.0 -3.97341941517217 -107.515063888069
337328000.0 -3.97307322152416 -107.559426450607
338326000.0 -3.96856651222187 -107.610837913316
339324000.0 -3.98126796794282 -107.670611875912
340322000.0 -3.96720803236936 -107.810730578178
341320000.0 -3.93201126140761 -107.897208122493
342318000.0 -3.93418841941004 -108.094740741654
343316000.0 -3.92548820112369 -108.162311066721
344314000.0 -3.89755747337214 -108.249214016284
345312000.0 -3.90651368611269 -108.479430022539
346310000.0 -3.89615788064929 -108.551701101258
347308000.0 -3.88560701906736 -108.736496663465
348306000.0 -3.88002094685048 -108.781502804831
349304000.0 -3.87898055288965 -108.682329444798
350302000.0 -3.86120185695889 -109.023373836655
351300000.0 -3.86703361412885 -109.179143340495
352298000.0 -3.84366671941501 -109.249721582984
353296000.0 -3.84454393177446 -109.605429855327
354294000.0 -3.8313147276008 -109.521065747939
355292000.0 -3.80266210844817 -109.781087860176
356290000.0 -3.82166544193936 -109.901188446462
357288000.0 -3.790136676737 -110.04924455746
358286000.0 -3.82056005393428 -110.068411806968
359284000.0 -3.77473485907749 -110.323422095419
360282000.0 -3.75650382496547 -110.17229180253
361280000.0 -3.75891829983282 -110.592581528311
362278000.0 -3.767388246374 -110.637810888612
363276000.0 -3.73402718463028 -110.657439191264
364274000.0 -3.73754134042592 -110.986161524424
365272000.0 -3.70785048613452 -111.203407567012
366270000.0 -3.70934128918756 -111.215984839161
367268000.0 -3.69020950334548 -111.375662990757
368266000.0 -3.70000232026214 -111.520855048175
369264000.0 -3.65153043058003 -111.618950871026
370262000.0 -3.62328346836206 -111.707939663972
371260000.0 -3.63950010439906 -111.964991676762
372258000.0 -3.6345261632159 -112.135464051617
373256000.0 -3.60732923002403 -112.342799815829
374254000.0 -3.62532933588468 -112.27560590471
375252000.0 -3.60648372480509 -112.692344927822
376250000.0 -3.5802780324932 -112.749650316594
377248000.0 -3.55961225560672 -113.006678715939
378246000.0 -3.53991755121004 -112.834662348351
379244000.0 -3.53162155938044 -113.237892325661
380242000.0 -3.51271718677855 -113.316974969215
381240000.0 -3.49375730922431 -113.553824325316
382238000.0 -3.48708065270036 -113.864871317909
383236000.0 -3.4542823668959 -113.788224128544
384234000.0 -3.44357386883003 -114.014224959043
385232000.0 -3.4309251523057 -114.265170599032
386230000.0 -3.42788869258048 -114.402814278495
387228000.0 -3.40655794290501 -114.532010937566
388226000.0 -3.39889266354259 -114.800822838966
389224000.0 -3.37027389548845 -114.91556240447
390222000.0 -3.34767948342487 -115.081476960841
391220000.0 -3.34732120007719 -115.313771781547
392218000.0 -3.33517466099761 -115.621612616961
393216000.0 -3.34997441485742 -115.816176452389
394214000.0 -3.28081625346626 -116.010951754624
395212000.0 -3.29636358064017 -116.197232851125
396210000.0 -3.29937492671266 -116.173288150188
397208000.0 -3.26811266200403 -116.430134795422
398206000.0 -3.23746226687614 -116.628696134431
399204000.0 -3.22851413620684 -116.781762607882
400202000.0 -3.2157161896801 -117.040467065286
401200000.0 -3.20410384757561 -117.325948766105
402198000.0 -3.18276843464037 -117.470135122468
403196000.0 -3.16659605718483 -117.540669416349
404194000.0 -3.13046041246483 -117.93767988643
405192000.0 -3.12910988320377 -118.120914306313
406190000.0 -3.0762935223876 -118.28183974773
407188000.0 -3.10831988688175 -118.585990901033
408186000.0 -3.09325579873534 -118.777969479164
409184000.0 -3.07834343529908 -118.886490234045
410182000.0 -3.09359029673757 -119.195625206492
411180000.0 -3.05248315831435 -119.242969862029
412178000.0 -3.02748636423535 -119.575522047676
413176000.0 -3.00396106520602 -119.825422395168
