!Keysight Technologies N9923A: A.08.19
!Date: Thursday, 16 January 2020 11:30:00
!TimeZone: (GMT-03:00) Brasilia!Model: N9923A
!Serial: MY51491501
!GPS Latitude: 
!GPS Longitude: 
!GPS TimeStamp: 0001-01-01 00:00:00Z
!GPS Seconds Since Last Read: 0
!CHECKSUM:1078980270
!Correction: S11(ON U)
!S1P File: Measurement: S11:
# Hz S DB R 50
2000000.0 -3.57221158289138 -35.1004362367893
2998000.0 -7.26464133217126 -46.1683500116889
3996000.0 -14.0577381004234 -30.7239563874564
4994000.0 -11.9384274428301 27.1240066723026
5992000.0 -7.147408439607 29.4053956534662
6990000.0 -4.9728112019794 20.5829175466141
7988000.0 -3.98876444493818 11.4309389076701
8986000.0 -3.67494462483308 3.380568909494
9984000.0 -3.77523262600847 -3.42745710510512
10982000.0 -4.13018893530566 -8.79226963912687
11980000.0 -4.72234807163137 -12.3752984244116
12978000.0 -5.39167798177169 -13.6185190251296
13976000.0 -6.01181514124874 -12.446340379511
14974000.0 -6.26700846867392 -9.6871614245029
15972000.0 -6.12510871187884 -6.91790809719714
16970000.0 -5.77962674019818 -5.82503510523943
17968000.0 -5.3223565231748 -6.8602948952719
18966000.0 -5.02461480732988 -9.24408993207257
19964000.0 -4.86445223911457 -12.4129249456361
20962000.0 -4.86305859390796 -15.8576689894631
21960000.0 -5.04181716254499 -19.2377595501347
22958000.0 -5.31235726269053 -22.1460729608549
23956000.0 -5.74561841991373 -24.6584233139163
24954000.0 -6.20236041907038 -26.4405102216743
25952000.0 -6.76585502632182 -27.7142564072708
26950000.0 -7.27703977633827 -27.6549430810537
27948000.0 -7.76748007550442 -26.8120457859396
28946000.0 -8.17748491753323 -26.0079256511993
29944000.0 -8.55501288808704 -24.6952425104629
30942000.0 -8.83564335789721 -23.1600177939211
31940000.0 -9.10872851450132 -22.3873368947528
32938000.0 -9.43458179511526 -21.4260032027079
33936000.0 -9.77205878495331 -19.8714634148654
34934000.0 -10.1996117092839 -18.1980589064543
35932000.0 -10.5959770520215 -14.9243897097058
36930000.0 -10.9679083189447 -10.8933026451374
37928000.0 -11.1128579163658 -5.63005634573039
38926000.0 -11.0529607799853 -0.293169508034197
39924000.0 -10.7467055475532 5.05949301134727
40922000.0 -10.2480683475676 9.25863255046685
41920000.0 -9.6475075664911 12.3507617060679
42918000.0 -8.98398786465231 14.2421215382396
43916000.0 -8.3717641375785 14.9925842207309
44914000.0 -7.78698402390073 15.2079121513002
45912000.0 -7.27044180113678 14.8593462534184
46910000.0 -6.79189918093271 14.0043703448826
47908000.0 -6.42711764015755 12.9122142829399
48906000.0 -6.04703374985243 11.8207378785756
49904000.0 -5.74617905551744 10.4481205526693
50902000.0 -5.50507841268226 9.19862369711019
51900000.0 -5.26910065905891 7.71962577539805
52898000.0 -5.05042951238239 6.35600014919626
53896000.0 -4.88052775420614 5.1977089228824
54894000.0 -4.71215459836684 3.72973714301344
55892000.0 -4.58035955759435 2.37946946479869
56890000.0 -4.47032537878922 1.09117363832083
57888000.0 -4.34440106384892 -0.197509260012311
58886000.0 -4.23849924062883 -1.40284475558735
59884000.0 -4.16508982491086 -2.50008999789454
60882000.0 -4.09686511260953 -3.83546165852907
61880000.0 -4.04374860477645 -4.96164129012206
62878000.0 -3.9887259506064 -5.91956507569491
63876000.0 -3.95971890506485 -7.1499205251961
64874000.0 -3.90323176881153 -8.14612325344108
65872000.0 -3.88731845020206 -9.14152828131728
66870000.0 -3.88172432289373 -9.91812725490992
67868000.0 -3.83118244819756 -11.0011459834772
68866000.0 -3.84162918897855 -11.918212332986
69864000.0 -3.80500000807539 -12.6741244159127
70862000.0 -3.81447966200293 -13.5668497550516
71860000.0 -3.82103292760941 -14.2116928323934
72858000.0 -3.80606182308736 -14.9536665704286
73856000.0 -3.79449278405001 -15.6377955685146
74854000.0 -3.81670988092724 -16.3310832708971
75852000.0 -3.79671975307764 -16.6632440575311
76850000.0 -3.7913559050006 -17.3261734303832
77848000.0 -3.78423703374766 -17.9506523141477
78846000.0 -3.76153024020387 -18.445191503723
79844000.0 -3.76392570947093 -18.8666218132109
80842000.0 -3.76025041515169 -19.2830884865285
81840000.0 -3.74212176868625 -19.8678148633938
82838000.0 -3.69207949310576 -20.3486963977355
83836000.0 -3.67674575747732 -20.7413468902217
84834000.0 -3.6623842388772 -21.2361134227328
85832000.0 -3.62596175927975 -21.7489901374518
86830000.0 -3.57954142035161 -22.1589250410816
87828000.0 -3.51559726031088 -22.7010677217961
88826000.0 -3.53286456741724 -23.1115400210935
89824000.0 -3.44405560678805 -23.6518962719568
90822000.0 -3.44407131465333 -24.1527326304596
91820000.0 -3.38479120975262 -24.7275319805988
92818000.0 -3.33829615532103 -25.4241725432606
93816000.0 -3.31465143683565 -25.8218825040648
94814000.0 -3.27717742733548 -26.2820800658339
95812000.0 -3.23753084488795 -26.8711932201871
96810000.0 -3.21135037363379 -27.4558060844543
97808000.0 -3.1804846459623 -28.1008028630767
98806000.0 -3.16807711731259 -28.6555814817312
99804000.0 -3.12697043613192 -29.3301563421219
100802000.0 -3.09117612251551 -29.8907511685868
101800000.0 -3.05669723745604 -30.4256272266902
102798000.0 -3.01304239664174 -31.1318482027946
103796000.0 -3.00184701477283 -31.8082973551652
104794000.0 -2.96020440696908 -32.4071545179995
105792000.0 -2.93622385982095 -32.9791303925153
106790000.0 -2.91071764028328 -33.6570173416963
107788000.0 -2.89431070594336 -34.1929771912391
108786000.0 -2.84193666421881 -34.8929282676763
109784000.0 -2.83373507526534 -35.5591682652479
110782000.0 -2.81344618748806 -36.1975377941797
111780000.0 -2.80058959087849 -37.0218437054025
112778000.0 -2.77474273341855 -37.4321475740136
113776000.0 -2.75454946717877 -38.0999923775348
114774000.0 -2.73362938578054 -39.0052888227064
115772000.0 -2.71909976660818 -39.58205016663
116770000.0 -2.71840007189093 -40.2419252843605
117768000.0 -2.71888390081636 -40.8188473913714
118766000.0 -2.69596582803697 -41.5514460340743
119764000.0 -2.69404149591572 -42.1911338093671
120762000.0 -2.69000092802501 -42.8304273313401
121760000.0 -2.70053219106321 -43.5602133627167
122758000.0 -2.66783409160815 -44.2864718952003
123756000.0 -2.68655243276723 -44.8750505176206
124754000.0 -2.6921355641744 -45.6257881492137
125752000.0 -2.69006525862826 -46.0507068814415
126750000.0 -2.6909620060989 -46.9343350425129
127748000.0 -2.69329166649366 -47.5133437896224
128746000.0 -2.69241778944572 -48.1413122492305
129744000.0 -2.71487857680343 -48.8985527967862
130742000.0 -2.72740691565628 -49.5692114339957
131740000.0 -2.73121721841383 -50.0469651220089
132738000.0 -2.7432109791911 -50.7137322149353
133736000.0 -2.74623273209542 -51.3110190852811
134734000.0 -2.76561232916338 -51.9695915212778
135732000.0 -2.78902890458235 -52.5896236131371
136730000.0 -2.80543210973304 -53.233891709966
137728000.0 -2.8039282609698 -53.8626207144038
138726000.0 -2.8610882937054 -54.3179940532506
139724000.0 -2.8616787531985 -54.9442425018959
140722000.0 -2.89587396691555 -55.3308799355926
141720000.0 -2.91779248271352 -55.9622635628416
142718000.0 -2.92441145740698 -56.4892124027613
143716000.0 -2.96718857861481 -57.2328865668784
144714000.0 -2.98899998471835 -57.8368880481292
145712000.0 -3.03116117666023 -58.1077755692795
146710000.0 -3.03660348466263 -58.7656184292308
147708000.0 -3.06613610271989 -59.2036431092247
148706000.0 -3.09889240532902 -59.7038392227309
149704000.0 -3.12489452365547 -60.1458812783578
150702000.0 -3.16447277954461 -60.6211525295598
151700000.0 -3.19852177358448 -60.9780581352229
152698000.0 -3.24465002413363 -61.4802903211714
153696000.0 -3.27344689843282 -61.9360083616685
154694000.0 -3.28268563888881 -62.2186571396498
155692000.0 -3.30134446734996 -62.7499549391386
156690000.0 -3.33816791078329 -62.9878939752377
157688000.0 -3.37237305706311 -63.3107069837408
158686000.0 -3.4000791916373 -63.6976786982822
159684000.0 -3.41802549318216 -64.0333963405706
160682000.0 -3.46111647548104 -64.2822361554218
161680000.0 -3.48167716742503 -64.6619335787888
162678000.0 -3.51656176862148 -64.9681615286307
163676000.0 -3.52247584332643 -65.197592509278
164674000.0 -3.55139150203479 -65.4494260973309
165672000.0 -3.5952379241457 -65.730617016806
166670000.0 -3.59749281412869 -66.0015065884296
167668000.0 -3.62470054872265 -66.3537400077778
168666000.0 -3.61902829043721 -66.6238042834794
169664000.0 -3.64730157029823 -66.9271902584759
170662000.0 -3.6603053903583 -67.1730630429043
171660000.0 -3.66734239279842 -67.4580332387105
172658000.0 -3.67776326360222 -67.8432753882412
173656000.0 -3.70686057116077 -67.8372721896022
174654000.0 -3.68561890601222 -68.1314282153762
175652000.0 -3.73645201168915 -68.49590859
176650000.0 -3.71685914375986 -68.7643477843488
177648000.0 -3.73411346765899 -69.0577007475829
178646000.0 -3.74703247970763 -69.3048461720218
179644000.0 -3.75677454467999 -69.4697216560701
180642000.0 -3.76813238972476 -69.6514219208018
181640000.0 -3.74647936034214 -69.9386812037358
182638000.0 -3.75964149737347 -70.0918798830549
183636000.0 -3.78560019620894 -70.4195113726678
184634000.0 -3.77765851073308 -70.7724725463965
185632000.0 -3.79587471998189 -71.1482376679697
186630000.0 -3.7797306561284 -71.3487990620041
187628000.0 -3.80131070789877 -71.5542470397178
188626000.0 -3.76102675412071 -71.8389333632344
189624000.0 -3.79818134120627 -72.1701918207031
190622000.0 -3.79269488935586 -72.4043354465422
191620000.0 -3.80421229467735 -72.7057044103849
192618000.0 -3.79144552190601 -73.1032616548512
193616000.0 -3.81903001637512 -73.140625034723
194614000.0 -3.78321794501692 -73.3976237881082
195612000.0 -3.79532378697139 -73.6674379969295
196610000.0 -3.81749708615882 -73.7786043074769
197608000.0 -3.81493052237306 -74.1881299417766
198606000.0 -3.80814146151381 -74.3386813615888
199604000.0 -3.80326622608539 -74.6140925903417
200602000.0 -3.80486778308298 -74.9383420499238
201600000.0 -3.80440774863876 -74.942712201184
202598000.0 -3.7947966294889 -75.4534108008444
203596000.0 -3.80764424108123 -75.7096219642473
204594000.0 -3.79322821817956 -76.0625041242089
205592000.0 -3.79643224126624 -76.3046179652572
206590000.0 -3.79223434929499 -76.4924987857485
207588000.0 -3.78231830230275 -76.6702984691173
208586000.0 -3.8059526613012 -76.9942372354912
209584000.0 -3.78660924653893 -77.3571861980177
210582000.0 -3.77752079872988 -77.3723215356886
211580000.0 -3.79021300439701 -77.7933648323027
212578000.0 -3.7826694228029 -78.1989054162253
213576000.0 -3.78846167386265 -78.3587004510583
214574000.0 -3.80953815525134 -78.5530911057641
215572000.0 -3.7939784874952 -78.729107720763
216570000.0 -3.78787911753938 -78.9881843747707
217568000.0 -3.77420492695717 -79.4353442287532
218566000.0 -3.79509646495529 -79.4828508497225
219564000.0 -3.80818188140874 -79.9881670844272
220562000.0 -3.76779090265307 -80.0771439942317
221560000.0 -3.77727416089767 -80.3605237614058
222558000.0 -3.78870969454017 -80.6666882339695
223556000.0 -3.77433684147758 -81.0176073943875
224554000.0 -3.76787377951918 -81.11714322016
225552000.0 -3.7681561299628 -81.4276638480402
226550000.0 -3.76945730163309 -81.8242990324092
227548000.0 -3.76144269599657 -81.8682108945041
228546000.0 -3.78696716667364 -82.1189695154796
229544000.0 -3.74121237685195 -82.546475078017
230542000.0 -3.77074123059502 -82.7296419062102
231540000.0 -3.76394698825349 -82.8710249328664
232538000.0 -3.76824338250515 -83.1636522204883
233536000.0 -3.73995243093455 -83.4647840776056
234534000.0 -3.72839491307185 -83.7259709120471
235532000.0 -3.75110008198877 -83.93931575995
236530000.0 -3.73716474792484 -84.1494611842625
237528000.0 -3.75175039562548 -84.6164852342665
238526000.0 -3.72779394781099 -84.675577456913
239524000.0 -3.72294065753638 -85.0529323228577
240522000.0 -3.72556489359306 -85.3260691492988
241520000.0 -3.72330910212821 -85.662339197587
242518000.0 -3.73156729355231 -85.9137860875863
243516000.0 -3.73247119585999 -86.1705802507626
244514000.0 -3.72514821468562 -86.4686889453265
245512000.0 -3.71992001116937 -86.6204648722206
246510000.0 -3.72480697003904 -87.1040351921773
247508000.0 -3.72639222584831 -87.2174485964374
248506000.0 -3.70609920824753 -87.4682365185686
249504000.0 -3.71288014544358 -87.7790322363924
250502000.0 -3.70611816055293 -87.9883801572483
251500000.0 -3.7014172776479 -88.4375464822367
252498000.0 -3.69682541014237 -88.7285408505936
253496000.0 -3.70964222215578 -88.9431999330828
254494000.0 -3.74278873141068 -89.1287140151279
255492000.0 -3.67773918159051 -89.3474200081528
256490000.0 -3.71738138048491 -89.73137454824
257488000.0 -3.70112794654444 -89.9787470884073
258486000.0 -3.73793200838063 -90.1819554697412
259484000.0 -3.71775656453012 -90.6907010929841
260482000.0 -3.72495080484325 -90.6966147587931
261480000.0 -3.72795936818468 -91.1614684078772
262478000.0 -3.71096255897223 -91.4300259235272
263476000.0 -3.73851820252988 -91.451803242067
264474000.0 -3.72962620403094 -91.6879525706194
265472000.0 -3.73056945947359 -92.1225486978101
266470000.0 -3.71844463890142 -92.3995463483547
267468000.0 -3.75112950430317 -92.6356898295151
268466000.0 -3.75530745844677 -92.9612514986146
269464000.0 -3.7491589824993 -93.0626734267326
270462000.0 -3.74977363353214 -93.4715537402112
271460000.0 -3.76005273982326 -93.5544645294543
272458000.0 -3.74190479830176 -93.8664828542465
273456000.0 -3.74072865005934 -94.12894772267
274454000.0 -3.74048191901039 -94.3375955569668
275452000.0 -3.74643533587981 -94.4294624287918
276450000.0 -3.75282022981599 -94.6680469329459
277448000.0 -3.77122158248718 -95.0062043442252
278446000.0 -3.77037944951072 -95.0399103038867
279444000.0 -3.78734035109032 -95.4923595463403
280442000.0 -3.77262857286849 -95.8321023075854
281440000.0 -3.75310544881023 -95.9615840530607
282438000.0 -3.7830939927923 -96.278766341933
283436000.0 -3.78088655300456 -96.1617930723138
284434000.0 -3.7958982791371 -96.5291947122525
285432000.0 -3.76686552531716 -96.962580454297
286430000.0 -3.80990051171386 -97.1118955103458
287428000.0 -3.81773715662545 -97.3520122737986
288426000.0 -3.77043216136205 -97.1837186336024
289424000.0 -3.80278618746213 -97.5443345584609
290422000.0 -3.78489043600899 -97.8605798060584
291420000.0 -3.81269300631322 -98.1593136924929
292418000.0 -3.80793842230533 -98.2809816080773
293416000.0 -3.80016213341449 -98.3465367623806
294414000.0 -3.79974480089758 -98.5157091364359
295412000.0 -3.81163447909521 -98.6601384907667
296410000.0 -3.86268145525915 -98.9291855238381
297408000.0 -3.8192939710518 -99.0722115309858
298406000.0 -3.84235826722178 -99.393796831887
299404000.0 -3.85253395916078 -99.4560538623649
300402000.0 -3.85475481417396 -99.4260943572051
301400000.0 -3.81414918395657 -99.8365216541387
302398000.0 -3.83529292835099 -99.9628555072895
303396000.0 -3.81118837981218 -100.102653120731
304394000.0 -3.84961484949052 -100.210604295662
305392000.0 -3.87115618010026 -100.331952948789
306390000.0 -3.8233982574627 -100.553806517799
307388000.0 -3.8410065211449 -100.495288750712
308386000.0 -3.83814722261759 -100.683214180002
309384000.0 -3.8297034683604 -100.887816068779
310382000.0 -3.82502358267265 -101.016098112001
311380000.0 -3.85584729435293 -101.106858275925
312378000.0 -3.83207811189608 -101.103008244759
313376000.0 -3.79381911084227 -101.318964195748
314374000.0 -3.81971435149115 -101.538371883928
315372000.0 -3.82516383641955 -101.450442740847
316370000.0 -3.81166833514822 -101.631885094851
317368000.0 -3.80276994133302 -101.746219049514
318366000.0 -3.78500511355227 -101.913957815785
319364000.0 -3.77722678033137 -102.057167557175
320362000.0 -3.75580785506453 -102.160703081082
321360000.0 -3.74487437825988 -102.257421351505
322358000.0 -3.73079207289707 -102.389442848412
323356000.0 -3.73621239402851 -102.517881384376
324354000.0 -3.69640628962729 -102.634582258779
325352000.0 -3.68041987718402 -102.958521256472
326350000.0 -3.66098093265908 -102.953184606305
327348000.0 -3.65825706812045 -103.258871341444
328346000.0 -3.65591908269673 -103.070775070936
329344000.0 -3.6337079648596 -103.431366454763
330342000.0 -3.63215008922993 -103.571142348462
331340000.0 -3.60024934886154 -103.781083584423
332338000.0 -3.59291463565259 -103.974190493391
333336000.0 -3.57033032029904 -103.816804075673
334334000.0 -3.55588573280586 -104.201112611981
335332000.0 -3.53931318905737 -104.425952860918
336330000.0 -3.54146471420832 -104.824470635754
337328000.0 -3.51519278340395 -104.925453330729
338326000.0 -3.51081697715557 -105.075475696981
339324000.0 -3.49317839116614 -105.059187913168
340322000.0 -3.48499858778978 -105.3129145156
341320000.0 -3.43173835610862 -105.576877526953
342318000.0 -3.43229694195029 -105.987676319629
343316000.0 -3.40465938281973 -106.09535975638
344314000.0 -3.40268095558723 -106.406365226059
345312000.0 -3.40265085509051 -106.510893585172
346310000.0 -3.36471583339031 -106.650857331189
347308000.0 -3.35192134940426 -106.935743546614
348306000.0 -3.35918471823279 -107.303136271928
349304000.0 -3.35569120203322 -107.313641085902
350302000.0 -3.32351508005063 -107.597635582117
351300000.0 -3.32411529064932 -107.680096755397
352298000.0 -3.29672721944028 -108.11371935446
353296000.0 -3.30448803454745 -108.32559344638
354294000.0 -3.27265851815411 -108.573774293484
355292000.0 -3.27134011457593 -108.798055602885
356290000.0 -3.30085155548498 -109.015038826618
357288000.0 -3.2337590707121 -109.331339020923
358286000.0 -3.26017669744923 -109.547973758769
359284000.0 -3.23304055273089 -109.789780904992
360282000.0 -3.20976096357923 -109.797829518697
361280000.0 -3.20935749873106 -110.070766065546
362278000.0 -3.22247694398577 -110.416288056273
363276000.0 -3.18881700597444 -110.563239126672
364274000.0 -3.18119169007725 -111.012796181941
365272000.0 -3.17500702859808 -111.150838277601
366270000.0 -3.17475671072567 -111.329832604294
367268000.0 -3.16861069746749 -111.610240818875
368266000.0 -3.15742175020739 -111.885123265733
369264000.0 -3.13301642087981 -112.175226518788
370262000.0 -3.13292698523236 -112.071737264653
371260000.0 -3.14423085335961 -112.599837996437
372258000.0 -3.13750168614904 -112.698687158971
373256000.0 -3.12532461310235 -112.910240411599
374254000.0 -3.11259422702997 -113.072737504557
375252000.0 -3.102278380043 -113.558753284508
376250000.0 -3.10193497180707 -113.708040689207
377248000.0 -3.10136652659992 -113.917400473501
378246000.0 -3.06414018911427 -114.016511024183
379244000.0 -3.04898036483463 -114.373055201819
380242000.0 -3.04178796279789 -114.444286805314
381240000.0 -3.05233337257376 -114.772259534343
382238000.0 -3.05620428611908 -115.08092423617
383236000.0 -3.05130360739243 -115.422959825811
384234000.0 -3.01886228908138 -115.284901972728
385232000.0 -3.02791695556602 -115.826628873042
386230000.0 -3.01280284094934 -115.935773968639
387228000.0 -3.01858362642707 -116.132074689678
388226000.0 -2.99460460310477 -116.53739324926
389224000.0 -3.00997866322086 -116.632314659641
390222000.0 -3.00104492352315 -116.943555609176
391220000.0 -2.98029145740674 -117.212783976992
392218000.0 -2.9851400329333 -117.465585437383
393216000.0 -2.99160889775824 -117.669178991545
394214000.0 -2.96487286918116 -118.011408721194
395212000.0 -2.96856187139177 -118.123542018039
396210000.0 -2.96091026659867 -118.313650598751
397208000.0 -2.96867242983969 -118.352887028351
398206000.0 -2.96438105484123 -118.739258830787
399204000.0 -2.93508767137997 -118.887645089457
400202000.0 -2.94268342535673 -119.254953123466
401200000.0 -2.92964597933646 -119.371002473815
402198000.0 -2.91319524223705 -119.679132627888
403196000.0 -2.91411427918449 -119.805492232851
404194000.0 -2.90159646550438 -119.952647591625
405192000.0 -2.89229127430983 -120.345818327952
406190000.0 -2.89358195729567 -120.526728844392
407188000.0 -2.89565298068396 -120.768190820496
408186000.0 -2.88708475527953 -120.885770094988
409184000.0 -2.87252620754199 -121.060942499601
410182000.0 -2.91879353545168 -121.422078309468
411180000.0 -2.86949553503097 -121.443756486989
412178000.0 -2.86817311410991 -121.684973676959
413176000.0 -2.85891582986441 -122.025923332746
414174000.0 -2.87770599789828 -122.134188031762
