!Keysight Technologies N9923A: A.08.19
!Date: Thursday, 16 January 2020 11:30:00
!TimeZone: (GMT-03:00) Brasilia!Model: N9923A
!Serial: MY51491501
!GPS Latitude: 
!GPS Longitude: 
!GPS TimeStamp: 0001-01-01 00:00:00Z
!GPS Seconds Since Last Read: 0
!CHECKSUM:1078980270
!Correction: S11(ON U)
!S1P File: Measurement: S11:
# Hz S DB R 50
2000000.0 -3.41315221762735 -36.450850071047
2998000.0 -7.11135932263607 -50.1106232566627
3996000.0 -15.3110777779428 -41.0517960887823
4994000.0 -12.6196054213846 36.2975636046278
5992000.0 -6.88357759199103 33.8692809515906
6990000.0 -4.54909432161638 22.3418452621468
7988000.0 -3.61056055464811 11.3186818702038
8986000.0 -3.36785528677048 1.91337980237661
9984000.0 -3.51206321438071 -5.89203894497466
10982000.0 -4.00381629381659 -12.1362842490096
11980000.0 -4.75861509044155 -16.2643835497099
12978000.0 -5.68430604755247 -18.1619029136354
13976000.0 -6.53605280547969 -16.4446896825895
14974000.0 -6.97517151159027 -12.2910739264402
15972000.0 -6.82881634655201 -7.90589869202567
16970000.0 -6.33910292432222 -5.70354124738565
17968000.0 -5.78353427495513 -6.27658822054723
18966000.0 -5.39986538116657 -8.8341797992201
19964000.0 -5.20036478376293 -12.1570361416485
20962000.0 -5.22654147222511 -15.856445156539
21960000.0 -5.39580697202531 -19.2766201891136
22958000.0 -5.73433460692997 -22.1087666849267
23956000.0 -6.16176424085271 -24.2411592119429
24954000.0 -6.60052467289504 -25.5270667218399
25952000.0 -7.08331878602115 -26.1268448498384
26950000.0 -7.4853905377815 -25.9125631233429
27948000.0 -7.85514138170334 -25.4673411258062
28946000.0 -8.13488122179495 -25.1083768439952
29944000.0 -8.44492297524395 -24.9159228985948
30942000.0 -8.75811622842645 -24.4394779474936
31940000.0 -9.11623987936116 -24.5061219460281
32938000.0 -9.61438935115318 -23.9026392504572
33936000.0 -10.2216164995982 -22.1370936528316
34934000.0 -10.7732294606796 -19.403472284407
35932000.0 -11.2298868554048 -15.0828838584381
36930000.0 -11.5499003905301 -9.16120836834388
37928000.0 -11.5163072958551 -2.79276236364471
38926000.0 -11.2046529332026 3.0562876186987
39924000.0 -10.6107515610846 7.78628163155555
40922000.0 -9.9503014160192 10.8776210234976
41920000.0 -9.27093690451566 12.6399212229263
42918000.0 -8.62180780489613 13.3091154667876
43916000.0 -8.05157456473691 13.3354691816391
44914000.0 -7.54398523837758 12.5846250316525
45912000.0 -7.07941518628345 11.8191173261208
46910000.0 -6.68922556321691 10.3918498243745
47908000.0 -6.39495684817747 9.10527248395189
48906000.0 -6.09523984455661 7.84957236957902
49904000.0 -5.89106984344352 6.35643261490595
50902000.0 -5.70544064406361 4.91930258721113
51900000.0 -5.54851724075811 3.5346682974217
52898000.0 -5.40069846739492 2.2047881958137
53896000.0 -5.28917373316742 1.13930365175218
54894000.0 -5.19824134655887 -0.134849292455736
55892000.0 -5.09531909077449 -1.31782175271548
56890000.0 -5.02745082772946 -2.27014382544163
57888000.0 -4.9497886034976 -3.52125168896752
58886000.0 -4.89909499290997 -4.37424523852191
59884000.0 -4.86207161544055 -5.17413706773287
60882000.0 -4.79608696629633 -6.18012756212254
61880000.0 -4.75402716514082 -7.01817519700626
62878000.0 -4.70552199245203 -7.81631661726829
63876000.0 -4.6750294571881 -8.68203355210017
64874000.0 -4.62509234961704 -9.42729709698902
65872000.0 -4.6141765556283 -10.0840085862691
66870000.0 -4.57192868013232 -10.7770971979072
67868000.0 -4.53628189210194 -11.6003000265001
68866000.0 -4.50636864300173 -12.2944818922495
69864000.0 -4.47555229390464 -12.9217893365699
70862000.0 -4.44742471197871 -13.457841228053
71860000.0 -4.42081719993754 -14.2398930583321
72858000.0 -4.41645436721404 -14.7708357528467
73856000.0 -4.37475593975297 -15.3935396846912
74854000.0 -4.33897867912663 -16.0307044707887
75852000.0 -4.30741091814671 -16.5171359392172
76850000.0 -4.28909455592187 -17.1567410404637
77848000.0 -4.28378870483661 -17.8734890293945
78846000.0 -4.20525393048392 -18.5519227238876
79844000.0 -4.2241369646016 -18.9188640248253
80842000.0 -4.16495349357036 -19.6558757025111
81840000.0 -4.16114610620369 -20.2477044425797
82838000.0 -4.1190534005064 -20.723282952868
83836000.0 -4.12925037504382 -21.2646341476722
84834000.0 -4.10572441619868 -21.8024512046762
85832000.0 -4.07207625883963 -22.485506380598
86830000.0 -4.03934148336207 -22.8284183710882
87828000.0 -4.01905988580782 -23.5949017298099
88826000.0 -4.02881033574851 -23.944957314561
89824000.0 -3.97473973578238 -24.5524765185764
90822000.0 -3.95857627399484 -25.1703221930162
91820000.0 -3.95845893428011 -25.6559649274812
92818000.0 -3.89975655514241 -26.2873795577881
93816000.0 -3.87209071563384 -26.8516282496078
94814000.0 -3.85917256048429 -27.3470947503714
95812000.0 -3.84057042261577 -27.782562604248
96810000.0 -3.82149140900215 -28.3625519190754
97808000.0 -3.81887778134206 -29.0574155581694
98806000.0 -3.78934831519784 -29.4613421280704
99804000.0 -3.76468010325065 -30.0903070362019
100802000.0 -3.75954778502095 -30.5779959022316
101800000.0 -3.73180557177515 -31.1594708921352
102798000.0 -3.73208999867835 -31.7214849037846
103796000.0 -3.71774960841394 -32.1563494771663
104794000.0 -3.68694960831878 -32.8738244836873
105792000.0 -3.67002164677514 -33.2785794300634
106790000.0 -3.65724709187685 -33.7141913724719
107788000.0 -3.64666584364752 -34.2905246432446
108786000.0 -3.58822329861005 -34.6782555364735
109784000.0 -3.59193946308197 -35.3518099734425
110782000.0 -3.60627665672429 -35.9046805878657
111780000.0 -3.60258583215816 -36.5103488133811
112778000.0 -3.55112934879755 -36.9076390306078
113776000.0 -3.55085048716957 -37.4387692858732
114774000.0 -3.50926743811607 -38.184702791408
115772000.0 -3.52190677164764 -38.5244106692059
116770000.0 -3.51850369473337 -39.1455742324681
117768000.0 -3.49203575870461 -39.546550796377
118766000.0 -3.48257181613393 -40.2262720630222
119764000.0 -3.46854192219565 -40.5179790022548
120762000.0 -3.44149682470637 -41.2966216694153
121760000.0 -3.43885558866817 -41.8814536142166
122758000.0 -3.41575893441883 -42.4688738734482
123756000.0 -3.43170176256222 -42.911429620098
124754000.0 -3.40469057015297 -43.544288959902
125752000.0 -3.37894873385549 -44.0322231411971
126750000.0 -3.39125009658002 -44.7403589436102
127748000.0 -3.36257814717464 -45.2722423200149
128746000.0 -3.37151813750302 -45.9085988108793
129744000.0 -3.38468714103841 -46.5755424574068
130742000.0 -3.39418438208115 -47.2079797289932
131740000.0 -3.3915447518363 -47.8428450731226
132738000.0 -3.37981611080901 -48.4007974449854
133736000.0 -3.39029013591499 -48.8940134996389
134734000.0 -3.40439474307043 -49.3700568376058
135732000.0 -3.40253068646636 -50.1542227978024
136730000.0 -3.41349844694194 -50.6680274433487
137728000.0 -3.41979065521014 -51.3512364223068
138726000.0 -3.4491433056965 -51.7679617981058
139724000.0 -3.4558891171646 -52.3873344173717
140722000.0 -3.45697755736747 -52.7792004125156
141720000.0 -3.48811989141388 -53.470143616782
142718000.0 -3.49707419526319 -53.8967342011495
143716000.0 -3.52915248299582 -54.5335082947572
144714000.0 -3.56088074140404 -55.0110046595513
145712000.0 -3.57437522562852 -55.3693220607313
146710000.0 -3.58392355930754 -55.9495706184369
147708000.0 -3.62037123556144 -56.4725365795664
148706000.0 -3.66381091067462 -56.9000663158528
149704000.0 -3.68449784060405 -57.3826384202948
150702000.0 -3.69585443981416 -57.7869692620969
151700000.0 -3.74473963705524 -58.1276950395678
152698000.0 -3.7939676636076 -58.5832696814763
153696000.0 -3.80673998055425 -59.0315556122661
154694000.0 -3.80584499377144 -59.455729451253
155692000.0 -3.84598781297679 -59.7428609111216
156690000.0 -3.87783026350024 -60.0900955799614
157688000.0 -3.92214820130703 -60.5320188033172
158686000.0 -3.95145487183118 -60.6001919193636
159684000.0 -3.9639039754389 -61.0184671274894
160682000.0 -4.00098831483478 -61.2642474239972
161680000.0 -4.00236222525831 -61.5091267066463
162678000.0 -4.02727159958038 -61.9176356592013
163676000.0 -4.06367082871544 -62.1190772729564
164674000.0 -4.06385109620272 -62.263510607787
165672000.0 -4.1123153898644 -62.4469978477245
166670000.0 -4.13013197638997 -62.6263771095564
167668000.0 -4.13529344479543 -63.0390124069901
168666000.0 -4.13246280348384 -63.3635447155156
169664000.0 -4.1579097714818 -63.3878671734489
170662000.0 -4.15087917070415 -63.5677073567254
171660000.0 -4.1882680427408 -63.6001485524828
172658000.0 -4.18550737898823 -64.2379741028373
173656000.0 -4.21942310103918 -64.118501639303
174654000.0 -4.20865648297852 -64.4290473600825
175652000.0 -4.20899190821569 -64.591680430316
176650000.0 -4.2130524620205 -64.7273502962
177648000.0 -4.22951325067302 -65.0090572333549
178646000.0 -4.22963718387879 -65.0304464595473
179644000.0 -4.24134872957086 -65.2022890585401
180642000.0 -4.24437017808655 -65.528059518564
181640000.0 -4.21235879466634 -65.5565007890911
182638000.0 -4.20050406999004 -65.8726400434788
183636000.0 -4.2232469905389 -65.9199018377024
184634000.0 -4.20463992654475 -65.9913688539765
185632000.0 -4.19616006093886 -66.3838572901722
186630000.0 -4.19456344846914 -66.5195161762351
187628000.0 -4.18620959384356 -66.5144495008352
188626000.0 -4.13366258920996 -66.8173304516891
189624000.0 -4.16814025310278 -66.9712614574069
190622000.0 -4.14512028105549 -67.278554975012
191620000.0 -4.11571792779119 -67.2654982705078
192618000.0 -4.1294356286631 -67.4536898031833
193616000.0 -4.11309079727491 -67.7589376022124
194614000.0 -4.06931487968807 -67.9587846256848
195612000.0 -4.05670917391292 -67.9681985829022
196610000.0 -4.0491770784894 -68.182362756775
197608000.0 -4.02722442371735 -68.5725365247616
198606000.0 -3.99473897815696 -68.7234390582811
199604000.0 -3.98444764169721 -68.9522789024038
200602000.0 -3.94426306238548 -69.2353702631508
201600000.0 -3.94217193546845 -69.2981011173349
202598000.0 -3.90905868879516 -69.7857785136012
203596000.0 -3.89330126739324 -69.8946051272497
204594000.0 -3.84410269145917 -70.2992547391396
205592000.0 -3.82846704569755 -70.6194373706821
206590000.0 -3.82381093040997 -70.5403182792953
207588000.0 -3.77719429549628 -70.9165658354124
208586000.0 -3.77769095586385 -71.2751460790242
209584000.0 -3.73949304779949 -71.745862111777
210582000.0 -3.71871735227591 -71.8325333964267
211580000.0 -3.70987246437933 -72.3640277013802
212578000.0 -3.66107545124298 -72.759054215411
213576000.0 -3.67113446438584 -72.957890793545
214574000.0 -3.63953733828008 -73.1669219288355
215572000.0 -3.60631742705328 -73.45147765063
216570000.0 -3.58238089222166 -73.6951398148982
217568000.0 -3.55141441615522 -74.1430440305106
218566000.0 -3.56416181600587 -74.2617988088695
219564000.0 -3.55069633168771 -74.9209902764872
220562000.0 -3.51392258480253 -75.1362116740407
221560000.0 -3.50087522375346 -75.3894028007501
222558000.0 -3.50764844063372 -75.8241810828668
223556000.0 -3.47476164416174 -76.2783327051251
224554000.0 -3.44544005018797 -76.5245682642602
225552000.0 -3.44866661902382 -76.9574512905888
226550000.0 -3.4199668007509 -77.4296055862187
227548000.0 -3.41300909683939 -77.5189456574624
228546000.0 -3.41746945634829 -77.8409136110172
229544000.0 -3.38267229088723 -78.348444389723
230542000.0 -3.39240569398722 -78.6631840344621
231540000.0 -3.39221880024762 -78.8762458499146
232538000.0 -3.38155370259651 -79.2762529102393
233536000.0 -3.34903997877397 -79.6249212259902
234534000.0 -3.33924372934421 -80.1269889217468
235532000.0 -3.33279376119325 -80.4391084141893
236530000.0 -3.31604305153086 -80.639602237082
237528000.0 -3.32669647705797 -81.2363272521646
238526000.0 -3.29863191044343 -81.3026443882363
239524000.0 -3.29607281674629 -81.8412201855127
240522000.0 -3.30024854963761 -82.17389071431
241520000.0 -3.27857761521356 -82.4563926494842
242518000.0 -3.29252346454662 -82.8883168418138
243516000.0 -3.27933351271196 -83.1816501466333
244514000.0 -3.2726103312926 -83.6230938475651
245512000.0 -3.25787382183379 -83.9261576772823
246510000.0 -3.25763123415836 -84.328823846868
247508000.0 -3.27984409441779 -84.6568482440746
248506000.0 -3.26229550550053 -84.837417107292
249504000.0 -3.25748457072061 -85.359430156355
250502000.0 -3.24316615312059 -85.6346441885056
251500000.0 -3.25119608264449 -86.0667303691779
252498000.0 -3.25475481838964 -86.2797905374481
253496000.0 -3.24813603632256 -86.666079310786
254494000.0 -3.27242845002848 -87.033140692791
255492000.0 -3.20418583566076 -87.3609819732894
256490000.0 -3.24320936445243 -87.5366581303397
257488000.0 -3.22721472579578 -88.0051106201336
258486000.0 -3.2502934691897 -88.4128294841558
259484000.0 -3.23723801693061 -88.7483580751941
260482000.0 -3.23284419538994 -89.0228242478241
261480000.0 -3.2476911638027 -89.3112994073741
262478000.0 -3.21511808460176 -89.8159845269307
263476000.0 -3.22044758249835 -89.7489592594123
264474000.0 -3.23567691411515 -90.1551480553517
265472000.0 -3.21445235471461 -90.6152653200752
266470000.0 -3.22507197091282 -90.9433365920604
267468000.0 -3.23456899120161 -91.2943029515017
268466000.0 -3.22397715584271 -91.6514055133055
269464000.0 -3.21853467236669 -91.7489311463462
270462000.0 -3.23664281549977 -92.2377044589305
271460000.0 -3.24468993999728 -92.5192623321828
272458000.0 -3.22692817337565 -92.7666047424024
273456000.0 -3.24782491494871 -93.0968118979127
274454000.0 -3.23257026474991 -93.4795621683174
275452000.0 -3.21092761194526 -93.6772157559313
276450000.0 -3.23262215975134 -93.9679677740142
277448000.0 -3.23148195350263 -94.3300011798854
278446000.0 -3.23817601158139 -94.5499265745487
279444000.0 -3.24472460253542 -94.9779383598319
280442000.0 -3.21927028988672 -95.3376327545138
281440000.0 -3.25498787977915 -95.6368255331813
282438000.0 -3.25591174418136 -96.0907206554083
283436000.0 -3.26951196953962 -96.1119498796362
284434000.0 -3.2632894946388 -96.4707830629315
285432000.0 -3.24598386021421 -96.8816080523175
286430000.0 -3.26696211320779 -97.1939164154596
287428000.0 -3.29839915263353 -97.4309979844738
288426000.0 -3.26409152231602 -97.6052807842279
289424000.0 -3.2773088835005 -98.0137297460074
290422000.0 -3.28011850431524 -98.3787156694043
291420000.0 -3.31697743519969 -98.5702731346282
292418000.0 -3.30580581818173 -98.861431313865
293416000.0 -3.32188700779747 -99.0132750879573
294414000.0 -3.31773758030012 -99.4046175535538
295412000.0 -3.33708563889981 -99.63925680487
296410000.0 -3.3619925199127 -99.8789952700585
297408000.0 -3.35866872351209 -100.125831083498
298406000.0 -3.37928634681155 -100.542398148714
299404000.0 -3.38577013664176 -100.702200367668
300402000.0 -3.39527769641321 -100.794940699944
301400000.0 -3.35620975072641 -101.263511524851
302398000.0 -3.41556457902996 -101.362057752533
303396000.0 -3.40301374145879 -101.545774769741
304394000.0 -3.42313519544304 -101.686483817257
305392000.0 -3.44389112294015 -101.925356148376
306390000.0 -3.42534437876302 -102.146751742464
307388000.0 -3.45832401876227 -102.292678082965
308386000.0 -3.44661790291893 -102.461537670408
309384000.0 -3.47297525129976 -102.82289594356
310382000.0 -3.46504659818277 -102.911643212813
311380000.0 -3.48992181738669 -103.241627810577
312378000.0 -3.47891876446843 -103.192995525963
313376000.0 -3.48720629694865 -103.547702665972
314374000.0 -3.48781863050337 -103.63469544135
315372000.0 -3.50206225863179 -103.723717785367
316370000.0 -3.50728955653999 -103.828802222051
317368000.0 -3.50621453360234 -104.070512235648
318366000.0 -3.51338874532159 -104.373214145381
319364000.0 -3.5105043222025 -104.505812881784
320362000.0 -3.4973709954465 -104.484410254478
321360000.0 -3.49057418672302 -104.787978669556
322358000.0 -3.50199280608301 -104.805056111881
323356000.0 -3.50188431074534 -105.123765918703
324354000.0 -3.50111937869814 -105.202832742757
325352000.0 -3.46704647936492 -105.379509272183
326350000.0 -3.48192358696015 -105.587495248776
327348000.0 -3.49241704934543 -105.707822275601
328346000.0 -3.47850363975418 -105.760369275966
329344000.0 -3.46304100310905 -106.076757989917
330342000.0 -3.46517136670447 -106.274746511211
331340000.0 -3.49114083106436 -106.519731494695
332338000.0 -3.46771929752548 -106.639774302888
333336000.0 -3.47905295109036 -106.447793653725
334334000.0 -3.46065244061692 -106.933249318129
335332000.0 -3.43833957248716 -107.069978011075
336330000.0 -3.46630061065268 -107.384848509892
337328000.0 -3.45452902916941 -107.602803578351
338326000.0 -3.44950785358318 -107.798888588254
339324000.0 -3.44867576537399 -107.844353095669
340322000.0 -3.424669826377 -108.048710856529
341320000.0 -3.41468738662381 -108.209194607678
342318000.0 -3.41229927075289 -108.54135329397
343316000.0 -3.4129557343968 -108.684780580058
344314000.0 -3.39806431019478 -108.941100141364
345312000.0 -3.4007426846519 -109.103239312104
346310000.0 -3.38465879746229 -109.303925284536
347308000.0 -3.37031885320221 -109.846662699343
348306000.0 -3.39662996640194 -109.752756630097
349304000.0 -3.41399032494283 -109.722607690663
350302000.0 -3.36498723639982 -110.121761793751
351300000.0 -3.38481165590291 -110.207591486708
352298000.0 -3.37185168936456 -110.590961228158
353296000.0 -3.37190765663836 -110.927448287024
354294000.0 -3.38077381143286 -110.926841273793
355292000.0 -3.37948017318116 -111.322148242718
356290000.0 -3.39596496568987 -111.472099340236
357288000.0 -3.35544165859242 -111.756939207806
358286000.0 -3.37017262820872 -111.985919652254
359284000.0 -3.35641238706318 -112.0132981599
360282000.0 -3.34634543521607 -112.221821056135
361280000.0 -3.35968901529068 -112.660657001388
362278000.0 -3.37595253199728 -112.799595875865
363276000.0 -3.35350719903349 -112.820612651638
364274000.0 -3.3672483919635 -113.229260568849
365272000.0 -3.33991404121316 -113.356455223383
366270000.0 -3.36812046971833 -113.680373639719
367268000.0 -3.3790905291265 -113.694812577792
368266000.0 -3.38809902708737 -113.972302177035
369264000.0 -3.35673911977471 -114.233256682676
370262000.0 -3.35355357932206 -114.210750683636
371260000.0 -3.38668219045028 -114.643038509858
372258000.0 -3.36711197056184 -114.837760269985
373256000.0 -3.39192503494328 -114.89336189749
374254000.0 -3.36683281527233 -115.135421902506
375252000.0 -3.38015595486607 -115.477474255967
376250000.0 -3.36408100899869 -115.762816339085
377248000.0 -3.36580886906892 -115.744932071092
378246000.0 -3.37481728758702 -115.926017312943
379244000.0 -3.36037845970389 -116.140709466667
380242000.0 -3.34986719891053 -116.20193352096
381240000.0 -3.35184217164678 -116.474351705404
382238000.0 -3.38140346162145 -116.764851403571
383236000.0 -3.36010662788715 -117.058485264377
384234000.0 -3.36588881285874 -117.002748460594
385232000.0 -3.35728048258196 -117.287410312294
386230000.0 -3.35772546799775 -117.477576782556
387228000.0 -3.38557941839706 -117.614636346586
388226000.0 -3.35433916007746 -117.863202952448
389224000.0 -3.3663103435822 -117.876752130495
390222000.0 -3.36830040282618 -118.110209313598
391220000.0 -3.34951122536025 -118.306183102734
392218000.0 -3.35284925712693 -118.486912972082
393216000.0 -3.39524513266736 -118.492647733148
394214000.0 -3.34032719207331 -118.787950079226
395212000.0 -3.37094474083015 -118.945539311679
396210000.0 -3.37944294222533 -119.015857947689
397208000.0 -3.37798239547824 -119.193013013643
398206000.0 -3.3516974334518 -119.416357611538
399204000.0 -3.36114383202981 -119.441337054195
400202000.0 -3.34629801720744 -119.711052729406
401200000.0 -3.32177813822281 -119.755091233032
402198000.0 -3.34546012446005 -120.026002961608
403196000.0 -3.32613595613835 -120.015955521904
404194000.0 -3.32368486772174 -120.331860900927
405192000.0 -3.32281810028518 -120.445040033295
406190000.0 -3.30858464106459 -120.719711562134
407188000.0 -3.33753284723611 -120.759990976017
408186000.0 -3.30465799980355 -120.800182747824
409184000.0 -3.3055490361207 -120.935937359642
410182000.0 -3.3267780202232 -121.178876102058
411180000.0 -3.31336551420176 -121.355900693152
412178000.0 -3.2904753389352 -121.378946650635
413176000.0 -3.29291135639902 -121.592670975215
414174000.0 -3.2977915152527 -121.734754238602
