!Keysight Technologies N9923A: A.08.19
!Date: Thursday, 16 January 2020 11:30:00
!TimeZone: (GMT-03:00) Brasilia!Model: N9923A
!Serial: MY51491501
!GPS Latitude: 
!GPS Longitude: 
!GPS TimeStamp: 0001-01-01 00:00:00Z
!GPS Seconds Since Last Read: 0
!CHECKSUM:1078980270
!Correction: S11(ON U)
!S1P File: Measurement: S11:
# Hz S DB R 50
2000000.0 -2.80854032473954 -34.1082600450982
2998000.0 -5.79176485283497 -49.7813648140138
3996000.0 -12.9776071928991 -59.4240356644737
4994000.0 -16.5262127656814 47.3119692788694
5992000.0 -7.40715650323889 46.3271146206632
6990000.0 -4.23984485772347 31.9152140498705
7988000.0 -2.94123812424401 18.9303084567426
8986000.0 -2.47161558923944 8.17328292351196
9984000.0 -2.47895919203808 -0.982092721845272
10982000.0 -2.79239722230577 -8.18474621123908
11980000.0 -3.38850897982117 -14.0503990209833
12978000.0 -4.14430104382145 -17.9321991251781
13976000.0 -5.08263711178843 -19.0829989824545
14974000.0 -5.88968530671203 -17.1286185033577
15972000.0 -6.20206125268892 -12.8590934069728
16970000.0 -5.95598570050853 -9.19816487931897
17968000.0 -5.44298763158403 -8.13533443092015
18966000.0 -4.9725033035728 -9.60584779654567
19964000.0 -4.68896053872669 -12.4989310567248
20962000.0 -4.56427330683196 -16.1360228178304
21960000.0 -4.68963925706757 -19.7779631035542
22958000.0 -4.91268906453717 -23.2721414000625
23956000.0 -5.28277580496546 -26.3583931026748
24954000.0 -5.72661864094892 -28.725719282916
25952000.0 -6.29263135019235 -30.52634226505
26950000.0 -6.8431703911486 -31.3141556807268
27948000.0 -7.44125851652113 -31.115643875499
28946000.0 -7.99209844758286 -30.744482341798
29944000.0 -8.50719850841195 -29.7425861977419
30942000.0 -9.01117350796372 -27.9477938113006
31940000.0 -9.46329951602818 -26.2179445376573
32938000.0 -9.91688274867288 -23.8924538156444
33936000.0 -10.346589228343 -20.3822047203619
34934000.0 -10.6923900265091 -16.637128435214
35932000.0 -10.8635815912225 -11.5335600382278
36930000.0 -10.894134003188 -6.42500056892616
37928000.0 -10.6319825398872 -1.29374945956838
38926000.0 -10.2109041821904 2.84439007884344
39924000.0 -9.63847230194757 6.07469531215441
40922000.0 -9.0765654242988 8.2203777780452
41920000.0 -8.50101016531362 9.25154714713881
42918000.0 -7.99802011707016 9.45541080342187
43916000.0 -7.53412853136256 9.36965977524283
44914000.0 -7.09336837062415 8.78593068631498
45912000.0 -6.72396817811416 8.05962473761095
46910000.0 -6.39647203739302 7.09010972260885
47908000.0 -6.123358401209 5.96944837310772
48906000.0 -5.86392765758432 5.00817880589107
49904000.0 -5.64803416414655 3.98563596097993
50902000.0 -5.48387009971406 2.80079363193375
51900000.0 -5.2959719704858 1.60879173611702
52898000.0 -5.13982740749553 0.484972493978555
53896000.0 -5.03022089984043 -0.590351321137673
54894000.0 -4.90483519024951 -1.69907396868421
55892000.0 -4.77118269280599 -2.78930241784275
56890000.0 -4.70268144580188 -3.78017644712371
57888000.0 -4.60942253960179 -4.80599666113212
58886000.0 -4.527369918195 -5.67580582939077
59884000.0 -4.46574906279896 -6.56068914524597
60882000.0 -4.36323002858407 -7.58265902720656
61880000.0 -4.31361556207209 -8.54268598998129
62878000.0 -4.23196975894909 -9.44308005220657
63876000.0 -4.17045919331604 -10.2259718047526
64874000.0 -4.1323398566591 -11.3248845024173
65872000.0 -4.09891058054544 -12.137830702522
66870000.0 -4.05992578470929 -13.0022131675097
67868000.0 -3.98717673733733 -13.8374337676154
68866000.0 -3.97372577897619 -14.8821339408311
69864000.0 -3.93696151241979 -15.6115120386748
70862000.0 -3.92511573650159 -16.3904427010269
71860000.0 -3.87679956692857 -17.2077682398335
72858000.0 -3.86943340778998 -18.0003562701083
73856000.0 -3.83180032172478 -18.6615302787942
74854000.0 -3.83017097738338 -19.47444887997
75852000.0 -3.81065516072423 -20.1474422341548
76850000.0 -3.7846083105529 -20.8986611070352
77848000.0 -3.78565441632143 -21.7783984659776
78846000.0 -3.75605154509881 -22.3457066265571
79844000.0 -3.76014968817765 -22.9415704239799
80842000.0 -3.73399929512393 -23.6653311600801
81840000.0 -3.72791684439249 -24.4670645220659
82838000.0 -3.70457336885772 -25.1888896763643
83836000.0 -3.7156974117981 -25.696648381443
84834000.0 -3.70918567090355 -26.2968489530253
85832000.0 -3.69352194371495 -26.9828483022206
86830000.0 -3.70652624203808 -27.4991782238151
87828000.0 -3.66533091062756 -28.0297066829907
88826000.0 -3.67555908608617 -28.6140239050253
89824000.0 -3.65950369855134 -29.213642903416
90822000.0 -3.65853589521202 -29.8453912571318
91820000.0 -3.66338272101108 -30.3574646156618
92818000.0 -3.64040750675524 -30.8528841081414
93816000.0 -3.63482339961942 -31.5508896214049
94814000.0 -3.60631949821323 -31.9571280549262
95812000.0 -3.60703994309093 -32.4936066969202
96810000.0 -3.60531335116701 -33.0810730483625
97808000.0 -3.60303171058091 -33.6494987698176
98806000.0 -3.57761483647631 -34.0766733026559
99804000.0 -3.56125572906995 -34.7962350196033
100802000.0 -3.55728283424675 -35.3187494820323
101800000.0 -3.53597009240995 -35.8516011562196
102798000.0 -3.53039106643875 -36.5138042406573
103796000.0 -3.5427817385262 -37.0372887792845
104794000.0 -3.48591887624654 -37.621582785816
105792000.0 -3.50400969286113 -38.1160834969074
106790000.0 -3.47462600451701 -38.7000650844234
107788000.0 -3.47830111559672 -39.2079555736257
108786000.0 -3.44047126201659 -39.8141650031628
109784000.0 -3.44224316660969 -40.4501250791804
110782000.0 -3.44691554732276 -41.02203143121
111780000.0 -3.44941497510222 -41.6601956920923
112778000.0 -3.40322444194915 -42.1380161144909
113776000.0 -3.41890780056302 -42.8140451769819
114774000.0 -3.39824853395419 -43.545051234226
115772000.0 -3.387505850992 -43.9725660660967
116770000.0 -3.40471957918347 -44.6362482341871
117768000.0 -3.37424169259181 -45.0808847014805
118766000.0 -3.39349228972858 -45.8377658818033
119764000.0 -3.37693152896788 -46.3278146275546
120762000.0 -3.37506361096018 -47.0459392680087
121760000.0 -3.38293818526725 -47.6634171664745
122758000.0 -3.3597511403202 -48.3766232099819
123756000.0 -3.38381082507367 -48.8218455299382
124754000.0 -3.38513316936678 -49.6031792509079
125752000.0 -3.39315375023054 -50.0594712646409
126750000.0 -3.39066537637896 -50.8875670650951
127748000.0 -3.39355012602778 -51.4938557318122
128746000.0 -3.40000635819542 -52.1044087264998
129744000.0 -3.44106698390673 -52.810515922831
130742000.0 -3.45387287126959 -53.4054183091578
131740000.0 -3.47583077505456 -54.0524568713485
132738000.0 -3.45856036714851 -54.7179130874796
133736000.0 -3.49427196285683 -55.2675064106118
134734000.0 -3.52399021511923 -55.8929739627132
135732000.0 -3.53248649675049 -56.5809643446577
136730000.0 -3.56450806085561 -57.2781600927497
137728000.0 -3.58749869643038 -58.0024504596825
138726000.0 -3.63622417205023 -58.4782886902876
139724000.0 -3.65567677958895 -59.0775887755389
140722000.0 -3.6939918168975 -59.5669085720116
141720000.0 -3.73899746898887 -60.2493170054641
142718000.0 -3.77466428580726 -60.7258136901699
143716000.0 -3.81434910009463 -61.3783971360621
144714000.0 -3.8828373114232 -62.1430796578058
145712000.0 -3.91693677937986 -62.4122414855083
146710000.0 -3.97037291327309 -63.2153648512231
147708000.0 -4.03350935615831 -63.5059007117571
148706000.0 -4.11619254033429 -64.053447840936
149704000.0 -4.15237890832198 -64.5516407359447
150702000.0 -4.21006166946821 -65.0100009721638
151700000.0 -4.29954475810596 -65.4102279009279
152698000.0 -4.37192635994276 -65.776708671203
153696000.0 -4.43770809090676 -66.2407522696659
154694000.0 -4.47561714389867 -66.4334294482112
155692000.0 -4.55468194585851 -66.6809986751546
156690000.0 -4.63035275197737 -66.9241956141768
157688000.0 -4.69065083972951 -67.2675684361463
158686000.0 -4.75230879590425 -67.379212975462
159684000.0 -4.82098506770268 -67.4957037939634
160682000.0 -4.88715035052677 -67.6344696522161
161680000.0 -4.95327313527935 -67.7625269461531
162678000.0 -5.01518253534482 -67.8451107930736
163676000.0 -5.06451556655326 -67.747355217288
164674000.0 -5.10028804926434 -67.6077626893662
165672000.0 -5.1803035300332 -67.5478401739214
166670000.0 -5.21890103847425 -67.6312249997781
167668000.0 -5.25099780836065 -67.7016448728046
168666000.0 -5.26047415454445 -67.5080928938093
169664000.0 -5.30315008442079 -67.4098146269704
170662000.0 -5.30600421208059 -67.3061121050575
171660000.0 -5.37119381423143 -67.3836527093508
172658000.0 -5.33872477816947 -67.4207451456677
173656000.0 -5.37750550506665 -66.915608440662
174654000.0 -5.38779493215121 -67.0136688285335
175652000.0 -5.39395609309404 -66.9784080375098
176650000.0 -5.36670415817287 -66.7154533684587
177648000.0 -5.39235645565882 -66.7523692821562
178646000.0 -5.39178047775963 -66.6352213365333
179644000.0 -5.38554938375193 -66.343324416397
180642000.0 -5.36722779986285 -66.3443234783133
181640000.0 -5.31972059114903 -66.2556094532608
182638000.0 -5.30643588777235 -66.372096594797
183636000.0 -5.3221914988859 -66.2499325619234
184634000.0 -5.30046120585439 -66.2952630761713
185632000.0 -5.24449645243767 -66.3482352935524
186630000.0 -5.25171584740662 -66.3188484856917
187628000.0 -5.19212995502675 -66.2405312721721
188626000.0 -5.16159222781306 -66.2478505405329
189624000.0 -5.12554998862975 -66.1399729937881
190622000.0 -5.08615294626963 -66.3103173809669
191620000.0 -5.05818716099789 -66.5323148515752
192618000.0 -5.01782684211808 -66.4704768594171
193616000.0 -4.99893759628667 -66.4465088353723
194614000.0 -4.91922167575168 -66.6331564161692
195612000.0 -4.88613634354602 -66.7119493386209
196610000.0 -4.87703103377055 -66.7279738591779
197608000.0 -4.81078839878614 -66.8926871427026
198606000.0 -4.74676578301304 -67.0028651161658
199604000.0 -4.74803949162528 -67.3293516521788
200602000.0 -4.69116850083681 -67.5091562939687
201600000.0 -4.67299419808693 -67.4724155445561
202598000.0 -4.60813753133936 -67.840826474592
203596000.0 -4.55992136690861 -67.9513439380348
204594000.0 -4.51877071431698 -68.3281652731396
205592000.0 -4.47536907255981 -68.696797524939
206590000.0 -4.43125644092885 -68.8281594909688
207588000.0 -4.40329665852878 -69.0360926440062
208586000.0 -4.37211141300608 -69.3251187039335
209584000.0 -4.34626566456711 -69.6974032085632
210582000.0 -4.28458994499254 -69.768494724678
211580000.0 -4.2506095815382 -70.2874711598653
212578000.0 -4.21761614659808 -70.6860161226836
213576000.0 -4.17865626591334 -70.9266399569151
214574000.0 -4.15882786371507 -71.1182959732778
215572000.0 -4.1046649819363 -71.4566238285604
216570000.0 -4.06864321532188 -71.6904713034043
217568000.0 -4.03412247042412 -72.0916175088176
218566000.0 -4.03794446140916 -72.2159536847368
219564000.0 -4.00578960803213 -72.910933657646
220562000.0 -3.93536198080955 -73.1508567022382
221560000.0 -3.93995377327997 -73.3300488716412
222558000.0 -3.92932910715292 -73.7830244799662
223556000.0 -3.87333325409475 -74.3576095956677
224554000.0 -3.83728426297795 -74.6579320712555
225552000.0 -3.83444886217408 -74.9685798762419
226550000.0 -3.80766037425532 -75.4282074428348
227548000.0 -3.78646064981291 -75.6177585127432
228546000.0 -3.78456182364429 -75.9638851019886
229544000.0 -3.73180557711963 -76.5229840209211
230542000.0 -3.7400130660006 -76.8644604269943
231540000.0 -3.72841332387886 -77.0209246872431
232538000.0 -3.6922866880179 -77.4519254892745
233536000.0 -3.65826862269103 -77.7690302069595
234534000.0 -3.65404222834647 -78.2118664799776
235532000.0 -3.65566019908413 -78.5694268898818
236530000.0 -3.63540589351301 -78.8602509323482
237528000.0 -3.6183803534628 -79.4219989385101
238526000.0 -3.59590831007512 -79.6768636786132
239524000.0 -3.60182238593394 -79.9936519559203
240522000.0 -3.55868108770423 -80.4258683889968
241520000.0 -3.53962734138989 -80.7492781455615
242518000.0 -3.55635143528768 -81.2162251690392
243516000.0 -3.53730427182827 -81.5601139651527
244514000.0 -3.53444020304701 -81.8693682611538
245512000.0 -3.52574739086985 -82.2006116209036
246510000.0 -3.5142281239982 -82.6378887636673
247508000.0 -3.51653275445703 -82.9254025437763
248506000.0 -3.48579908784186 -83.2079460183654
249504000.0 -3.47487219475252 -83.6156490811093
250502000.0 -3.47411035685678 -83.9052308665232
251500000.0 -3.47831216399849 -84.3019590959906
252498000.0 -3.46852528041348 -84.6647257526491
253496000.0 -3.46500341625505 -85.0379726234996
254494000.0 -3.48000656982475 -85.4480116198673
255492000.0 -3.42780697632289 -85.8286337365766
256490000.0 -3.47432675828315 -85.9497189643684
257488000.0 -3.43291523120605 -86.4084377922329
258486000.0 -3.43616864442582 -86.7398836743233
259484000.0 -3.42748182154889 -87.1345295738347
260482000.0 -3.4300948736109 -87.4024952712657
261480000.0 -3.41555562753737 -87.8125670047795
262478000.0 -3.40135710016928 -88.3130167390239
263476000.0 -3.41911364186952 -88.2868783819298
264474000.0 -3.4200058903455 -88.5443253085278
265472000.0 -3.39336469655397 -89.0257412934412
266470000.0 -3.38407634480953 -89.4376146523262
267468000.0 -3.40639554791354 -89.849437075461
268466000.0 -3.39267782992954 -90.2223300537237
269464000.0 -3.37685251890998 -90.3161819559013
270462000.0 -3.372043751053 -90.8382690491873
271460000.0 -3.37987315196645 -91.1504023681248
272458000.0 -3.36994384681446 -91.4653580297179
273456000.0 -3.38790815836904 -91.6154358924368
274454000.0 -3.36959246490685 -92.0284938603616
275452000.0 -3.38174559796261 -92.2335455827641
276450000.0 -3.35525673104514 -92.5677864821684
277448000.0 -3.35124725239072 -92.9466924176266
278446000.0 -3.37240912629762 -93.2133848309929
279444000.0 -3.39343442946678 -93.7009085576055
280442000.0 -3.35157214530642 -94.056488488502
281440000.0 -3.38021618810453 -94.2205470222686
282438000.0 -3.35116489391961 -94.7236880370874
283436000.0 -3.3735788924598 -94.7039981470938
284434000.0 -3.38030417273335 -95.2167571457452
285432000.0 -3.35558923530445 -95.5481492998006
286430000.0 -3.384044535946 -95.9576982824369
287428000.0 -3.41751535492827 -96.2720114291133
288426000.0 -3.37549589111608 -96.429524625372
289424000.0 -3.38777016446432 -96.6618427642246
290422000.0 -3.39627249102945 -97.015256973941
291420000.0 -3.40928236779746 -97.2954863953586
292418000.0 -3.40055107383584 -97.6331768684641
293416000.0 -3.39430755092835 -97.8779058232068
294414000.0 -3.40774297970587 -98.0548152260765
295412000.0 -3.41641249444935 -98.3944181336158
296410000.0 -3.44023715331654 -98.4645118501446
297408000.0 -3.4239888402448 -98.8483844559743
298406000.0 -3.45914109885134 -99.1361275436881
299404000.0 -3.46395042249458 -99.5263791864068
300402000.0 -3.4829615703363 -99.5838367118582
301400000.0 -3.44139103468457 -99.9172847596987
302398000.0 -3.45781652400756 -100.216269654144
303396000.0 -3.47290312637579 -100.521422192507
304394000.0 -3.49167543616701 -100.580661605898
305392000.0 -3.51036654561377 -100.907841039429
306390000.0 -3.47510051910509 -101.123368004499
307388000.0 -3.5140477326463 -101.129799433306
308386000.0 -3.49634516199444 -101.479971623267
309384000.0 -3.50816623433438 -101.721549971817
310382000.0 -3.50041804879158 -101.977396559098
311380000.0 -3.51958639655809 -102.213818891362
312378000.0 -3.53687904675582 -102.201151108401
313376000.0 -3.53075968466239 -102.548492266616
314374000.0 -3.5387829823343 -102.80201261165
315372000.0 -3.54257418040809 -102.822167199756
316370000.0 -3.54001447142822 -103.157652642727
317368000.0 -3.55384740424911 -103.326825779129
318366000.0 -3.55201361971472 -103.554572235773
319364000.0 -3.5658951829966 -103.650115145343
320362000.0 -3.55111030069874 -103.737802469748
321360000.0 -3.53713426753242 -104.085641021316
322358000.0 -3.54422122440015 -104.284305665852
323356000.0 -3.57615311475324 -104.495207654288
324354000.0 -3.55919845462727 -104.439722641561
325352000.0 -3.553087524455 -104.749713088195
326350000.0 -3.53401761620993 -104.933385499717
327348000.0 -3.54794643336122 -105.091091580122
328346000.0 -3.5519547181572 -105.161745801525
329344000.0 -3.55566515699096 -105.472989425736
330342000.0 -3.55511867326385 -105.625148605833
331340000.0 -3.57547395442598 -105.788386301137
332338000.0 -3.57341718725735 -105.871448569127
333336000.0 -3.5665420345788 -105.842029176082
334334000.0 -3.55668614303186 -106.306474644233
335332000.0 -3.55448318339372 -106.342609535785
336330000.0 -3.56029448138975 -106.695706476534
337328000.0 -3.54601413421772 -106.719103298362
338326000.0 -3.55618251218411 -106.913681819664
339324000.0 -3.55680918812711 -106.926363146845
340322000.0 -3.53167453078959 -107.2689962361
341320000.0 -3.53994511890992 -107.256162395122
342318000.0 -3.52499151425812 -107.633050468825
343316000.0 -3.53080310370183 -107.728997643683
344314000.0 -3.50491102841158 -107.923329840143
345312000.0 -3.51462120355942 -108.176198762572
346310000.0 -3.50626849695809 -108.284469731198
347308000.0 -3.50425744634125 -108.561345232326
348306000.0 -3.51251820373674 -108.766838613635
349304000.0 -3.48904767797868 -108.54055302898
350302000.0 -3.4829515300138 -108.8668817721
351300000.0 -3.49081433569733 -109.060336258207
352298000.0 -3.47087633219009 -109.284625338164
353296000.0 -3.47434160736392 -109.595720197335
354294000.0 -3.45203920335798 -109.607549306159
355292000.0 -3.46005770368712 -109.865978251048
356290000.0 -3.46579284118574 -110.146656338189
357288000.0 -3.43386777280389 -110.323661496262
358286000.0 -3.448231801844 -110.417556785158
359284000.0 -3.4352898404487 -110.704294397759
360282000.0 -3.42015586979925 -110.510007336656
361280000.0 -3.42211365042635 -110.9688179349
362278000.0 -3.45701447381398 -111.076431989323
363276000.0 -3.39778535223774 -111.29373342565
364274000.0 -3.43252332010544 -111.549321749491
365272000.0 -3.41617376253212 -111.69655981461
366270000.0 -3.38559638116509 -111.933416334153
367268000.0 -3.39647528927734 -111.957989397417
368266000.0 -3.41227200819355 -112.359884552221
369264000.0 -3.36192458338297 -112.461672003929
370262000.0 -3.3400847649652 -112.566839456965
371260000.0 -3.37132009409326 -112.995886674847
372258000.0 -3.37254503633545 -113.011437235022
373256000.0 -3.34501128599826 -113.193839390338
374254000.0 -3.3445120299289 -113.4087945817
375252000.0 -3.34941980310326 -113.849320227218
376250000.0 -3.30171525301126 -113.828276146461
377248000.0 -3.33389835776149 -114.115716048807
378246000.0 -3.30492914281619 -114.092874449154
379244000.0 -3.30909979840792 -114.417649405669
380242000.0 -3.28556051485962 -114.512474804189
381240000.0 -3.28359655647108 -114.92771905976
382238000.0 -3.29360309498773 -115.086326394888
383236000.0 -3.27930742309648 -115.327943934947
384234000.0 -3.2743498240774 -115.18619700657
385232000.0 -3.26109776940897 -115.510472957362
386230000.0 -3.26335153318956 -115.791635161717
387228000.0 -3.23380592088822 -116.042208357808
388226000.0 -3.23291283978344 -116.25989369886
389224000.0 -3.2323658471918 -116.302303518038
390222000.0 -3.20617917617291 -116.388146468267
391220000.0 -3.22550701427049 -116.751998599011
392218000.0 -3.20412992941752 -117.00312808489
393216000.0 -3.23243694653671 -117.194335760586
394214000.0 -3.18894155920709 -117.470159586409
395212000.0 -3.18821111931433 -117.595414636872
396210000.0 -3.16846717989997 -117.766941751522
397208000.0 -3.16620078514879 -117.853369997941
398206000.0 -3.16879151397762 -118.109996914611
399204000.0 -3.15503686391125 -118.331733074606
400202000.0 -3.15989464960312 -118.633651525039
401200000.0 -3.14865576778194 -118.633962430804
402198000.0 -3.12732306529125 -118.787662035897
403196000.0 -3.1293382506944 -118.9677321842
404194000.0 -3.09505605896285 -119.363404426293
405192000.0 -3.09535057219655 -119.527787855683
406190000.0 -3.08780828366584 -119.572282268591
407188000.0 -3.09294875666925 -119.917302637661
408186000.0 -3.06928113791058 -120.0463320607
409184000.0 -3.05948694965093 -120.240564009873
410182000.0 -3.08015735323984 -120.495821964899
411180000.0 -3.05647681592881 -120.725841510467
412178000.0 -3.05122773037467 -120.831713946064
413176000.0 -3.03777226805241 -121.1192819807
414174000.0 -3.03022982093434 -121.249087583602
