!Keysight Technologies N9923A: A.08.19
!Date: Thursday, 16 January 2020 11:30:00
!TimeZone: (GMT-03:00) Brasilia!Model: N9923A
!Serial: MY51491501
!GPS Latitude: 
!GPS Longitude: 
!GPS TimeStamp: 0001-01-01 00:00:00Z
!GPS Seconds Since Last Read: 0
!CHECKSUM:1078980270
!Correction: S11(ON U)
!S1P File: Measurement: S11:
# Hz S DB R 50
2000000.0 -2.35189661682279 -30.6007175273553
2998000.0 -4.65542567717836 -45.5297716394533
3996000.0 -9.85161225154548 -59.8792032271022
4994000.0 -23.0604445821544 15.7800135639031
5992000.0 -8.90303430689664 52.2229456254188
6990000.0 -4.63262306430543 37.2647933367366
7988000.0 -2.93842479110716 23.1673665150721
8986000.0 -2.26885203585836 11.6685189252342
9984000.0 -2.09980902205738 2.36006918902377
10982000.0 -2.27608106996496 -5.68864686686201
11980000.0 -2.72785039309535 -12.5000251587973
12978000.0 -3.42980970454751 -17.8337106962969
13976000.0 -4.37673049040455 -20.841041016706
14974000.0 -5.43087727373987 -20.7750016097483
15972000.0 -6.16649480577796 -16.5747115387367
16970000.0 -6.28948531432551 -10.8712232238857
17968000.0 -5.78794603580802 -6.9929525020494
18966000.0 -5.10299220464971 -6.57243739551075
19964000.0 -4.55024782896506 -8.77648419091302
20962000.0 -4.22772316187446 -12.282976691863
21960000.0 -4.13957605415247 -16.200747955405
22958000.0 -4.18981323985937 -19.8099136684845
23956000.0 -4.42976995346314 -23.5416555929719
24954000.0 -4.72208386114206 -26.4520202553333
25952000.0 -5.16540816738694 -29.1673508181267
26950000.0 -5.6006008097533 -30.8876623861019
27948000.0 -6.09177907404411 -32.2469782446367
28946000.0 -6.52853988667603 -33.2662207793136
29944000.0 -7.06131452545844 -34.0611705733082
30942000.0 -7.58508603026183 -34.2304530048316
31940000.0 -8.14140029501633 -34.2615213038712
32938000.0 -8.80193950594196 -33.8792917640458
33936000.0 -9.5004330470739 -31.9832092608766
34934000.0 -10.1689797949292 -29.3146884061474
35932000.0 -10.7404414206801 -24.7995629662276
36930000.0 -11.1737726138308 -19.1330281586677
37928000.0 -11.3180499255949 -12.5527063169027
38926000.0 -11.0957329396121 -6.42217158916126
39924000.0 -10.6298250588174 -1.15660515446838
40922000.0 -10.0414096341403 2.33652907287422
41920000.0 -9.45192467658607 4.74001399390986
42918000.0 -8.87164145146382 5.86548504839462
43916000.0 -8.35454256402113 6.57082184745712
44914000.0 -7.87608459034393 6.38859839388649
45912000.0 -7.45198847758196 6.08614809771833
46910000.0 -7.0596594319079 5.2543630663649
47908000.0 -6.75079016378877 4.29701152040382
48906000.0 -6.47851608540354 3.54263008725002
49904000.0 -6.24498746636276 2.38808193371574
50902000.0 -6.05592740776947 1.41751161070471
51900000.0 -5.8629225405013 0.271573234115953
52898000.0 -5.72789030769481 -0.750895531412628
53896000.0 -5.60636011568198 -1.73318553017109
54894000.0 -5.51698366484624 -2.62464407032821
55892000.0 -5.41110921712029 -3.48057805308349
56890000.0 -5.33213056158292 -4.33441525995584
57888000.0 -5.24546094175167 -5.03943870941087
58886000.0 -5.16258875300812 -5.83408285105233
59884000.0 -5.09063893832327 -6.41580451329211
60882000.0 -5.0177156100303 -7.12619032220258
61880000.0 -4.94081390941555 -7.93222464128269
62878000.0 -4.8487550112556 -8.43437185749243
63876000.0 -4.76858601361587 -9.09588803710697
64874000.0 -4.71831025142967 -9.93295157294579
65872000.0 -4.63859633443011 -10.5120727206236
66870000.0 -4.59817313483689 -10.9674585897156
67868000.0 -4.50746363722697 -11.7057521338317
68866000.0 -4.43644342167383 -12.509337614853
69864000.0 -4.39386830864768 -13.1756667621836
70862000.0 -4.34689678221062 -13.7110315665664
71860000.0 -4.26644095390104 -14.4268687892671
72858000.0 -4.22853044929319 -15.1820025683567
73856000.0 -4.17385323786276 -15.8307765305048
74854000.0 -4.12321971002584 -16.5454271499536
75852000.0 -4.06311734111336 -17.1193592289185
76850000.0 -4.01260649853421 -17.8197013896406
77848000.0 -4.00041179358821 -18.5830049060807
78846000.0 -3.91487873265299 -19.2932810130535
79844000.0 -3.91262755954473 -19.9548507943475
80842000.0 -3.83939045856272 -20.7031746237456
81840000.0 -3.80092700796205 -21.3255043913782
82838000.0 -3.75796418470843 -22.1819381840216
83836000.0 -3.74237673230363 -22.6943629440525
84834000.0 -3.69801623433521 -23.5371059599184
85832000.0 -3.68907483082314 -24.1153931909136
86830000.0 -3.65950952800073 -24.8473113486133
87828000.0 -3.6070048605168 -25.6550055387873
88826000.0 -3.61201872792081 -26.1149617719631
89824000.0 -3.57160231329815 -26.9943482162171
90822000.0 -3.55836769175279 -27.5909544846242
91820000.0 -3.54978544148531 -28.3484925764313
92818000.0 -3.51410278109567 -29.0756293636805
93816000.0 -3.50968424292904 -29.6393632383205
94814000.0 -3.47569741077748 -30.3211171314768
95812000.0 -3.46585658240465 -30.9333065114605
96810000.0 -3.47509000111183 -31.6995475579938
97808000.0 -3.48855270254848 -32.3111739640921
98806000.0 -3.48036232119086 -32.9506809324048
99804000.0 -3.45942340539683 -33.7968001664733
100802000.0 -3.47782384625335 -34.3043693936815
101800000.0 -3.44971190949528 -34.8226266330339
102798000.0 -3.44272406487542 -35.4439453496598
103796000.0 -3.47160641452493 -36.1090301751871
104794000.0 -3.45225760526121 -36.757172598009
105792000.0 -3.44497704730025 -37.1366918492279
106790000.0 -3.46216217684355 -37.7953670188868
107788000.0 -3.45026369300334 -38.3747733733811
108786000.0 -3.43913281092916 -38.7755801963201
109784000.0 -3.43953596342869 -39.4450614676115
110782000.0 -3.45799309422396 -39.9126431341981
111780000.0 -3.48610563495501 -40.5749022612864
112778000.0 -3.44718919629353 -41.0452216235565
113776000.0 -3.46378833082958 -41.5509563544664
114774000.0 -3.45142022028255 -42.1016320315482
115772000.0 -3.44010240007451 -42.5627735725189
116770000.0 -3.47119907943517 -43.0543177033286
117768000.0 -3.43941159185892 -43.4833126853222
118766000.0 -3.45315127501291 -43.998197543388
119764000.0 -3.45020562986365 -44.4154392276594
120762000.0 -3.42339562046797 -45.0644666004703
121760000.0 -3.43977322986255 -45.6635552783213
122758000.0 -3.38957268889913 -46.2425692429414
123756000.0 -3.42503079332665 -46.6305829389912
124754000.0 -3.41935576751735 -47.2231938955459
125752000.0 -3.40669363894986 -47.6617279169674
126750000.0 -3.39752288244801 -48.2646339593835
127748000.0 -3.3949172967026 -48.7673602158026
128746000.0 -3.39090990797425 -49.4774389372369
129744000.0 -3.40238630902079 -50.0343093296712
130742000.0 -3.39487664638561 -50.6709945809722
131740000.0 -3.3980558014973 -51.2313091365474
132738000.0 -3.39144123556527 -51.8401160750962
133736000.0 -3.3911727492618 -52.4046441943306
134734000.0 -3.41303012963087 -52.9648424548025
135732000.0 -3.41745887382607 -53.6480337065115
136730000.0 -3.43547910688668 -54.1880656776917
137728000.0 -3.43798514073295 -54.9144132741525
138726000.0 -3.45849634610575 -55.3809392767649
139724000.0 -3.4788059725514 -55.9839991328079
140722000.0 -3.4800696604248 -56.358634068904
141720000.0 -3.51112503170884 -57.1377147447843
142718000.0 -3.54501797315185 -57.569522254895
143716000.0 -3.56345777825693 -58.3297614689184
144714000.0 -3.59005205550461 -58.8803794687952
145712000.0 -3.63031361934577 -59.2505527163581
146710000.0 -3.66937104010276 -59.8965418430202
147708000.0 -3.70591006170817 -60.2812928187718
148706000.0 -3.74903621611166 -60.8492367969877
149704000.0 -3.80129421750976 -61.3927872993124
150702000.0 -3.84023317341103 -61.7507494662843
151700000.0 -3.89524449061246 -62.1176680399055
152698000.0 -3.93264873566634 -62.5009616199775
153696000.0 -3.96003711231755 -63.0751195910313
154694000.0 -3.98806244654181 -63.1265697522954
155692000.0 -4.03845326111086 -63.5918301403886
156690000.0 -4.06848818023848 -63.8681520299861
157688000.0 -4.12344032970751 -64.1214765342572
158686000.0 -4.15240427164368 -64.2748700152051
159684000.0 -4.18510436661507 -64.5779975087298
160682000.0 -4.23450547581571 -64.8140504113337
161680000.0 -4.25936993829633 -65.0916862514437
162678000.0 -4.29132225566883 -65.2281858975012
163676000.0 -4.31776445799896 -65.3931190453547
164674000.0 -4.3333041008557 -65.4338583032764
165672000.0 -4.38476391335235 -65.6727981791933
166670000.0 -4.40009456108303 -65.7402716919728
167668000.0 -4.41732267607629 -66.07247637872
168666000.0 -4.42271654975804 -66.2977805264697
169664000.0 -4.43584244935456 -66.2507248144029
170662000.0 -4.42090119687997 -66.4971247707573
171660000.0 -4.4589067667738 -66.7405849363369
172658000.0 -4.45510879274838 -66.9249150809617
173656000.0 -4.50203264035194 -66.7482038105754
174654000.0 -4.49162824948784 -67.0006562584396
175652000.0 -4.4940814534466 -67.3446122759444
176650000.0 -4.4878427609362 -67.3118844570218
177648000.0 -4.496712968078 -67.5846339791884
178646000.0 -4.4960490590719 -67.6797448063733
179644000.0 -4.50858576344923 -67.6646903121074
180642000.0 -4.49185380221018 -67.9871018621349
181640000.0 -4.46924374735139 -68.0342534245962
182638000.0 -4.45865368773017 -68.2007919499349
183636000.0 -4.47531332657405 -68.4051762695653
184634000.0 -4.46904986164935 -68.5176641381458
185632000.0 -4.46687653769626 -68.6236524308795
186630000.0 -4.43151197924734 -68.8886296003953
187628000.0 -4.44164857279968 -69.0096423894852
188626000.0 -4.39840104354283 -69.3301726462065
189624000.0 -4.42658178969034 -69.3478749162786
190622000.0 -4.42003206103164 -69.6384572117843
191620000.0 -4.39375771276011 -69.7469577451459
192618000.0 -4.39441524813088 -70.1376917484201
193616000.0 -4.38778565316578 -70.365536924948
194614000.0 -4.34527284284569 -70.4135708509307
195612000.0 -4.35542879022572 -70.4328017439789
196610000.0 -4.36063729768199 -70.6605170393449
197608000.0 -4.31506142129818 -70.7691744888758
198606000.0 -4.289656476488 -71.0549164058329
199604000.0 -4.28510140759313 -71.2334282838524
200602000.0 -4.27846562575636 -71.5327833488294
201600000.0 -4.24977039688576 -71.6046744029555
202598000.0 -4.25309047195131 -71.9731073222503
203596000.0 -4.21048512258901 -72.0367000321183
204594000.0 -4.19762770070241 -72.5854076414983
205592000.0 -4.18844896572818 -72.7398590353664
206590000.0 -4.14639617206755 -72.795200309167
207588000.0 -4.15393810015637 -73.1274099113534
208586000.0 -4.14049578906609 -73.2562384208262
209584000.0 -4.13274664905153 -73.7470107425772
210582000.0 -4.09466184632342 -73.7259524243581
211580000.0 -4.09716369435867 -74.13802079082
212578000.0 -4.04768067170423 -74.3929240324188
213576000.0 -4.05355822081037 -74.6207679906117
214574000.0 -4.02851760982986 -74.7451055270099
215572000.0 -4.02331480076729 -75.0906269129875
216570000.0 -4.00732894390677 -75.1906070073905
217568000.0 -3.95615410841881 -75.5259457163586
218566000.0 -3.96698084941862 -75.6741227292532
219564000.0 -3.94351340393028 -76.2646559958968
220562000.0 -3.9011302668306 -76.3839522258574
221560000.0 -3.89385244326773 -76.591035321864
222558000.0 -3.89989559636517 -76.9132226042975
223556000.0 -3.86440185443191 -77.3552086588044
224554000.0 -3.84291355013117 -77.4709479510935
225552000.0 -3.8294649373495 -77.8199092878381
226550000.0 -3.82675454473168 -78.1722467161638
227548000.0 -3.79566346877883 -78.3580127822076
228546000.0 -3.79927675837539 -78.6701570153094
229544000.0 -3.7510288518678 -78.9586846579431
230542000.0 -3.77042017196588 -79.3030037643755
231540000.0 -3.75003982930055 -79.5592935064968
232538000.0 -3.73586206202646 -79.8275843876659
233536000.0 -3.71378395015885 -80.1200017473415
234534000.0 -3.66721016642295 -80.4667470943727
235532000.0 -3.67701956769385 -80.9359519213787
236530000.0 -3.66636318365449 -81.0594328680256
237528000.0 -3.64237642552084 -81.5378727831704
238526000.0 -3.62866363403951 -81.729309779032
239524000.0 -3.61608761619641 -82.1144532042343
240522000.0 -3.58155522516619 -82.5481103607102
241520000.0 -3.5561667596908 -82.7896878715712
242518000.0 -3.57664071029492 -83.1653640057688
243516000.0 -3.5851211490213 -83.4839985823213
244514000.0 -3.57444875144641 -83.8653031748843
245512000.0 -3.54743327779053 -84.1526362658613
246510000.0 -3.5376817032304 -84.5448400625821
247508000.0 -3.54220442814355 -84.7995793855895
248506000.0 -3.49500250964551 -84.9901161938409
249504000.0 -3.49821131696256 -85.5449173480923
250502000.0 -3.48464392320147 -85.6345957689814
251500000.0 -3.48255612313381 -86.193632621882
252498000.0 -3.46428531271565 -86.4777176563257
253496000.0 -3.47831357714683 -86.8666771672836
254494000.0 -3.48952160927924 -87.3047476709794
255492000.0 -3.42913209905395 -87.4986165012241
256490000.0 -3.47367854963373 -87.8273311269391
257488000.0 -3.42783892838121 -88.2040016238811
258486000.0 -3.45896523308928 -88.5521661894287
259484000.0 -3.44501830696114 -88.9380652015489
260482000.0 -3.4332759775529 -89.2666164631812
261480000.0 -3.44316850630766 -89.6124175872156
262478000.0 -3.41479111501233 -90.0143156169648
263476000.0 -3.42630720110097 -90.0885223263114
264474000.0 -3.43826377920081 -90.3768947152866
265472000.0 -3.43868370313853 -90.8369095340648
266470000.0 -3.40805425169697 -91.1223127096867
267468000.0 -3.43041407566582 -91.4876443476045
268466000.0 -3.42004882434406 -91.8764449235847
269464000.0 -3.41280226669993 -91.9188667212486
270462000.0 -3.43978678982898 -92.4042505218222
271460000.0 -3.43496113673934 -92.6555514648671
272458000.0 -3.41391961544884 -92.9827507326605
273456000.0 -3.44025301116902 -93.3145698591253
274454000.0 -3.43265123315012 -93.5798328243436
275452000.0 -3.41623084444114 -93.8727168871547
276450000.0 -3.42990646397866 -94.1697366026335
277448000.0 -3.43354272097578 -94.4421866084145
278446000.0 -3.44316610439026 -94.830756210266
279444000.0 -3.46632361067432 -95.1607258947069
280442000.0 -3.40759947082964 -95.4427594063469
281440000.0 -3.4380849119235 -95.8288709996862
282438000.0 -3.43876091194956 -96.1514781133691
283436000.0 -3.46122799790558 -96.2185060927237
284434000.0 -3.4478619500103 -96.4450993687663
285432000.0 -3.44624095424696 -96.9244738218026
286430000.0 -3.44104203664583 -97.2037694871925
287428000.0 -3.48502274097453 -97.447393139125
288426000.0 -3.44315830366714 -97.5342993432795
289424000.0 -3.4597935101237 -97.9148210385215
290422000.0 -3.4709474190905 -98.1072993305808
291420000.0 -3.4705851907034 -98.515190474902
292418000.0 -3.47547313665518 -98.6661170389411
293416000.0 -3.48771199832847 -98.9525431915029
294414000.0 -3.4832696916712 -98.971510209173
295412000.0 -3.48539468984454 -99.2632970814634
296410000.0 -3.51587541445884 -99.6412058232522
297408000.0 -3.5068064113751 -99.9055329762905
298406000.0 -3.5486343441453 -100.10452889382
299404000.0 -3.53975311476215 -100.286408274917
300402000.0 -3.52604656194183 -100.406967846887
301400000.0 -3.50797189185701 -100.721801692365
302398000.0 -3.53011096122359 -100.8790036647
303396000.0 -3.53869374256901 -101.102887834582
304394000.0 -3.547617828161 -101.288827171808
305392000.0 -3.54933236586429 -101.528572180166
306390000.0 -3.5390751103597 -101.729747966061
307388000.0 -3.57268255178224 -101.909297702965
308386000.0 -3.5418385465119 -102.019867972327
309384000.0 -3.54859260641804 -102.25180311176
310382000.0 -3.54668898953403 -102.561047844428
311380000.0 -3.56673008444689 -102.790454560042
312378000.0 -3.55799548719195 -102.661362476419
313376000.0 -3.56262781194649 -102.800137525098
314374000.0 -3.59059916463136 -103.212637985329
315372000.0 -3.56901793955132 -103.264159799451
316370000.0 -3.56716439783907 -103.590365778497
317368000.0 -3.57235956076813 -103.619687479279
318366000.0 -3.57015797394121 -103.921735928406
319364000.0 -3.56196222560793 -104.003875051119
320362000.0 -3.55391510819943 -104.08938296148
321360000.0 -3.5501662105418 -104.329219683991
322358000.0 -3.55757374184724 -104.559369527927
323356000.0 -3.55995628052175 -104.714475159409
324354000.0 -3.54528986130276 -104.866044941289
325352000.0 -3.53404309659216 -105.14652340414
326350000.0 -3.52891108331409 -105.291441767809
327348000.0 -3.52697344860043 -105.445066926104
328346000.0 -3.54654465217343 -105.530957558697
329344000.0 -3.50758637384568 -105.832917592059
330342000.0 -3.53022196435638 -106.033845489977
331340000.0 -3.5312823553985 -106.235321189637
332338000.0 -3.52265165034884 -106.404573775046
333336000.0 -3.52679139849789 -106.304917329986
334334000.0 -3.51719620905654 -106.835881898776
335332000.0 -3.49596163587067 -106.849873066023
336330000.0 -3.51487288020927 -107.221355770055
337328000.0 -3.48950068594445 -107.321447626413
338326000.0 -3.50782731332834 -107.663977780754
339324000.0 -3.50145225605262 -107.586839117653
340322000.0 -3.50202963157057 -107.919190633875
341320000.0 -3.48093160630877 -107.931182809878
342318000.0 -3.48720043569257 -108.328850291885
343316000.0 -3.46313254732349 -108.567309205115
344314000.0 -3.46529277139209 -108.720424954346
345312000.0 -3.47247817921666 -108.751482600856
346310000.0 -3.47375971400202 -108.973204244207
347308000.0 -3.45981490671631 -109.339746385055
348306000.0 -3.46463361102156 -109.502191966095
349304000.0 -3.45135765614388 -109.442648188318
350302000.0 -3.43330997331527 -109.788940739658
351300000.0 -3.43146177066882 -109.942505311939
352298000.0 -3.44546190983549 -110.137919864088
353296000.0 -3.44825824203893 -110.505827785217
354294000.0 -3.45964832843046 -110.538605881539
355292000.0 -3.4230874602738 -110.750832451776
356290000.0 -3.45012350244146 -111.013408808252
357288000.0 -3.41885577268307 -111.414620293872
358286000.0 -3.45007449536771 -111.37007635791
359284000.0 -3.4006130396073 -111.551023773356
360282000.0 -3.39382027909414 -111.703242157475
361280000.0 -3.42106901894428 -112.03604618644
362278000.0 -3.41962956968816 -112.199584926029
363276000.0 -3.40161434311188 -112.374512188898
364274000.0 -3.42127544002293 -112.518650949793
365272000.0 -3.4020687823605 -112.649491968082
366270000.0 -3.38581784333827 -112.857635215334
367268000.0 -3.40187748597903 -113.108400892588
368266000.0 -3.39244749129884 -113.322051009321
369264000.0 -3.37293736421251 -113.562494604393
370262000.0 -3.36067086837335 -113.533197242788
371260000.0 -3.3919329314533 -113.802852790206
372258000.0 -3.37935169055976 -113.881344029719
373256000.0 -3.38569198153451 -114.188803149431
374254000.0 -3.36850034720484 -114.208437878287
375252000.0 -3.3583725789055 -114.789005281669
376250000.0 -3.34184979803809 -114.800144468562
377248000.0 -3.36900964125903 -114.921488673964
378246000.0 -3.33018499666527 -115.118049102078
379244000.0 -3.312143034726 -115.279115137971
380242000.0 -3.30233801720299 -115.426283470438
381240000.0 -3.29905401848241 -115.782393624625
382238000.0 -3.31798666028733 -115.837551773632
383236000.0 -3.30233574952549 -116.095176653381
384234000.0 -3.30247243336155 -116.086188696247
385232000.0 -3.29530851891706 -116.297754331054
386230000.0 -3.28441332048602 -116.61311001701
387228000.0 -3.27672216727551 -116.818191089206
388226000.0 -3.25828673763448 -117.08270444424
389224000.0 -3.27296882931232 -116.958105613935
390222000.0 -3.23803753986914 -117.189589651663
391220000.0 -3.26239692709032 -117.487775342776
392218000.0 -3.25280277936959 -117.833765348508
393216000.0 -3.2500353500601 -117.941013987933
394214000.0 -3.20896724448439 -118.120763235934
395212000.0 -3.23077003284255 -118.343706057409
396210000.0 -3.2149576939032 -118.454827863955
397208000.0 -3.22112644212617 -118.383263237155
398206000.0 -3.18845719688486 -118.764940089852
399204000.0 -3.1827750175274 -118.866898422998
400202000.0 -3.1931053985823 -119.202061590433
401200000.0 -3.16811085649988 -119.219094938005
402198000.0 -3.15862827458148 -119.472007763867
403196000.0 -3.15844457846283 -119.556939325336
404194000.0 -3.14918043611254 -119.749869757185
405192000.0 -3.12284164796505 -120.089145163291
406190000.0 -3.16317280197398 -120.411843847727
407188000.0 -3.17444914415979 -120.693976500397
408186000.0 -3.1665994511085 -120.746557978084
409184000.0 -3.1513205847655 -120.95290353806
410182000.0 -3.17740553423788 -121.177737178159
411180000.0 -3.1353669378856 -121.239613858135
412178000.0 -3.16173923269238 -121.431280397004
413176000.0 -3.13085474636045 -121.703578631728
414174000.0 -3.14098891724385 -121.857126169776
