!Keysight Technologies N9923A: A.08.19
!Date: Thursday, 16 January 2020 11:30:00
!TimeZone: (GMT-03:00) Brasilia!Model: N9923A
!Serial: MY51491501
!GPS Latitude: 
!GPS Longitude: 
!GPS TimeStamp: 0001-01-01 00:00:00Z
!GPS Seconds Since Last Read: 0
!CHECKSUM:1078980270
!Correction: S11(ON U)
!S1P File: Measurement: S11:
# Hz S DB R 50
2000000.0 -3.55233377710276 -34.5834216392457
2998000.0 -7.32636451959518 -46.529484754486
3996000.0 -14.9925318915026 -29.858638331015
4994000.0 -11.5725106348749 36.8838329225923
5992000.0 -6.25567631862581 34.3639607303599
6990000.0 -3.96474661403781 23.2898590413238
7988000.0 -3.01858165206597 12.6565131758398
8986000.0 -2.74573935091591 3.33998066571136
9984000.0 -2.85108246309614 -4.33354080994593
10982000.0 -3.23027301715679 -10.4370216982667
11980000.0 -3.86183995985212 -15.020787191356
12978000.0 -4.60865778079935 -17.3582500515131
13976000.0 -5.35529247483165 -16.8755883525818
14974000.0 -5.80577582092975 -14.5962294742152
15972000.0 -5.83240360328899 -11.6686979359723
16970000.0 -5.57211848650115 -10.0681205746978
17968000.0 -5.19999626837229 -10.3631511068086
18966000.0 -4.92665261702164 -12.2288489426541
19964000.0 -4.76897245658771 -14.9084213303288
20962000.0 -4.75838034423837 -18.0750018007826
21960000.0 -4.8928038342386 -20.9921599682931
22958000.0 -5.13985582347833 -23.5713397454243
23956000.0 -5.44602059768961 -25.8292350254183
24954000.0 -5.80439927562283 -27.5752031499064
25952000.0 -6.2108405992339 -29.0293035622849
26950000.0 -6.58110771686632 -29.9511100716479
27948000.0 -6.99237585815733 -30.7102414739732
28946000.0 -7.4211708061911 -31.4552316102911
29944000.0 -7.85574892850093 -31.9396143498031
30942000.0 -8.4008879335954 -31.8129492679203
31940000.0 -9.00004581369393 -31.7952325712375
32938000.0 -9.66484894749739 -30.5842382673578
33936000.0 -10.3872341773595 -27.7886829492564
34934000.0 -11.0253711925146 -24.153212602075
35932000.0 -11.4805117532762 -18.3449597991115
36930000.0 -11.7084628574893 -11.7032519602313
37928000.0 -11.5550559563203 -4.89650890395531
38926000.0 -11.1192020931391 1.08208155391465
39924000.0 -10.4406663297427 5.6710385362351
40922000.0 -9.79636815841164 8.16350483055154
41920000.0 -9.10487447476287 9.63354808896171
42918000.0 -8.48490050899023 10.1593541222683
43916000.0 -7.92731443721254 9.91636713720516
44914000.0 -7.44855337105567 9.23302325368157
45912000.0 -7.04182082407856 8.28671331285116
46910000.0 -6.66489004553891 7.1113405772867
47908000.0 -6.37772335877219 5.72564036858808
48906000.0 -6.10519122372773 4.62379474362865
49904000.0 -5.90173791369554 3.13610071208952
50902000.0 -5.74530667545229 1.74747501991776
51900000.0 -5.57584940632141 0.538457332528414
52898000.0 -5.44627894602322 -0.776012317571644
53896000.0 -5.3555439837889 -1.88879375701461
54894000.0 -5.23856812224085 -3.08541377510116
55892000.0 -5.15374338545295 -4.11815657969732
56890000.0 -5.11113151710122 -5.11200018831225
57888000.0 -5.02098744806032 -6.05839167437412
58886000.0 -4.95750106966721 -7.03803909378807
59884000.0 -4.92332201733722 -7.88674518447019
60882000.0 -4.86953671123889 -8.87925240241719
61880000.0 -4.83816255694802 -9.81441557435386
62878000.0 -4.80581674636464 -10.5990584291706
63876000.0 -4.77972767811409 -11.40752983364
64874000.0 -4.74256329363855 -12.2242703153603
65872000.0 -4.72037792934169 -12.8750333381966
66870000.0 -4.71974597227186 -13.5923078730945
67868000.0 -4.67807259271952 -14.3311187710501
68866000.0 -4.67986741827411 -15.1349050302523
69864000.0 -4.67143649964603 -15.6644908466265
70862000.0 -4.67867263226673 -16.1462482088934
71860000.0 -4.64835583961144 -16.8579996976654
72858000.0 -4.62402032197922 -17.3246619734749
73856000.0 -4.61898094586763 -17.8620068421453
74854000.0 -4.59461142658233 -18.4477451501681
75852000.0 -4.58133317584969 -18.7683247225978
76850000.0 -4.56225626807917 -19.3975874908665
77848000.0 -4.57022777511279 -19.8642331591465
78846000.0 -4.53417728210727 -20.1949268865188
79844000.0 -4.52802483467968 -20.8301363260847
80842000.0 -4.48077121798832 -21.1405595798261
81840000.0 -4.48352770534755 -21.7139751350994
82838000.0 -4.44594876829881 -22.0505513255328
83836000.0 -4.42038246903915 -22.5026641440653
84834000.0 -4.40065479632024 -22.8601041757302
85832000.0 -4.39521201030068 -23.2744009222833
86830000.0 -4.35258212626266 -23.7297575266751
87828000.0 -4.30699521140298 -24.224473756176
88826000.0 -4.29697092861933 -24.5404547841324
89824000.0 -4.2563496905015 -24.9749952087247
90822000.0 -4.22694904135907 -25.5378265061111
91820000.0 -4.20596457821545 -25.8720864974652
92818000.0 -4.16281089296702 -26.4453296749723
93816000.0 -4.10667593161896 -26.6259613266873
94814000.0 -4.08073420256721 -27.1475102157512
95812000.0 -4.04912479771022 -27.6222720884343
96810000.0 -4.04427592318424 -28.1136231900092
97808000.0 -4.000807392374 -28.6268775521189
98806000.0 -3.96791737741263 -29.0051595603207
99804000.0 -3.90476174428533 -29.7253658681632
100802000.0 -3.87225762263456 -30.0475088385181
101800000.0 -3.82818590160908 -30.6176897183038
102798000.0 -3.77923047525167 -31.0693730802875
103796000.0 -3.7751436851409 -31.6788286482272
104794000.0 -3.74350098263629 -32.3450388723946
105792000.0 -3.70525382442824 -32.7637291365181
106790000.0 -3.67375428371226 -33.3564026587492
107788000.0 -3.64325964171 -34.0701930803826
108786000.0 -3.58268486817874 -34.5548407521564
109784000.0 -3.57827819463162 -35.1911942439864
110782000.0 -3.54937531434638 -35.8340580730233
111780000.0 -3.55295690874122 -36.5238635431297
112778000.0 -3.50054535601525 -37.2111428057599
113776000.0 -3.51636193347179 -37.6924789863691
114774000.0 -3.48098664831816 -38.563858021569
115772000.0 -3.44635656157893 -38.9061960706154
116770000.0 -3.46181764707146 -39.5929412103326
117768000.0 -3.44510582154435 -40.0651163430608
118766000.0 -3.43570476886498 -40.9076249849458
119764000.0 -3.42088942900852 -41.2461851179581
120762000.0 -3.41286540420079 -42.0654657354379
121760000.0 -3.41293127377472 -42.6934482844319
122758000.0 -3.39452960912553 -43.421185941214
123756000.0 -3.42991363217336 -43.8276683099272
124754000.0 -3.40088570303714 -44.4911481969121
125752000.0 -3.40350266501879 -44.9327722668551
126750000.0 -3.39931476718812 -45.6232728762983
127748000.0 -3.39532234876865 -46.1825795212315
128746000.0 -3.4090500841007 -46.8003728272364
129744000.0 -3.42307359353669 -47.3719964762076
130742000.0 -3.43112924719386 -48.0690803812251
131740000.0 -3.43146280361809 -48.6077409094067
132738000.0 -3.43801181120009 -49.0401097427289
133736000.0 -3.43820904383169 -49.644757404027
134734000.0 -3.4508026626193 -50.1863651656253
135732000.0 -3.46081494646931 -50.6323556144212
136730000.0 -3.48186051805657 -51.292952655374
137728000.0 -3.48918195752697 -51.874828879333
138726000.0 -3.50393487734505 -52.3630351128145
139724000.0 -3.49101019455485 -52.9487806859215
140722000.0 -3.53364413944785 -53.375235433232
141720000.0 -3.52982950279184 -53.8245873022158
142718000.0 -3.54059263827515 -54.209185120346
143716000.0 -3.56133633347724 -55.0159337909315
144714000.0 -3.5986872297 -55.352008525816
145712000.0 -3.60130952702198 -55.7773528858344
146710000.0 -3.62673988559664 -56.4005602055849
147708000.0 -3.65686886370973 -56.7352042052675
148706000.0 -3.68823737404149 -57.291283376599
149704000.0 -3.68079529729604 -57.7618876406542
150702000.0 -3.72493864903577 -58.1183478263874
151700000.0 -3.7321795042301 -58.521768965655
152698000.0 -3.79183171505313 -58.8879806702808
153696000.0 -3.80498149894135 -59.4315328119245
154694000.0 -3.815185746813 -59.7621539327255
155692000.0 -3.84575937607769 -60.0096271868741
156690000.0 -3.87071713834013 -60.3746947855605
157688000.0 -3.8944505971634 -60.6937306539423
158686000.0 -3.91575179786498 -61.1247207318163
159684000.0 -3.95017994135542 -61.2094087234422
160682000.0 -3.97258409147034 -61.5588137579856
161680000.0 -3.98956148152224 -61.9755284638788
162678000.0 -4.0175880983802 -62.2262515658311
163676000.0 -4.01109321248162 -62.4535416410023
164674000.0 -4.03127804242133 -62.6185261493755
165672000.0 -4.06874298385863 -62.9248407876915
166670000.0 -4.06586534330987 -63.050036419703
167668000.0 -4.07687745892068 -63.2987411266391
168666000.0 -4.06528717987595 -63.6952869361394
169664000.0 -4.08367922974175 -63.8158696553743
170662000.0 -4.08587297721256 -63.9720769412589
171660000.0 -4.10478108185782 -64.3392938519736
172658000.0 -4.09683132335183 -64.6531867569933
173656000.0 -4.11492303910792 -64.6193891492305
174654000.0 -4.10120365401583 -65.0244400645772
175652000.0 -4.11000612494064 -65.1948338492351
176650000.0 -4.13990247711503 -65.4798671347009
177648000.0 -4.12234602506942 -65.7090382313205
178646000.0 -4.11836475390469 -65.775649856869
179644000.0 -4.1231823304012 -65.9990058409424
180642000.0 -4.10597167575916 -66.337191174799
181640000.0 -4.05938159964713 -66.2442797140803
182638000.0 -4.08069216590848 -66.6871684426434
183636000.0 -4.08234149948506 -66.9334413768648
184634000.0 -4.09527996236772 -67.0160678250287
185632000.0 -4.0888544462298 -67.3888703519273
186630000.0 -4.05400959086504 -67.7023577391306
187628000.0 -4.05000188307522 -67.7974414740384
188626000.0 -4.04319564509458 -68.1689637476862
189624000.0 -4.03779068008283 -68.3088727212979
190622000.0 -4.0303807481279 -68.4478088813113
191620000.0 -4.01528489409183 -68.8192872452124
192618000.0 -4.00975190533342 -68.9392846939808
193616000.0 -3.99664925832686 -69.2052826467751
194614000.0 -3.9636197905038 -69.5470315167681
195612000.0 -3.9630708936693 -69.7290516885514
196610000.0 -3.97232733686097 -69.6705323183446
197608000.0 -3.92878114182129 -70.1675821854724
198606000.0 -3.92067705903299 -70.4535863476104
199604000.0 -3.90330835633356 -70.7361233219988
200602000.0 -3.90995388125141 -71.1329230699232
201600000.0 -3.88714711308667 -71.1965169315607
202598000.0 -3.86498010315583 -71.5395469626903
203596000.0 -3.84923061507496 -71.736097661303
204594000.0 -3.83001555904552 -72.1854473031605
205592000.0 -3.82972916404974 -72.5177027088418
206590000.0 -3.80218038284609 -72.6689749048229
207588000.0 -3.80279640791992 -72.9434289459067
208586000.0 -3.78897643442841 -73.1390178426427
209584000.0 -3.78341066430581 -73.6830016268131
210582000.0 -3.72878683260467 -73.7946254263757
211580000.0 -3.76249179947876 -74.2739728314938
212578000.0 -3.70571326110714 -74.4214143276475
213576000.0 -3.71468095187656 -74.8149503580115
214574000.0 -3.69318265361742 -74.9955837116681
215572000.0 -3.71568764500432 -75.3302007541654
216570000.0 -3.68167345192292 -75.5296225323364
217568000.0 -3.66207728883527 -75.8495678796745
218566000.0 -3.67103143681995 -76.0558316735605
219564000.0 -3.64806377286432 -76.5678533202001
220562000.0 -3.61600785950976 -76.8496757942562
221560000.0 -3.62383204045213 -77.002751809237
222558000.0 -3.62935294036026 -77.3909256006598
223556000.0 -3.60853795505484 -77.8414426800325
224554000.0 -3.59374734436123 -78.166883366249
225552000.0 -3.60053156146309 -78.3797563695355
226550000.0 -3.5875401663339 -78.8917123340625
227548000.0 -3.56776592022034 -78.9843929699575
228546000.0 -3.5694114025253 -79.2105285569697
229544000.0 -3.53786198748857 -79.6499646344653
230542000.0 -3.54569964223938 -80.0790947874341
231540000.0 -3.55274486639442 -80.1105828301101
232538000.0 -3.53603410370187 -80.5256185819505
233536000.0 -3.51134499933568 -80.8283391788141
234534000.0 -3.49396681390467 -81.198979431324
235532000.0 -3.50846949056472 -81.4290536094638
236530000.0 -3.48247142510651 -81.6929570065871
237528000.0 -3.46747006957131 -82.1869091572627
238526000.0 -3.46605894086002 -82.3375326047054
239524000.0 -3.45632397535526 -82.8356731345775
240522000.0 -3.44330386709386 -83.0628185233446
241520000.0 -3.41182754769496 -83.410837634113
242518000.0 -3.44636381660682 -83.7172002273089
243516000.0 -3.43557838517548 -84.007110797242
244514000.0 -3.43543992972979 -84.514247525463
245512000.0 -3.41098266359894 -84.7229446596745
246510000.0 -3.41547269268293 -85.1964099636764
247508000.0 -3.40839568818773 -85.466854264243
248506000.0 -3.37284702614956 -85.576261284596
249504000.0 -3.37956157447648 -86.0446290057547
250502000.0 -3.37282783655374 -86.4029495823539
251500000.0 -3.3822862922049 -86.7715897271782
252498000.0 -3.37361649665217 -87.1252266331941
253496000.0 -3.36241135725039 -87.2975252737818
254494000.0 -3.37412411135319 -87.6815318623274
255492000.0 -3.3251792076375 -88.0713377518168
256490000.0 -3.36020585442913 -88.3297792650475
257488000.0 -3.33396517161877 -88.7323635525577
258486000.0 -3.36659352346538 -88.9667166430598
259484000.0 -3.36665223058432 -89.4506216447568
260482000.0 -3.3380280558451 -89.5947583177824
261480000.0 -3.34990682587118 -90.0915571690787
262478000.0 -3.33562169775199 -90.5617402833055
263476000.0 -3.34304941712699 -90.6302179281953
264474000.0 -3.3364011097258 -90.7836628544435
265472000.0 -3.32685374734444 -91.2697048583933
266470000.0 -3.32014943109337 -91.7673427731373
267468000.0 -3.33562158860281 -91.9471569496863
268466000.0 -3.31879694536733 -92.4346922802217
269464000.0 -3.31743696901381 -92.5410261459025
270462000.0 -3.31933240331146 -93.0103802994594
271460000.0 -3.32307943355338 -93.1591954199014
272458000.0 -3.33409123807707 -93.5381928308509
273456000.0 -3.32236705308877 -93.8035586270387
274454000.0 -3.31708638066717 -94.1360754028139
275452000.0 -3.31853446112613 -94.5309216111908
276450000.0 -3.32280386917824 -94.7367375200451
277448000.0 -3.32468009774179 -95.1313872276279
278446000.0 -3.33098047563948 -95.3156277428222
279444000.0 -3.35868235999403 -95.7202439244688
280442000.0 -3.30770124179748 -96.0994188563239
281440000.0 -3.33722890486849 -96.4029409835867
282438000.0 -3.31978169498958 -96.7560893006949
283436000.0 -3.35665350027419 -96.8414979351327
284434000.0 -3.35677325169438 -97.2245746435592
285432000.0 -3.3438121008127 -97.7376305666869
286430000.0 -3.36936603104804 -97.9779944583843
287428000.0 -3.39051233676655 -98.2509212847686
288426000.0 -3.3595469052447 -98.2801496107039
289424000.0 -3.37879699909152 -98.6598498332403
290422000.0 -3.39722064189275 -99.0742873272605
291420000.0 -3.41515399517041 -99.4018073882039
292418000.0 -3.39804639018586 -99.6702169964391
293416000.0 -3.43422867169315 -99.6977924474623
294414000.0 -3.43016968366087 -99.9460865388166
295412000.0 -3.42981963120072 -100.155915943627
296410000.0 -3.43855073311518 -100.433494514145
297408000.0 -3.4310306730178 -100.752681549002
298406000.0 -3.45091859708719 -101.254447632221
299404000.0 -3.47028390074697 -101.206290925492
300402000.0 -3.4846681504429 -101.541692377964
301400000.0 -3.48190997447461 -101.841771614486
302398000.0 -3.51069675654957 -101.926707082722
303396000.0 -3.49705062664269 -102.267918291099
304394000.0 -3.52624608535052 -102.499142621249
305392000.0 -3.54758757822131 -102.605794883315
306390000.0 -3.52510183158993 -102.800218933665
307388000.0 -3.54800874259094 -102.85265709092
308386000.0 -3.55880926774423 -103.131805981891
309384000.0 -3.54878168311786 -103.42979354296
310382000.0 -3.56472631785164 -103.565512321277
311380000.0 -3.59193712258228 -103.813760453152
312378000.0 -3.5987730164536 -103.771161399911
313376000.0 -3.59157207503888 -104.111108183785
314374000.0 -3.59522640156384 -104.273884466574
315372000.0 -3.61141104377203 -104.372376677904
316370000.0 -3.62406246760721 -104.602214852547
317368000.0 -3.62999750577409 -104.735864351157
318366000.0 -3.65285399401414 -104.898791925676
319364000.0 -3.64319106015103 -105.154963190175
320362000.0 -3.6292418764122 -105.044100657911
321360000.0 -3.62473532902331 -105.433206330505
322358000.0 -3.65430521979822 -105.643831837902
323356000.0 -3.654736841363 -105.671624012435
324354000.0 -3.64643713263289 -105.734908982849
325352000.0 -3.63275114210285 -105.965049697368
326350000.0 -3.63613153484187 -106.067672728994
327348000.0 -3.63714397645069 -106.207027507675
328346000.0 -3.64807778152625 -106.337772458868
329344000.0 -3.63273594659527 -106.571590057264
330342000.0 -3.64617239696603 -106.750725294137
331340000.0 -3.66102489446385 -106.980727352351
332338000.0 -3.63462254261316 -107.057775870211
333336000.0 -3.65669261218664 -106.86207906279
334334000.0 -3.6430074325106 -107.382061052806
335332000.0 -3.62880396863402 -107.493232972928
336330000.0 -3.6417589605633 -107.755840757058
337328000.0 -3.6450717167772 -107.956364600162
338326000.0 -3.64167340952692 -107.981173803706
339324000.0 -3.63798455110294 -108.080701430339
340322000.0 -3.61956495198359 -108.459048069135
341320000.0 -3.59416258386438 -108.474670070095
342318000.0 -3.60486120333525 -108.761481581067
343316000.0 -3.60482145726237 -108.874043949073
344314000.0 -3.57664862957119 -109.060946346683
345312000.0 -3.59204628745507 -109.192248663522
346310000.0 -3.58071264842981 -109.359493129525
347308000.0 -3.56822554039846 -109.687402274377
348306000.0 -3.5870048149081 -109.786297047579
349304000.0 -3.56640428865093 -109.828596284723
350302000.0 -3.5581093284085 -109.985788345314
351300000.0 -3.56297616410406 -110.193453857753
352298000.0 -3.54570533124887 -110.442968002691
353296000.0 -3.5491514024372 -110.698097966645
354294000.0 -3.53652172877844 -110.826952589695
355292000.0 -3.52029134495908 -111.09197837576
356290000.0 -3.54774572141455 -111.239007520604
357288000.0 -3.5181213036165 -111.457824149031
358286000.0 -3.52967677477775 -111.715984555134
359284000.0 -3.50141472648897 -111.798828738858
360282000.0 -3.49756662806005 -111.839948959719
361280000.0 -3.50716462243184 -112.209533367082
362278000.0 -3.542348267724 -112.25612832244
363276000.0 -3.49563922842539 -112.541548120293
364274000.0 -3.50880335010424 -112.890612214801
365272000.0 -3.4813707373614 -113.007276283375
366270000.0 -3.48690070048205 -113.117363565232
367268000.0 -3.45678470037326 -113.295536797305
368266000.0 -3.49054774832975 -113.519810254333
369264000.0 -3.46557966129578 -113.7257513765
370262000.0 -3.45263121890984 -113.764176175061
371260000.0 -3.48863467298509 -114.091456340188
372258000.0 -3.46156958939883 -114.275642056721
373256000.0 -3.45440713119959 -114.36208656586
374254000.0 -3.44670063916865 -114.611307807671
375252000.0 -3.44947038851818 -115.064111199227
376250000.0 -3.4264075296217 -115.02586291938
377248000.0 -3.42584723139739 -115.287078851697
378246000.0 -3.4298366835668 -115.343332799474
379244000.0 -3.40625354434851 -115.634953000079
380242000.0 -3.378992068516 -115.687117325952
381240000.0 -3.39880899394062 -116.096391575022
382238000.0 -3.38216078616702 -116.272181866923
383236000.0 -3.38937453283943 -116.380893668404
384234000.0 -3.36005675066679 -116.401101083889
385232000.0 -3.36022969819438 -116.746488538416
386230000.0 -3.34928675799923 -117.004338655373
387228000.0 -3.33583323061183 -117.214738292531
388226000.0 -3.35295788486872 -117.447007971631
389224000.0 -3.34074250130269 -117.459774436439
390222000.0 -3.32849482803851 -117.656175555874
391220000.0 -3.35183004452951 -118.001003939978
392218000.0 -3.31661745949587 -118.268951424911
393216000.0 -3.33329591565791 -118.392880319528
394214000.0 -3.29536987046834 -118.625370075639
395212000.0 -3.28990641840154 -118.72788276671
396210000.0 -3.31214309886288 -118.846333352646
397208000.0 -3.30316882224057 -119.113482242515
398206000.0 -3.2801206666195 -119.399045835696
399204000.0 -3.29307610686173 -119.53235762619
400202000.0 -3.28997708784122 -119.759205704176
401200000.0 -3.26813172052807 -119.879550498713
402198000.0 -3.25653142083382 -120.082527668972
403196000.0 -3.27168039752673 -120.188368609652
404194000.0 -3.25496048031313 -120.320257076469
405192000.0 -3.23265823917794 -120.769292801916
406190000.0 -3.25162819791596 -120.945846898789
407188000.0 -3.23154520184578 -121.119314169215
408186000.0 -3.22391292717216 -121.19749292317
409184000.0 -3.22737649002082 -121.422924061084
410182000.0 -3.25371986513257 -121.653964023146
411180000.0 -3.22491410419256 -121.922490989968
412178000.0 -3.21095786549236 -121.919899744076
413176000.0 -3.20121002777166 -122.180085424355
414174000.0 -3.21736790553153 -122.350843650912
