!Keysight Technologies N9923A: A.08.19
!Date: Thursday, 16 January 2020 11:30:00
!TimeZone: (GMT-03:00) Brasilia!Model: N9923A
!Serial: MY51491501
!GPS Latitude: 
!GPS Longitude: 
!GPS TimeStamp: 0001-01-01 00:00:00Z
!GPS Seconds Since Last Read: 0
!CHECKSUM:1078980270
!Correction: S11(ON U)
!S1P File: Measurement: S11:
# Hz S DB R 50
2000000.0 -3.16144876568608 -34.1970422893474
2998000.0 -6.42018419935229 -48.769622021675
3996000.0 -13.9969166165609 -50.3332456598267
4994000.0 -14.3951602006854 42.0449021711127
5992000.0 -7.14806068229871 40.9584560032019
6990000.0 -4.40190825684473 28.3377554844614
7988000.0 -3.27717086517214 16.6403080301366
8986000.0 -2.91871539373306 6.84420371013312
9984000.0 -2.94610841481913 -1.15067491359617
10982000.0 -3.26790981227507 -7.65131717800469
11980000.0 -3.87929257705042 -12.8198192790258
12978000.0 -4.64942416789724 -15.9543893763767
13976000.0 -5.52190460822342 -16.2179173864961
14974000.0 -6.19203538093214 -13.9876450240477
15972000.0 -6.39061772445033 -9.95089031653651
16970000.0 -6.14826418976119 -6.71029906586744
17968000.0 -5.71087395176499 -5.79499805042185
18966000.0 -5.32723360674082 -6.86277151219557
19964000.0 -5.07865136497645 -9.40272456682621
20962000.0 -5.01256814839177 -12.2077083731329
21960000.0 -5.11435871956032 -15.0881004642829
22958000.0 -5.3515802952904 -17.7300282618986
23956000.0 -5.71153225059412 -19.7211328502693
24954000.0 -6.07095765784754 -20.9577449189736
25952000.0 -6.53721192587994 -21.4111976362046
26950000.0 -6.87565709833038 -21.0631971756946
27948000.0 -7.22183141802223 -20.4505132063013
28946000.0 -7.48164250926492 -19.9052419045259
29944000.0 -7.744452997635 -19.2528112347209
30942000.0 -8.00369229691048 -18.147193051344
31940000.0 -8.26730961393981 -17.4848605654512
32938000.0 -8.58780666756641 -16.1421329440174
33936000.0 -8.90107763906336 -13.975255131715
34934000.0 -9.15308758163301 -11.5691233831661
35932000.0 -9.28419390126722 -7.97696810918987
36930000.0 -9.32292967650013 -4.57008452265761
37928000.0 -9.19073802594843 -0.705238905129325
38926000.0 -8.89261850979626 2.40635237118749
39924000.0 -8.49009833695618 5.05803221349184
40922000.0 -8.08013729845423 6.80370573949862
41920000.0 -7.59979065159938 7.98345192210784
42918000.0 -7.17995486627197 8.38242684786006
43916000.0 -6.77741295453388 8.43268395203114
44914000.0 -6.40443519993583 8.04813054307086
45912000.0 -6.05857990033666 7.57790327555731
46910000.0 -5.755116638431 6.7298352010682
47908000.0 -5.48108649900767 5.75952478670088
48906000.0 -5.26036532598109 4.77829006525896
49904000.0 -5.04835991981889 3.52480657576049
50902000.0 -4.87787671649032 2.51389371171572
51900000.0 -4.69829529375926 1.46890747028162
52898000.0 -4.56286847144215 0.245195801892987
53896000.0 -4.44691816821728 -0.742814638198723
54894000.0 -4.31383652235286 -2.0346333292188
55892000.0 -4.23043664041934 -3.09168781631509
56890000.0 -4.14099304075696 -4.0747936227568
57888000.0 -4.05804568769966 -5.18994082857578
58886000.0 -3.97747582037818 -6.22651205405193
59884000.0 -3.93377194945595 -7.10313763998513
60882000.0 -3.8722458491417 -8.06433635594829
61880000.0 -3.8326426422415 -9.02998869073012
62878000.0 -3.77543809415714 -9.93733237328384
63876000.0 -3.73922213546481 -10.7006071424373
64874000.0 -3.70863411427439 -11.7117238680487
65872000.0 -3.68429947905435 -12.5551295528139
66870000.0 -3.64944432396897 -13.2916307705582
67868000.0 -3.61767521375437 -14.1201663833564
68866000.0 -3.59872190447272 -14.9562757162198
69864000.0 -3.58307427472535 -15.6437064671863
70862000.0 -3.57716922399603 -16.3294242479605
71860000.0 -3.53189708434751 -16.9819477362885
72858000.0 -3.53691903443073 -17.6931158519232
73856000.0 -3.51115315284164 -18.5047985563838
74854000.0 -3.48875660039601 -19.127858458889
75852000.0 -3.4767018989347 -19.6690990369146
76850000.0 -3.4405736074423 -20.302978796825
77848000.0 -3.44677190271402 -21.0785901165415
78846000.0 -3.42178382628287 -21.7881547695996
79844000.0 -3.41066447560989 -22.3530677197455
80842000.0 -3.39583921320519 -22.9951535171705
81840000.0 -3.38587557433241 -23.7179286363099
82838000.0 -3.35264028013426 -24.289895327739
83836000.0 -3.36934223256633 -24.8612315767064
84834000.0 -3.3565476322099 -25.3210553560475
85832000.0 -3.33776829610118 -25.9813792267093
86830000.0 -3.33489225356519 -26.4641140436499
87828000.0 -3.30804263994913 -27.1725805163858
88826000.0 -3.33426992216346 -27.5782526115039
89824000.0 -3.31386956988741 -28.1854905732044
90822000.0 -3.30702290920077 -28.7177083560077
91820000.0 -3.30892643192627 -29.4247948393029
92818000.0 -3.29530771354712 -30.0634440304278
93816000.0 -3.29583306025992 -30.3008642011714
94814000.0 -3.27278323688477 -30.8584337275042
95812000.0 -3.26451517703916 -31.2019510544738
96810000.0 -3.27372789623039 -31.6653743856698
97808000.0 -3.2676052628284 -32.2385938106895
98806000.0 -3.25917279397028 -32.5567179111575
99804000.0 -3.23704648623253 -33.2814654543383
100802000.0 -3.22606041453597 -33.6194919046281
101800000.0 -3.20093827240768 -33.9971477462844
102798000.0 -3.20310549258502 -34.4432010340711
103796000.0 -3.19679280341055 -34.7325070133361
104794000.0 -3.16528057178106 -35.3710923203012
105792000.0 -3.12431223131227 -35.7741404675657
106790000.0 -3.13206500321803 -36.2236042671039
107788000.0 -3.10334466281224 -36.7401909034899
108786000.0 -3.04971492553941 -37.0504717412831
109784000.0 -3.0294670000794 -37.4916526264461
110782000.0 -3.01581246302732 -38.0537946424742
111780000.0 -2.99157114492748 -38.7248980390457
112778000.0 -2.91647903693665 -39.0988398750598
113776000.0 -2.91444334332283 -39.736825892513
114774000.0 -2.87000347808418 -40.4119524170422
115772000.0 -2.83787317279969 -40.6924940954056
116770000.0 -2.81417040407236 -41.4661050028358
117768000.0 -2.80485986020759 -42.0208225648076
118766000.0 -2.77347415014499 -42.6551283848411
119764000.0 -2.75303776296246 -43.1171847378873
120762000.0 -2.69567693964315 -43.9430716686032
121760000.0 -2.71496133059936 -44.7286152922259
122758000.0 -2.64226390916726 -45.4022961428791
123756000.0 -2.65429714663119 -45.9227324221022
124754000.0 -2.62718632264237 -46.7084905212225
125752000.0 -2.60293964536106 -47.282926920994
126750000.0 -2.59617120838296 -48.1460060147946
127748000.0 -2.58247916417374 -48.9159050013579
128746000.0 -2.5819140261914 -49.5501274656224
129744000.0 -2.582703743196 -50.3677948180996
130742000.0 -2.59397309081867 -51.1536221300752
131740000.0 -2.58883103612027 -51.8926397362929
132738000.0 -2.59173446012215 -52.6509060415243
133736000.0 -2.59868706029973 -53.3510890740394
134734000.0 -2.62705468039752 -54.0988735239185
135732000.0 -2.64347598929595 -54.9300513797753
136730000.0 -2.66787265010046 -55.7528995197044
137728000.0 -2.67422975876587 -56.3017882622878
138726000.0 -2.71273560384644 -57.0340811204128
139724000.0 -2.7431436048279 -57.7856207360241
140722000.0 -2.78983519502912 -58.3476643921749
141720000.0 -2.82074371637176 -59.0771582499823
142718000.0 -2.85362503196883 -59.6353751328726
143716000.0 -2.88856414572233 -60.4336137949999
144714000.0 -2.94989409686544 -61.1140284706769
145712000.0 -3.00367032736723 -61.5438168237546
146710000.0 -3.05112516471621 -62.2354653570574
147708000.0 -3.11300640050818 -62.6536093713049
148706000.0 -3.15532938327619 -63.2760292708848
149704000.0 -3.20256802800616 -63.8029900451792
150702000.0 -3.26605868680456 -64.1709250092432
151700000.0 -3.32398406074228 -64.6841678838848
152698000.0 -3.38255678102162 -64.9963962153089
153696000.0 -3.4206141791811 -65.5324479088864
154694000.0 -3.45942355067717 -65.7537405022217
155692000.0 -3.51893507218394 -66.1207290691548
156690000.0 -3.5705188217874 -66.3355143138447
157688000.0 -3.62862213692955 -66.7310639871248
158686000.0 -3.66591699181339 -66.9451059149491
159684000.0 -3.71200190370199 -67.1113855147811
160682000.0 -3.74835619544734 -67.4713546452526
161680000.0 -3.77925029925704 -67.7431988576898
162678000.0 -3.84070179856753 -67.9508095806845
163676000.0 -3.84588050659973 -68.1233012192458
164674000.0 -3.88943524331222 -68.3222333113043
165672000.0 -3.9500948970907 -68.4597750311034
166670000.0 -3.960623592352 -68.6281521067392
167668000.0 -3.98391305771707 -68.9813596788281
168666000.0 -3.99524581358271 -69.1444431858209
169664000.0 -4.02579466904115 -69.2912517189433
170662000.0 -4.03938914697392 -69.630671058781
171660000.0 -4.05664891298563 -69.7443152092735
172658000.0 -4.06425164421826 -70.1048464985728
173656000.0 -4.09757718921931 -69.995337977389
174654000.0 -4.11197103275798 -70.2618767730527
175652000.0 -4.14020222500615 -70.630738395367
176650000.0 -4.182210683374 -70.7070076771928
177648000.0 -4.18457120617836 -70.9527924271488
178646000.0 -4.18165059599687 -70.9527552608943
179644000.0 -4.22578437900684 -71.0491945281641
180642000.0 -4.21239278204846 -71.3299394856906
181640000.0 -4.18277901380717 -71.4333473374975
182638000.0 -4.23421384598331 -71.6035904705572
183636000.0 -4.2435839269373 -71.9298433638045
184634000.0 -4.25685565692843 -72.0884499118491
185632000.0 -4.27413124889766 -72.3415758620741
186630000.0 -4.28366638245302 -72.6260989811739
187628000.0 -4.28251195693286 -72.6813728697596
188626000.0 -4.27291517504755 -72.7731092082988
189624000.0 -4.31146714356866 -72.8689826562657
190622000.0 -4.31565622737931 -73.132694853251
191620000.0 -4.32052643563443 -73.2539010404053
192618000.0 -4.3412852806352 -73.4531213145923
193616000.0 -4.33317179912709 -73.6315903900191
194614000.0 -4.32693654205082 -73.7388927092279
195612000.0 -4.3390909198488 -73.8925804629721
196610000.0 -4.3444094434202 -73.921487324596
197608000.0 -4.34987747220571 -74.165241424151
198606000.0 -4.33197627655475 -74.3336950159032
199604000.0 -4.3512986135714 -74.5234646232261
200602000.0 -4.34020404151379 -74.5114581938975
201600000.0 -4.36645119102796 -74.6267803215905
202598000.0 -4.34699293995276 -74.8207823985454
203596000.0 -4.34196786206561 -74.8713058177301
204594000.0 -4.32099319732207 -75.2444678055889
205592000.0 -4.35238314444447 -75.2636072997439
206590000.0 -4.3238616852793 -75.2501563816145
207588000.0 -4.32326666523459 -75.4794088623005
208586000.0 -4.32785229929247 -75.5801884334132
209584000.0 -4.29694537045658 -75.8335037028546
210582000.0 -4.30348032362895 -75.9003096047395
211580000.0 -4.29079868817662 -76.1327103223603
212578000.0 -4.2503012259934 -76.3380650053566
213576000.0 -4.27767122634459 -76.3689896166044
214574000.0 -4.26957997652672 -76.5189780165292
215572000.0 -4.25069778498538 -76.6945906430608
216570000.0 -4.2435827706004 -76.7396500711424
217568000.0 -4.21350369464181 -77.0139072608355
218566000.0 -4.22093659896536 -76.8771332210561
219564000.0 -4.18711559860859 -77.452465988238
220562000.0 -4.15930538183605 -77.4345887631341
221560000.0 -4.17016886762839 -77.6167450933274
222558000.0 -4.15480835349404 -77.7987296809402
223556000.0 -4.128313190247 -77.9690408060953
224554000.0 -4.1008915824563 -78.1671047608076
225552000.0 -4.0851165436929 -78.4592680967704
226550000.0 -4.0860681475242 -78.7130195763643
227548000.0 -4.05368521953641 -78.8174876509731
228546000.0 -4.07685727731315 -78.9389758978029
229544000.0 -4.01213184636374 -79.3315261628937
230542000.0 -4.00583032170948 -79.4816119523209
231540000.0 -3.99851973586163 -79.615372970508
232538000.0 -3.97384040878908 -79.8663848354496
233536000.0 -3.94659982017015 -80.0221765224045
234534000.0 -3.92013698898588 -80.3809512711818
235532000.0 -3.9327573949923 -80.6390004518313
236530000.0 -3.8868108274513 -80.8128061452018
237528000.0 -3.88717835798055 -81.2544695959582
238526000.0 -3.84909823853906 -81.3510650125552
239524000.0 -3.83063038513997 -81.6959848920946
240522000.0 -3.79991406759224 -81.9146162115383
241520000.0 -3.77913788718459 -82.1611405234846
242518000.0 -3.77190168783754 -82.5146655188549
243516000.0 -3.76487245970943 -82.7399985831266
244514000.0 -3.74466421296988 -83.098604647483
245512000.0 -3.72737258909989 -83.2495415684314
246510000.0 -3.71778467345019 -83.6432710828564
247508000.0 -3.69802800011923 -83.8703401483173
248506000.0 -3.65611003508201 -84.0645098723205
249504000.0 -3.66196424497423 -84.4711606406416
250502000.0 -3.64838345499512 -84.7787926695833
251500000.0 -3.62861322871955 -85.1582305125187
252498000.0 -3.60284900659541 -85.4311413761752
253496000.0 -3.60153766954091 -85.6716441051841
254494000.0 -3.62453683060169 -86.0632940837282
255492000.0 -3.56072172251519 -86.4186914947765
256490000.0 -3.57907896814352 -86.5621744802856
257488000.0 -3.54786631187883 -86.8016368620457
258486000.0 -3.53923634224052 -87.1658618933677
259484000.0 -3.54533659759956 -87.6703170927618
260482000.0 -3.53206323849877 -87.7956475708326
261480000.0 -3.52676299055298 -88.2368355023058
262478000.0 -3.48900234516236 -88.6287095807845
263476000.0 -3.50060503059581 -88.6543936292411
264474000.0 -3.49589499687854 -89.0307216584222
265472000.0 -3.47423497542943 -89.4341482248645
266470000.0 -3.45696896376307 -89.7727852051825
267468000.0 -3.45901774691022 -90.0413428514413
268466000.0 -3.45185234566648 -90.3289366828216
269464000.0 -3.42718371508266 -90.5221207457368
270462000.0 -3.44902115721875 -90.9203971522309
271460000.0 -3.442422864955 -91.2072153134717
272458000.0 -3.41972345795205 -91.4178616878071
273456000.0 -3.43199063208819 -91.7215786095269
274454000.0 -3.40433618354091 -92.1599133558962
275452000.0 -3.40768842748131 -92.3956340101212
276450000.0 -3.41843583196085 -92.6137767318232
277448000.0 -3.39013798925288 -93.0276919278469
278446000.0 -3.4123138145041 -93.1946108857325
279444000.0 -3.43035880144121 -93.5671654047456
280442000.0 -3.36508736665181 -93.9252411999784
281440000.0 -3.38915846430048 -94.2727999321455
282438000.0 -3.383941352822 -94.5120516985316
283436000.0 -3.4015723504168 -94.6999863566999
284434000.0 -3.38819719047387 -94.9665325239122
285432000.0 -3.37116506284308 -95.3660048079506
286430000.0 -3.39099826903604 -95.8251583166598
287428000.0 -3.40297488155191 -95.86712448296
288426000.0 -3.37140069329058 -96.0765002185234
289424000.0 -3.38809645786671 -96.3956575535326
290422000.0 -3.38799589085775 -96.6241481960249
291420000.0 -3.39779897170926 -97.029864077483
292418000.0 -3.37794616611799 -97.3063377970168
293416000.0 -3.39645468189388 -97.3898497976706
294414000.0 -3.37867279989066 -97.5909357811879
295412000.0 -3.41277232289273 -97.8167599722333
296410000.0 -3.40928987782568 -98.0250524778638
297408000.0 -3.38640791581569 -98.31019771363
298406000.0 -3.40548786157523 -98.5806310201715
299404000.0 -3.39781501772206 -98.8172953770065
300402000.0 -3.39887534763711 -98.997875937898
301400000.0 -3.38443534437599 -99.2544697567501
302398000.0 -3.40464341621129 -99.3821331719342
303396000.0 -3.38184509022903 -99.6806866876383
304394000.0 -3.40395943825876 -99.8998055542333
305392000.0 -3.39374127578374 -100.017915951569
306390000.0 -3.38488222197533 -100.276471640605
307388000.0 -3.40290428141992 -100.282904246964
308386000.0 -3.40129302260127 -100.560897831505
309384000.0 -3.39547835536471 -100.758748804025
310382000.0 -3.36965680636718 -100.952748411949
311380000.0 -3.39114459362203 -101.262960882376
312378000.0 -3.38430004082006 -101.243680120387
313376000.0 -3.36799836946446 -101.564651580879
314374000.0 -3.36881191502279 -101.772430185463
315372000.0 -3.35121416307884 -101.931978716473
316370000.0 -3.37651174699239 -102.090661576789
317368000.0 -3.37740429733908 -102.270619932438
318366000.0 -3.37219919578508 -102.458374295116
319364000.0 -3.35501090000005 -102.637180034011
320362000.0 -3.32983444788054 -102.813216773404
321360000.0 -3.32266303718862 -103.0170344993
322358000.0 -3.33027925772096 -103.289131866572
323356000.0 -3.34048201565647 -103.493890384475
324354000.0 -3.29605171891102 -103.592134306808
325352000.0 -3.28415014245851 -103.896414244799
326350000.0 -3.27603861857894 -104.143410311518
327348000.0 -3.27393711557913 -104.388855355044
328346000.0 -3.289671665115 -104.424607335756
329344000.0 -3.26914953657131 -104.61588714941
330342000.0 -3.24216984616348 -104.935395198282
331340000.0 -3.25294386034814 -105.16018749447
332338000.0 -3.23290907102837 -105.433495917429
333336000.0 -3.24303677158093 -105.314033067116
334334000.0 -3.21157447261198 -105.751984299275
335332000.0 -3.19785173711729 -105.996971094286
336330000.0 -3.20641003373961 -106.338131618583
337328000.0 -3.19529855196041 -106.516879776664
338326000.0 -3.19635585862316 -106.815549596518
339324000.0 -3.16624064708061 -106.84216555828
340322000.0 -3.18080071605843 -107.194001053412
341320000.0 -3.15189437780653 -107.347704090103
342318000.0 -3.14359948410129 -107.547698067372
343316000.0 -3.12440592875834 -107.85066100646
344314000.0 -3.10631972398789 -108.171370665677
345312000.0 -3.12107872164521 -108.381650158283
346310000.0 -3.10872460106718 -108.607449095965
347308000.0 -3.09625661165539 -108.936175005097
348306000.0 -3.09260631297933 -109.163933418109
349304000.0 -3.08707758433137 -109.156536969818
350302000.0 -3.07763497670934 -109.572162357071
351300000.0 -3.08073152418936 -109.843252535327
352298000.0 -3.06835267982956 -110.180600581649
353296000.0 -3.06576058395022 -110.525470325337
354294000.0 -3.06208112791665 -110.692390519146
355292000.0 -3.04541465240001 -111.061492114023
356290000.0 -3.07804477001826 -111.163833029445
357288000.0 -3.01530022485428 -111.505025170164
358286000.0 -3.03932193805943 -111.761625428494
359284000.0 -3.01829531204369 -112.036746092319
360282000.0 -3.01241628723436 -112.171862723362
361280000.0 -3.01140663415235 -112.592975827803
362278000.0 -3.02970813564663 -112.816636417892
363276000.0 -3.004565516922 -113.024750742987
364274000.0 -3.0188992735091 -113.479579109263
365272000.0 -2.99628779435505 -113.705283392018
366270000.0 -3.00765960033404 -113.861417077968
367268000.0 -3.02128663952379 -114.140177739829
368266000.0 -3.02950772540404 -114.418438481986
369264000.0 -2.99121625600087 -114.789841311003
370262000.0 -2.99434208841835 -114.849382773932
371260000.0 -3.02680639290087 -115.099820097277
372258000.0 -3.02616654796737 -115.459770911031
373256000.0 -3.01527761477202 -115.583789369117
374254000.0 -3.01259775918711 -115.845703129385
375252000.0 -3.01959607184936 -116.376740902251
376250000.0 -3.0093585969046 -116.609995191779
377248000.0 -3.02154438844533 -116.877015041329
378246000.0 -3.01011770223816 -116.980575335616
379244000.0 -3.0293181171722 -117.310106964424
380242000.0 -3.02741161373921 -117.494171541652
381240000.0 -3.0137808967777 -117.799862777505
382238000.0 -3.02374187381406 -118.127355723557
383236000.0 -3.02949406329164 -118.384588790702
384234000.0 -3.01555879381803 -118.376409393389
385232000.0 -3.02020496976857 -118.84608347005
386230000.0 -3.04574474608263 -119.161927364107
387228000.0 -3.0414280458797 -119.194108728754
388226000.0 -3.05439626585993 -119.64174877882
389224000.0 -3.05514440254579 -119.707250493855
390222000.0 -3.05999908431758 -119.909911601978
391220000.0 -3.04619462964153 -120.116904950662
392218000.0 -3.08369551909936 -120.496104288389
393216000.0 -3.09282646237419 -120.767129049214
394214000.0 -3.0863755281464 -120.843713647685
395212000.0 -3.0924138596432 -121.024741502774
396210000.0 -3.10876151686274 -121.225459778757
397208000.0 -3.11048461356865 -121.313478267624
398206000.0 -3.10206417242199 -121.643896558934
399204000.0 -3.13409948726606 -121.791037493252
400202000.0 -3.14136622465297 -122.003644071428
401200000.0 -3.13162658699704 -122.124002207571
402198000.0 -3.12243851884331 -122.431605089132
403196000.0 -3.14259844678757 -122.440336311199
404194000.0 -3.16049040876343 -122.645840380676
405192000.0 -3.15010720549761 -122.882079500289
406190000.0 -3.17168182782116 -123.196482317715
407188000.0 -3.17441156253671 -123.275471214893
408186000.0 -3.15372819774189 -123.254998366018
409184000.0 -3.17703537695931 -123.464990955815
410182000.0 -3.22343257683246 -123.70345488194
411180000.0 -3.19737695930562 -123.733766742443
412178000.0 -3.19446988660857 -123.933318563541
413176000.0 -3.19538383631567 -124.190459490732
414174000.0 -3.19852710945648 -124.229651985665
