!Keysight Technologies N9923A: A.08.19
!Date: Thursday, 16 January 2020 11:30:00
!TimeZone: (GMT-03:00) Brasilia!Model: N9923A
!Serial: MY51491501
!GPS Latitude: 
!GPS Longitude: 
!GPS TimeStamp: 0001-01-01 00:00:00Z
!GPS Seconds Since Last Read: 0
!CHECKSUM:1078980270
!Correction: S11(ON U)
!S1P File: Measurement: S11:
# Hz S DB R 50
2000000.0 -3.72950666939377 -35.5947627746984
2998000.0 -6.96655090374526 -48.042966458805
3996000.0 -13.5321785059591 -47.2927985596857
4994000.0 -16.2333656618932 31.8564678631756
5992000.0 -8.56258194022961 41.7280851697337
6990000.0 -5.29786287789412 30.8805035440942
7988000.0 -3.88361268745554 19.0971987566039
8986000.0 -3.34409699198387 9.02842124762607
9984000.0 -3.28368926090998 0.49880985688188
10982000.0 -3.52364770614306 -6.0303555844406
11980000.0 -3.97821630738009 -10.8839088858075
12978000.0 -4.52554713693089 -14.0513967391165
13976000.0 -5.06441408108214 -15.2956136453513
14974000.0 -5.45316977146279 -15.4369271803165
15972000.0 -5.63457597781006 -14.9249167551523
16970000.0 -5.62010652086488 -14.7582544958031
17968000.0 -5.5223166944412 -15.3759261290816
18966000.0 -5.48107712422724 -16.9898878589645
19964000.0 -5.46315247251797 -19.2343309528671
20962000.0 -5.53957515880042 -21.9978674064433
21960000.0 -5.7510648693137 -24.9226804594897
22958000.0 -6.03633298541631 -27.5175330180893
23956000.0 -6.48582905171038 -30.0401127057059
24954000.0 -6.98079947767121 -31.9930314540455
25952000.0 -7.57109837383249 -33.2481801648818
26950000.0 -8.20571749713479 -33.8125198223951
27948000.0 -8.89949856943371 -33.1462072211708
28946000.0 -9.5435003390852 -32.1453110004165
29944000.0 -10.1510621691757 -29.8953284277485
30942000.0 -10.657087799616 -26.7698995914854
31940000.0 -11.0510300794962 -23.7069181997884
32938000.0 -11.3983205551046 -19.8941807952061
33936000.0 -11.6087941606319 -15.4151491520005
34934000.0 -11.710867149821 -11.2589584578616
35932000.0 -11.6462657987947 -6.64603439250646
36930000.0 -11.4998767122392 -2.51835009617976
37928000.0 -11.1784772816981 1.61265548474152
38926000.0 -10.7491627771275 5.00336926758376
39924000.0 -10.2665545554677 7.47336881839662
40922000.0 -9.76433711442716 9.05148555006835
41920000.0 -9.24909336564195 10.155804103201
42918000.0 -8.75295364746593 10.5180104891818
43916000.0 -8.36944248221163 10.3850727032017
44914000.0 -7.97767480829692 9.90688183112118
45912000.0 -7.62494352703964 9.58229752200413
46910000.0 -7.27545975043137 8.70555634057759
47908000.0 -7.02006763972617 7.80664032292927
48906000.0 -6.76447808743222 7.06895378985967
49904000.0 -6.54139601537979 5.95017822728439
50902000.0 -6.35128603124574 5.09815821037514
51900000.0 -6.14340891152541 4.0587128994859
52898000.0 -5.95699304132882 3.03775528160874
53896000.0 -5.83069701429803 1.88231372979307
54894000.0 -5.70400598438188 0.919979539792564
55892000.0 -5.5881337820926 0.00470279098574946
56890000.0 -5.49722826019255 -0.93110653884327
57888000.0 -5.36885052181231 -1.9887083267567
58886000.0 -5.27501851259862 -2.84244411863653
59884000.0 -5.21134707350481 -3.53577396206614
60882000.0 -5.11380408620166 -4.51682159774278
61880000.0 -5.04830284695905 -5.39993165545324
62878000.0 -4.96901829209648 -6.10264477762242
63876000.0 -4.91377460283113 -6.92944446694274
64874000.0 -4.85005380197845 -7.8074102864416
65872000.0 -4.78752336335678 -8.45197847117841
66870000.0 -4.7230826111717 -9.17546859468195
67868000.0 -4.66342140898351 -9.93443581498549
68866000.0 -4.61978927948453 -10.8627067697417
69864000.0 -4.53229653347305 -11.6097674546827
70862000.0 -4.503818890353 -12.1818625488261
71860000.0 -4.44099062819252 -13.0011421913076
72858000.0 -4.39789286473793 -13.6816235996562
73856000.0 -4.3727316974428 -14.4455020644422
74854000.0 -4.31341435221119 -15.1546692875789
75852000.0 -4.26575684280149 -15.6104742483095
76850000.0 -4.22020539585392 -16.4877388495291
77848000.0 -4.18820396307702 -17.1706740240936
78846000.0 -4.10506744108446 -17.6801848479287
79844000.0 -4.10022331163413 -18.4369069833282
80842000.0 -4.03103586240432 -19.2909152557848
81840000.0 -4.01018327364765 -19.868065606723
82838000.0 -3.95844561170661 -20.5808338422659
83836000.0 -3.92966907568409 -21.2207315965053
84834000.0 -3.8861257895985 -21.9151350262488
85832000.0 -3.85694877750224 -22.5485194958808
86830000.0 -3.82029152569033 -23.0261049455243
87828000.0 -3.76483291708432 -23.8550634901773
88826000.0 -3.75148479306467 -24.3929850968977
89824000.0 -3.71883459415351 -25.0387250897683
90822000.0 -3.69038064725963 -25.8967267795159
91820000.0 -3.66975326527218 -26.4020350985003
92818000.0 -3.61102843617172 -27.1797351082635
93816000.0 -3.57302043353131 -27.8403183623359
94814000.0 -3.54594665864227 -28.3562082378189
95812000.0 -3.51051970738656 -29.0180275115468
96810000.0 -3.49884546758044 -29.6641167098538
97808000.0 -3.46363569235738 -30.3113617636564
98806000.0 -3.44945048895583 -30.9963749784731
99804000.0 -3.4239459211121 -31.7223386051588
100802000.0 -3.3775479154154 -32.2736454498258
101800000.0 -3.3488785193738 -32.9225452903051
102798000.0 -3.33714398286018 -33.6413566263361
103796000.0 -3.31629925221434 -34.4086273171712
104794000.0 -3.28550204157107 -35.1002721787474
105792000.0 -3.26224002891157 -35.7399703199763
106790000.0 -3.23307571101713 -36.3678344882698
107788000.0 -3.22731232315433 -37.1755637960203
108786000.0 -3.19322857571096 -37.7352498366376
109784000.0 -3.18696535471563 -38.501428916625
110782000.0 -3.17117420446278 -39.2682078865962
111780000.0 -3.17552622600055 -40.0382884895949
112778000.0 -3.13459468124629 -40.7185477232205
113776000.0 -3.14368776889276 -41.4944951185843
114774000.0 -3.13484006537961 -42.3947685626642
115772000.0 -3.124533901851 -42.9054985078269
116770000.0 -3.13944888413072 -43.5889224481407
117768000.0 -3.13795998475683 -44.2374457509395
118766000.0 -3.15235747537842 -44.9982071910478
119764000.0 -3.14819939154399 -45.5986649928219
120762000.0 -3.12165009857296 -46.4685935614926
121760000.0 -3.14837597888289 -47.0711551386946
122758000.0 -3.13829955055503 -47.9186449699704
123756000.0 -3.1774388535372 -48.4591182994387
124754000.0 -3.18052475493471 -49.2845609752412
125752000.0 -3.17776540293855 -49.7290947762445
126750000.0 -3.21249749205593 -50.4116020976698
127748000.0 -3.19577430490378 -51.0749280650665
128746000.0 -3.20942719154118 -51.73364114409
129744000.0 -3.23697505089121 -52.4245820375719
130742000.0 -3.27369200210351 -53.1420022201225
131740000.0 -3.2883982631627 -53.7478998780936
132738000.0 -3.30607200318971 -54.2891755979833
133736000.0 -3.31945936177463 -54.8148244781139
134734000.0 -3.33602050732308 -55.5038977142547
135732000.0 -3.35763465016442 -56.1442038237767
136730000.0 -3.39048822130709 -56.8744080212173
137728000.0 -3.41546804074122 -57.3271928360144
138726000.0 -3.44248202169271 -57.8391307865277
139724000.0 -3.46052611893517 -58.4181051533001
140722000.0 -3.4853101271111 -58.8765011133676
141720000.0 -3.52330742972293 -59.4748781715625
142718000.0 -3.54437079411523 -59.8706093275525
143716000.0 -3.56330248831962 -60.5767153035587
144714000.0 -3.59507855295501 -61.1045521851172
145712000.0 -3.63093945046473 -61.4481522130069
146710000.0 -3.64534313651369 -61.9075597989128
147708000.0 -3.68040354025545 -62.478229694491
148706000.0 -3.72949434089063 -63.0128360169944
149704000.0 -3.74407967886468 -63.3117803668
150702000.0 -3.8005297178025 -63.6893927656356
151700000.0 -3.81333313248062 -64.1296974007302
152698000.0 -3.8465578451386 -64.6237895893861
153696000.0 -3.88089105128388 -65.1467886436922
154694000.0 -3.88418102912675 -65.4221929194903
155692000.0 -3.92743255141035 -65.7555525375381
156690000.0 -3.96047536078517 -66.2062994949033
157688000.0 -4.00232960666342 -66.6011406917506
158686000.0 -4.01512056271723 -66.8465141417223
159684000.0 -4.05697775876271 -67.0384873851347
160682000.0 -4.09157463820401 -67.4998517904552
161680000.0 -4.10125713452053 -67.9457808092422
162678000.0 -4.13214869326234 -68.3019140499481
163676000.0 -4.15409627146848 -68.4992533440043
164674000.0 -4.18699509564871 -68.5451879680527
165672000.0 -4.20368887235485 -68.847449194187
166670000.0 -4.22340099565142 -69.1384518270934
167668000.0 -4.25343606369379 -69.3881905080531
168666000.0 -4.23208175623508 -69.6862368534546
169664000.0 -4.28936629897859 -69.9642524571913
170662000.0 -4.29228026724101 -70.0048108596132
171660000.0 -4.33406503062856 -70.4774699683346
172658000.0 -4.2976482149497 -70.8182233648859
173656000.0 -4.36654071461487 -70.7531508875877
174654000.0 -4.35028583087514 -71.1051922526475
175652000.0 -4.37682147923657 -71.2906590085393
176650000.0 -4.39436731294878 -71.577407127377
177648000.0 -4.3837281305107 -71.8901152311096
178646000.0 -4.40545373474183 -71.883727004422
179644000.0 -4.38514070105772 -72.0343624294261
180642000.0 -4.40932917623569 -72.4484502935306
181640000.0 -4.37583290851663 -72.491227333134
182638000.0 -4.38650296070912 -72.7947292121841
183636000.0 -4.40684653485245 -73.006778700327
184634000.0 -4.41091691940211 -73.1815438499834
185632000.0 -4.40435245347255 -73.4012299815811
186630000.0 -4.40921792237419 -73.7754642208009
187628000.0 -4.39510974436203 -73.7172287565477
188626000.0 -4.38084024713413 -74.0277472106142
189624000.0 -4.42686066231172 -74.2509520758411
190622000.0 -4.38987546639059 -74.5960844428124
191620000.0 -4.40551921908015 -74.7981685837979
192618000.0 -4.37861399181841 -75.1120881728373
193616000.0 -4.38952145563683 -75.3663765537277
194614000.0 -4.34997340301668 -75.4593016426704
195612000.0 -4.38818141763735 -75.5010910124039
196610000.0 -4.38520023538568 -75.9477271840506
197608000.0 -4.36534413659379 -76.1374885767891
198606000.0 -4.36655679123853 -76.4277157266673
199604000.0 -4.3615092054237 -76.6639298310193
200602000.0 -4.34686751831789 -76.9298855913861
201600000.0 -4.35584933132171 -77.0801005966275
202598000.0 -4.33613257337644 -77.4077361442708
203596000.0 -4.3348169579365 -77.6352851095128
204594000.0 -4.32164547688749 -78.0573278927034
205592000.0 -4.33754438603412 -78.2416628456906
206590000.0 -4.33165093774035 -78.3486373839702
207588000.0 -4.32695628687923 -78.5749607492511
208586000.0 -4.32531429776443 -78.9236852028887
209584000.0 -4.33387151350345 -79.3092986421226
210582000.0 -4.30447472260478 -79.3050021577682
211580000.0 -4.3267443507126 -79.737748741846
212578000.0 -4.28896442664968 -80.0146192551082
213576000.0 -4.3249871057325 -80.2820121321665
214574000.0 -4.31594002233403 -80.4134123818824
215572000.0 -4.30777121659242 -80.5651544910149
216570000.0 -4.30185341570813 -80.8096985601429
217568000.0 -4.28189436314873 -81.1356923333651
218566000.0 -4.30651442893805 -81.3738255583299
219564000.0 -4.30664861862385 -81.9022167588523
220562000.0 -4.27396243013872 -81.9642361087307
221560000.0 -4.29617989401145 -82.1534140785986
222558000.0 -4.29241461284223 -82.4444794364369
223556000.0 -4.28223425960992 -82.7757790301237
224554000.0 -4.26452542786316 -82.8529669663668
225552000.0 -4.2701506623 -83.3047130601094
226550000.0 -4.27581108362144 -83.7014392474212
227548000.0 -4.26137704626061 -83.6921255496624
228546000.0 -4.27957493523359 -83.9399280036425
229544000.0 -4.24298862338298 -84.3185393089187
230542000.0 -4.26817524849088 -84.6290317376364
231540000.0 -4.25281498583214 -84.6611181400172
232538000.0 -4.25766506763771 -84.9602342967335
233536000.0 -4.25559661784968 -85.2016931512744
234534000.0 -4.24404656376784 -85.5460541018781
235532000.0 -4.25549413573813 -85.6718919584786
236530000.0 -4.2406090329566 -85.8627834370969
237528000.0 -4.25663171161151 -86.3390761066238
238526000.0 -4.22987414656605 -86.3962250505382
239524000.0 -4.24962954909836 -86.8195062010139
240522000.0 -4.2351983718105 -87.0545228870698
241520000.0 -4.2095065222297 -87.285701813571
242518000.0 -4.2441700316849 -87.5003877852741
243516000.0 -4.25252742187905 -87.7226531425033
244514000.0 -4.22671422689798 -87.9663168705015
245512000.0 -4.22981641840338 -88.1849806547974
246510000.0 -4.22731966523593 -88.5280338035833
247508000.0 -4.22155138962963 -88.6954004100295
248506000.0 -4.19795930653371 -88.9022330756951
249504000.0 -4.21056940292077 -89.0985382939853
250502000.0 -4.18949709448978 -89.3126533033577
251500000.0 -4.1980411032222 -89.5917538548442
252498000.0 -4.20221602469132 -89.7525808043355
253496000.0 -4.18777103799206 -90.0294900301752
254494000.0 -4.20300627274863 -90.3526786274732
255492000.0 -4.15559561385549 -90.5076427544414
256490000.0 -4.1960532908461 -90.6375948185425
257488000.0 -4.15941209477988 -90.9212488368236
258486000.0 -4.17503035098681 -91.1170120798738
259484000.0 -4.1512468919305 -91.4639525645141
260482000.0 -4.13635102180183 -91.5814931897265
261480000.0 -4.14025179706266 -91.8778393239212
262478000.0 -4.13381590980998 -92.2164014751423
263476000.0 -4.13561709372494 -92.1392425495146
264474000.0 -4.13665232494421 -92.2957175652553
265472000.0 -4.09438785209901 -92.667179305625
266470000.0 -4.08451822637795 -93.0038505273351
267468000.0 -4.08629262024661 -93.0673891753966
268466000.0 -4.08214609016736 -93.5192035228005
269464000.0 -4.0573231498357 -93.4653826151991
270462000.0 -4.05240190724628 -93.8059232465886
271460000.0 -4.05599783611896 -94.077337443522
272458000.0 -4.0337660402656 -94.1873696987932
273456000.0 -4.03243872373315 -94.2866715400906
274454000.0 -4.01594118590551 -94.748254236449
275452000.0 -3.99164767449575 -94.8487685008989
276450000.0 -3.98847455680743 -95.0046078653479
277448000.0 -3.97670595648938 -95.4028509880649
278446000.0 -3.98346706627572 -95.6122951548463
279444000.0 -3.99535922967326 -95.7575192563672
280442000.0 -3.94557217483889 -96.1254053345933
281440000.0 -3.94165747194683 -96.3472048245911
282438000.0 -3.94351230642386 -96.5933146130143
283436000.0 -3.93528187464201 -96.5714098706133
284434000.0 -3.93328270956537 -96.8539719442541
285432000.0 -3.88743573491222 -97.2235394391339
286430000.0 -3.89586605523164 -97.5713360951534
287428000.0 -3.90956091808738 -97.7856546782106
288426000.0 -3.86045766909617 -97.8082362177799
289424000.0 -3.85564157232382 -98.1194285216524
290422000.0 -3.86427391316206 -98.4653688590983
291420000.0 -3.8627962951168 -98.6372606997017
292418000.0 -3.85633064811303 -98.8641213181756
293416000.0 -3.84012238772587 -98.9277245050432
294414000.0 -3.81733582001632 -99.0371957143787
295412000.0 -3.81944720396622 -99.3673217199845
296410000.0 -3.83370955751342 -99.6865693141306
297408000.0 -3.82877770909833 -99.8116127780216
298406000.0 -3.83684264339685 -100.185752730667
299404000.0 -3.83539414010512 -100.206425450943
300402000.0 -3.80688799818834 -100.402838176763
301400000.0 -3.78104744116358 -100.72994209017
302398000.0 -3.81981005530735 -100.914195954896
303396000.0 -3.789649021014 -101.123810101762
304394000.0 -3.80707217723219 -101.2697671729
305392000.0 -3.80166643526527 -101.470226797588
306390000.0 -3.76267901832066 -101.590022123894
307388000.0 -3.78832851469935 -101.693358126884
308386000.0 -3.76610361730092 -101.95812943507
309384000.0 -3.74611677386775 -102.175793996376
310382000.0 -3.7186504077118 -102.307445982604
311380000.0 -3.75189013828672 -102.489831933537
312378000.0 -3.74465292047982 -102.40481618911
313376000.0 -3.71917697192885 -102.744383675096
314374000.0 -3.71836684600211 -102.968233885547
315372000.0 -3.70636331871853 -103.170672549384
316370000.0 -3.69216231003713 -103.334867695843
317368000.0 -3.69874349104622 -103.471377692832
318366000.0 -3.68893117199167 -103.76436007081
319364000.0 -3.68205466150003 -103.877582385834
320362000.0 -3.65631594434837 -103.907576359041
321360000.0 -3.63148600964752 -104.166235390131
322358000.0 -3.62699303823047 -104.311460319476
323356000.0 -3.65238280208837 -104.603007797598
324354000.0 -3.61440437225098 -104.621273427651
325352000.0 -3.57453260830105 -104.955398458648
326350000.0 -3.56994849168381 -105.114630891469
327348000.0 -3.56095581938279 -105.372114917126
328346000.0 -3.56586340418532 -105.35255562482
329344000.0 -3.53179782256221 -105.772732840026
330342000.0 -3.53081838448036 -105.91088379692
331340000.0 -3.54205366210705 -106.164230722567
332338000.0 -3.50592964397123 -106.254568148181
333336000.0 -3.50308209494717 -106.265513171933
334334000.0 -3.48309581022954 -106.711651433289
335332000.0 -3.45506745579725 -106.875983670599
336330000.0 -3.45596705274576 -107.273622683298
337328000.0 -3.4317545986825 -107.456994144024
338326000.0 -3.43717668950906 -107.567366856693
339324000.0 -3.42764567857871 -107.685647366307
340322000.0 -3.39759276114271 -107.984573699758
341320000.0 -3.38776696709681 -108.224585471785
342318000.0 -3.35437986375118 -108.5252085582
343316000.0 -3.3567685203499 -108.675514020582
344314000.0 -3.32868442252182 -108.997522772
345312000.0 -3.32833768178331 -109.079391737638
346310000.0 -3.30842788050265 -109.27453297516
347308000.0 -3.29964820581196 -109.605587721533
348306000.0 -3.29384134635326 -109.980584813705
349304000.0 -3.28332947620782 -109.936730539885
350302000.0 -3.27174243578418 -110.256279052237
351300000.0 -3.26271824219523 -110.377754553258
352298000.0 -3.23599744194844 -110.83652026986
353296000.0 -3.24150736725478 -111.155514575691
354294000.0 -3.2313347613088 -111.252504806887
355292000.0 -3.20049481014804 -111.706878377004
356290000.0 -3.21706385438981 -111.888553360736
357288000.0 -3.16648710580693 -112.129502938396
358286000.0 -3.1820878610131 -112.398611910131
359284000.0 -3.14846822208182 -112.607699379223
360282000.0 -3.12071776341838 -112.641427071821
361280000.0 -3.12602146164999 -113.120740749265
362278000.0 -3.13796837064859 -113.374627563861
363276000.0 -3.11112015598743 -113.625028729987
364274000.0 -3.10982620394573 -113.889043533582
365272000.0 -3.09218538795323 -114.159836317085
366270000.0 -3.07447308032229 -114.457012171929
367268000.0 -3.08282955651209 -114.624055003957
368266000.0 -3.09009666973165 -114.977791659328
369264000.0 -3.06774703625936 -115.19136914562
370262000.0 -3.04706241591073 -115.291743536824
371260000.0 -3.06828233512624 -115.699093202044
372258000.0 -3.0401762397434 -115.886940686801
373256000.0 -3.0627403954019 -116.010128443252
374254000.0 -3.0452899444415 -116.343495155426
375252000.0 -3.04758505788213 -116.853208400477
376250000.0 -3.02190230848386 -117.058808857744
377248000.0 -3.02710238794106 -117.288752579958
378246000.0 -2.98901186420364 -117.407027814615
379244000.0 -2.98942359581819 -117.692679032505
380242000.0 -2.97994730087912 -117.993301303917
381240000.0 -2.9911003088749 -118.295754093149
382238000.0 -2.9742147056522 -118.586378699234
383236000.0 -2.95702872319407 -118.854233810788
384234000.0 -2.96352950933411 -118.915502348664
385232000.0 -2.95915270116799 -119.225103719386
386230000.0 -2.93266406655471 -119.731703858693
387228000.0 -2.93852586581352 -119.773663806053
388226000.0 -2.93220558767454 -120.104944898195
389224000.0 -2.94104378910638 -120.148278701004
390222000.0 -2.92793083680174 -120.462212249188
391220000.0 -2.90826517765922 -120.693334419195
392218000.0 -2.91804926822722 -121.057010861576
393216000.0 -2.92505104679838 -121.309034767239
394214000.0 -2.89719658326504 -121.693702107875
395212000.0 -2.91298638020946 -121.740430860328
396210000.0 -2.90935847922527 -121.988603947796
397208000.0 -2.93281731115728 -122.162446714491
398206000.0 -2.92046776430752 -122.406430037833
399204000.0 -2.91727607018153 -122.65656370549
400202000.0 -2.91597053160231 -122.91392152013
401200000.0 -2.90567655788867 -123.023008012799
402198000.0 -2.89311079129944 -123.399317011366
403196000.0 -2.90976664579951 -123.434630370293
404194000.0 -2.8916726356094 -123.805915483715
405192000.0 -2.88763880069084 -124.10459407798
406190000.0 -2.87495491733049 -124.219379396408
407188000.0 -2.88909650993615 -124.474612593099
408186000.0 -2.89333676932269 -124.634914815708
409184000.0 -2.886472151209 -124.949147549057
410182000.0 -2.91437489707714 -125.093711343705
411180000.0 -2.88458291708641 -125.348132429145
412178000.0 -2.88800678588768 -125.590160241587
413176000.0 -2.89247390362032 -125.825713212141
414174000.0 -2.89395626828612 -125.936550464403
