!Keysight Technologies N9923A: A.08.19
!Date: Thursday, 16 January 2020 11:30:00
!TimeZone: (GMT-03:00) Brasilia!Model: N9923A
!Serial: MY51491501
!GPS Latitude: 
!GPS Longitude: 
!GPS TimeStamp: 0001-01-01 00:00:00Z
!GPS Seconds Since Last Read: 0
!CHECKSUM:1078980270
!Correction: S11(ON U)
!S1P File: Measurement: S11:
# Hz S DB R 50
2000000.0 -2.10982917542727 -16.6865404041383
2998000.0 -3.37720415854002 -20.9975371848186
3996000.0 -4.90150317346704 -21.8740840056258
4994000.0 -6.36607942752882 -14.6503496137212
5992000.0 -6.52945301250001 -1.58478601579466
6990000.0 -5.22891413331113 5.92000513028279
7988000.0 -3.91810926488839 5.42557203177121
8986000.0 -3.03948334368714 1.36677986969936
9984000.0 -2.64595471517443 -3.52681020492595
10982000.0 -2.49294413321095 -8.17152765618007
11980000.0 -2.597753190798 -12.5908189835478
12978000.0 -2.79286190502002 -16.4503349842789
13976000.0 -3.1326283333688 -19.5929605159161
14974000.0 -3.56557878514906 -22.1305200576524
15972000.0 -4.01543408689678 -23.5690336441105
16970000.0 -4.43969101215085 -24.1488822291457
17968000.0 -4.75483056571016 -24.2148736119488
18966000.0 -5.012675666141 -24.331082562087
19964000.0 -5.24249787297456 -24.807878266333
20962000.0 -5.43682265626659 -25.7377406911711
21960000.0 -5.73194298456938 -26.8888271102472
22958000.0 -6.14685715834084 -27.8288699502878
23956000.0 -6.70839624148574 -28.1898082125234
24954000.0 -7.31559884140836 -27.0972721494443
25952000.0 -7.87636486694052 -24.5188243641162
26950000.0 -8.26925100274796 -20.6898308065391
27948000.0 -8.42432923931922 -16.6168161100849
28946000.0 -8.36450923914034 -12.8179057077043
29944000.0 -8.16838554835951 -9.73827092669709
30942000.0 -7.881804711342 -7.44300735143619
31940000.0 -7.57821436276251 -6.59252015736569
32938000.0 -7.32392239970426 -5.87706911052683
33936000.0 -7.13365164343403 -5.48516483244172
34934000.0 -6.95724944487914 -5.70120267302368
35932000.0 -6.81810652446225 -5.71757237939765
36930000.0 -6.79194758491516 -5.75909830685338
37928000.0 -6.72336746773906 -5.65464981514207
38926000.0 -6.70650465576477 -5.3469756020386
39924000.0 -6.66565374004823 -4.82155194472691
40922000.0 -6.63615973361801 -4.12243176168266
41920000.0 -6.55437319531253 -3.33178634453743
42918000.0 -6.41394816780551 -2.43064268902306
43916000.0 -6.26602650069067 -1.7370925762135
44914000.0 -6.06025333639117 -1.19206428219676
45912000.0 -5.83913880934028 -0.752160402418595
46910000.0 -5.59254706345 -0.702112102076359
47908000.0 -5.39116508993281 -0.729810697906826
48906000.0 -5.14924746446315 -1.11878683261023
49904000.0 -4.96119385014861 -1.56944842139294
50902000.0 -4.78674531851755 -2.31760366108403
51900000.0 -4.5864302203554 -2.85533899474281
52898000.0 -4.42808086131 -3.5672269958991
53896000.0 -4.28770793481826 -4.34358922144799
54894000.0 -4.14506022063528 -5.36293429451227
55892000.0 -4.01492046180867 -6.2769515476127
56890000.0 -3.88738016136367 -7.30605485007239
57888000.0 -3.77473783446927 -8.20222579160902
58886000.0 -3.67484513679989 -9.20127465148807
59884000.0 -3.63553584595633 -10.1121893636295
60882000.0 -3.53687191164718 -11.1465940673208
61880000.0 -3.4921041622242 -12.2217553136517
62878000.0 -3.42462719303732 -13.1306193598495
63876000.0 -3.37460165439029 -13.999332222703
64874000.0 -3.34831634469924 -15.0339686028176
65872000.0 -3.32297078469662 -15.9348597068925
66870000.0 -3.29056233292796 -16.8703148931799
67868000.0 -3.25284488304935 -17.8329650973907
68866000.0 -3.26984052632032 -18.7522452071354
69864000.0 -3.23998812949155 -19.5206966522398
70862000.0 -3.25129921259887 -20.3469756386911
71860000.0 -3.24913107121934 -21.0298711648184
72858000.0 -3.23959095922222 -21.7847747424444
73856000.0 -3.2569605006257 -22.5456398267374
74854000.0 -3.2672188525515 -23.1477809059024
75852000.0 -3.26413029377287 -23.8261048976679
76850000.0 -3.26493269909936 -24.4219248579296
77848000.0 -3.28005019321503 -25.0896797457522
78846000.0 -3.27731677653151 -25.5781530548554
79844000.0 -3.30567945785515 -26.1131551054181
80842000.0 -3.29858905837497 -26.4514086174666
81840000.0 -3.28859743665992 -27.1140608935569
82838000.0 -3.28024059236824 -27.54158551011
83836000.0 -3.31364240311665 -27.9686360255412
84834000.0 -3.29269056242857 -28.2755492160837
85832000.0 -3.28090478644395 -28.6242293714614
86830000.0 -3.24350701847783 -29.207650034744
87828000.0 -3.23390421746513 -29.6830022723778
88826000.0 -3.23473575977359 -30.0980381838749
89824000.0 -3.19343330074877 -30.4982532367667
90822000.0 -3.16945914558467 -30.977908681472
91820000.0 -3.15352553992654 -31.4942322534701
92818000.0 -3.12413264871012 -32.0326812814426
93816000.0 -3.08501627551694 -32.415542600725
94814000.0 -3.05287069330967 -33.1365163777077
95812000.0 -3.02336689529745 -33.5800235404485
96810000.0 -3.03353265257811 -34.1462208914124
97808000.0 -3.00997943633499 -34.6421005610392
98806000.0 -2.981657070998 -35.160482993638
99804000.0 -2.95575157447292 -35.9479540320534
100802000.0 -2.94061297991993 -36.4529176103626
101800000.0 -2.9263328306892 -37.0918997584328
102798000.0 -2.91555452710266 -37.7118097598463
103796000.0 -2.92035394983955 -38.2628263998176
104794000.0 -2.90260377302267 -38.9585184616113
105792000.0 -2.87077507174552 -39.508859462838
106790000.0 -2.89433583414313 -40.2093342471257
107788000.0 -2.89622972667643 -40.7914741750858
108786000.0 -2.88070669965518 -41.2300055594347
109784000.0 -2.90212927516069 -41.8610588618234
110782000.0 -2.89927290964892 -42.6314839905468
111780000.0 -2.93736640498752 -43.2245326332738
112778000.0 -2.9216342601395 -43.6193441938236
113776000.0 -2.93628609272016 -44.1529534588015
114774000.0 -2.92823516596625 -44.8795437493706
115772000.0 -2.94209118333114 -45.239134182411
116770000.0 -2.96642579009238 -45.8115806168701
117768000.0 -2.98165928099202 -46.2138928219892
118766000.0 -2.99898147991821 -46.7970918321893
119764000.0 -2.99795034427704 -47.0774553714051
120762000.0 -2.98988257391962 -47.7172010962593
121760000.0 -3.01426588492498 -48.2405264912147
122758000.0 -3.01198975786295 -48.7620357813528
123756000.0 -3.05145469234531 -49.154624967492
124754000.0 -3.05101699880064 -49.6375855396151
125752000.0 -3.05677647632898 -49.9944485744205
126750000.0 -3.0610451433924 -50.5586552258231
127748000.0 -3.06192493477887 -51.0286407713982
128746000.0 -3.06858597834093 -51.4306169374294
129744000.0 -3.08360449056616 -51.9708341800646
130742000.0 -3.11119766329179 -52.4946680078545
131740000.0 -3.11036702008433 -52.8406821532918
132738000.0 -3.10739856996208 -53.2881651900737
133736000.0 -3.10993258255447 -53.7147319582158
134734000.0 -3.12156987054463 -54.1393502449075
135732000.0 -3.11342269855119 -54.630801243606
136730000.0 -3.1422173824291 -55.2013175811429
137728000.0 -3.14035239372988 -55.7024272825525
138726000.0 -3.14763314276424 -55.9936842351648
139724000.0 -3.13357420983037 -56.578762782054
140722000.0 -3.14854106442333 -56.7920221374098
141720000.0 -3.14936234641134 -57.3821320009835
142718000.0 -3.1595540068747 -57.7551729330038
143716000.0 -3.18292690254542 -58.4161757468631
144714000.0 -3.19944974706286 -58.7404945639879
145712000.0 -3.20606706835256 -59.1541869546484
146710000.0 -3.19075200862356 -59.749762908334
147708000.0 -3.21870292347302 -60.228091009683
148706000.0 -3.24362026569819 -60.7184829847283
149704000.0 -3.25210340029443 -61.1725984609231
150702000.0 -3.28077336300289 -61.6544681536122
151700000.0 -3.29215475370196 -62.135654455416
152698000.0 -3.32768835007537 -62.6188364155489
153696000.0 -3.34285199504483 -63.2338815466415
154694000.0 -3.33399241724157 -63.4803418247686
155692000.0 -3.3777252218134 -63.9570880851042
156690000.0 -3.38729207793635 -64.3536610287808
157688000.0 -3.42313582650201 -64.7892751023773
158686000.0 -3.46036772935654 -65.1228098094898
159684000.0 -3.47876719035651 -65.4844845294513
160682000.0 -3.51610610741953 -65.7900120117942
161680000.0 -3.52831965419955 -66.2996163954915
162678000.0 -3.55077218664178 -66.7145690243979
163676000.0 -3.58242620382723 -67.0677291256123
164674000.0 -3.61429636766164 -67.1769921969173
165672000.0 -3.65796768944853 -67.4408444142857
166670000.0 -3.69554256624952 -67.812844113416
167668000.0 -3.71567020452814 -68.1955016639026
168666000.0 -3.71719524219197 -68.5674028699888
169664000.0 -3.75181869598083 -68.7817459460014
170662000.0 -3.79217520075102 -69.1274302701117
171660000.0 -3.81767035574044 -69.3246102405667
172658000.0 -3.81968204489123 -69.7461168394839
173656000.0 -3.87505975251348 -69.6299421173238
174654000.0 -3.90658452554972 -70.1169512642212
175652000.0 -3.91036192236866 -70.2776217241062
176650000.0 -3.92904491964931 -70.5885008617833
177648000.0 -3.96165895502671 -70.6391844309799
178646000.0 -3.9845901732096 -70.7438204653189
179644000.0 -4.00420308565847 -70.9444740849812
180642000.0 -4.03278681916797 -71.2324776213293
181640000.0 -4.02002788675388 -71.4213831859239
182638000.0 -4.04305379460034 -71.5219550002228
183636000.0 -4.06903372101216 -71.6509196499156
184634000.0 -4.11008437169249 -71.7867142158055
185632000.0 -4.1128757517159 -71.9949622424513
186630000.0 -4.11616820236179 -72.1660305757074
187628000.0 -4.14803560384177 -72.2659154607451
188626000.0 -4.11400134349955 -72.2706865246829
189624000.0 -4.16900114914269 -72.4445706004196
190622000.0 -4.16261279048123 -72.4176746465527
191620000.0 -4.17061021525533 -72.6432888183547
192618000.0 -4.17096064119336 -72.7485437931869
193616000.0 -4.18161014313067 -72.8775724374935
194614000.0 -4.15367837580978 -72.8353421366855
195612000.0 -4.16918349254645 -72.9514320652958
196610000.0 -4.18737199357798 -72.8848965265946
197608000.0 -4.18099763121568 -72.9549010607179
198606000.0 -4.15832596973279 -72.9933355376209
199604000.0 -4.13942300925674 -73.25259499634
200602000.0 -4.14029411547355 -73.3658470110702
201600000.0 -4.11383730450783 -73.2683391933458
202598000.0 -4.12043334478196 -73.4803310671
203596000.0 -4.10292402935628 -73.4204695277191
204594000.0 -4.08677500775595 -73.8296071605877
205592000.0 -4.0625436410145 -73.8549638262463
206590000.0 -4.04941803053919 -73.9263624172828
207588000.0 -4.03887885099643 -74.0480392357105
208586000.0 -4.03166750066212 -74.2643929384581
209584000.0 -3.99638156616345 -74.5135550989531
210582000.0 -3.95596819465222 -74.4053667528951
211580000.0 -3.96320573916428 -74.7873490016306
212578000.0 -3.92056332355912 -74.9709560710606
213576000.0 -3.89679163507417 -75.0766985961236
214574000.0 -3.87048992885199 -75.2272954496221
215572000.0 -3.86055971528075 -75.4369234339709
216570000.0 -3.81952365963628 -75.5007302961835
217568000.0 -3.80779499657372 -75.8410457433435
218566000.0 -3.79787498428946 -75.8859446087062
219564000.0 -3.77171409597843 -76.3665196470164
220562000.0 -3.73315833048094 -76.449776021558
221560000.0 -3.69844571163195 -76.6531813321541
222558000.0 -3.69650874521727 -76.9472353870778
223556000.0 -3.66154574333249 -77.2994662985528
224554000.0 -3.63589885454449 -77.4639231429017
225552000.0 -3.62762986006417 -77.6870931402096
226550000.0 -3.59435343659243 -78.1239367378534
227548000.0 -3.56660083332437 -78.3233551946916
228546000.0 -3.55900742194518 -78.4336376890072
229544000.0 -3.52517426390793 -78.8063961658263
230542000.0 -3.53149214381967 -79.2137560541076
231540000.0 -3.50182583087907 -79.2959542164019
232538000.0 -3.49042868538716 -79.5567342619247
233536000.0 -3.4267730693672 -79.914733004405
234534000.0 -3.423669279944 -80.2390585749955
235532000.0 -3.4203033746063 -80.5818694319524
236530000.0 -3.37404700624038 -80.8071642249091
237528000.0 -3.35064713234205 -81.2052297781055
238526000.0 -3.33512205605654 -81.5190959797108
239524000.0 -3.33112181522619 -81.8312164492995
240522000.0 -3.29906828803133 -82.1139828149629
241520000.0 -3.25388821379191 -82.4436153849978
242518000.0 -3.2703130537681 -82.7638676152659
243516000.0 -3.26835359587595 -83.1022686303492
244514000.0 -3.23599730467256 -83.4891192941018
245512000.0 -3.22448735602993 -83.6677113931873
246510000.0 -3.19294614713385 -84.1880038465683
247508000.0 -3.19304098416269 -84.5252291722645
248506000.0 -3.14922978863997 -84.7723210888105
249504000.0 -3.1375431910659 -85.257102973503
250502000.0 -3.1413013520064 -85.5182805254153
251500000.0 -3.13240305371936 -86.0014281420294
252498000.0 -3.12946214237433 -86.2188948195129
253496000.0 -3.1143301925812 -86.6181455952295
254494000.0 -3.10358404976649 -86.9034277650748
255492000.0 -3.08276733925454 -87.2702096893024
256490000.0 -3.0825696568024 -87.5539102873089
257488000.0 -3.05241790027181 -88.0404283357726
258486000.0 -3.06361993321784 -88.3332226782561
259484000.0 -3.03745446295525 -88.8637649516077
260482000.0 -3.03293111728195 -89.1090486570689
261480000.0 -3.05566735452845 -89.4621328595242
262478000.0 -3.02111312215051 -89.9540437844078
263476000.0 -3.03585399922153 -90.1363470622999
264474000.0 -3.03041491294644 -90.3563980003659
265472000.0 -3.01814989415684 -90.8475925663906
266470000.0 -2.99074895278588 -91.2817097535004
267468000.0 -3.01458374104448 -91.6443906357674
268466000.0 -3.00208040209641 -91.964370914114
269464000.0 -2.99570799595259 -92.0481276117294
270462000.0 -2.97969094915894 -92.4265375007619
271460000.0 -3.00559806944555 -92.9187101299207
272458000.0 -3.00347575665782 -93.2698765424805
273456000.0 -3.00729342587187 -93.52782997763
274454000.0 -3.0043498965196 -93.8201454377902
275452000.0 -3.00409926464728 -93.9388090725624
276450000.0 -2.98217054161501 -94.2402903926847
277448000.0 -2.98894219673793 -94.7435705073202
278446000.0 -3.02829148841511 -94.9807818052054
279444000.0 -3.03680124291995 -95.3523784504631
280442000.0 -2.98236894985539 -95.7119473638074
281440000.0 -3.00262540126357 -95.9326774747301
282438000.0 -2.99899182289191 -96.445205412917
283436000.0 -3.01558657579482 -96.4193423047345
284434000.0 -2.99647071330917 -96.7445414462569
285432000.0 -3.01114276050219 -97.2425055756695
286430000.0 -3.01638195535413 -97.6383524568639
287428000.0 -3.0414629833119 -97.8090112979727
288426000.0 -3.02091757728476 -97.9723705160879
289424000.0 -3.01913840917689 -98.2144838135182
290422000.0 -3.03751065150959 -98.5358986416008
291420000.0 -3.0222011750902 -98.8665597888662
292418000.0 -3.02828762885829 -99.1498541472809
293416000.0 -3.03903411130481 -99.2867412652217
294414000.0 -3.02102857248494 -99.5422794235746
295412000.0 -3.01902230573638 -99.7380942380053
296410000.0 -3.04812464616715 -100.065398175119
297408000.0 -3.04656552339455 -100.270976779483
298406000.0 -3.05982552172806 -100.708647106675
299404000.0 -3.06620906377387 -100.891154720342
300402000.0 -3.05413646285978 -101.151233057715
301400000.0 -3.0459476037442 -101.385162209743
302398000.0 -3.05393522205395 -101.596664166084
303396000.0 -3.05855255634334 -101.930323334403
304394000.0 -3.07174824323446 -102.040047764546
305392000.0 -3.14259629516265 -102.340211447134
306390000.0 -3.0947663981424 -102.516007219449
307388000.0 -3.14673746370535 -102.527183066177
308386000.0 -3.12963091241813 -102.726759903809
309384000.0 -3.12824153925418 -103.085405829492
310382000.0 -3.11583826497782 -103.449754784628
311380000.0 -3.15086089840222 -103.768758890087
312378000.0 -3.15140311365034 -103.621039733503
313376000.0 -3.15702209789542 -104.039500898123
314374000.0 -3.1503988757001 -104.292208515551
315372000.0 -3.15629447281059 -104.395491819027
316370000.0 -3.16478898552166 -104.585848151241
317368000.0 -3.16711787718523 -104.748632208181
318366000.0 -3.18681481209794 -105.013232436085
319364000.0 -3.17310647790372 -105.213607080566
320362000.0 -3.15660202440114 -105.310052334792
321360000.0 -3.14821992891236 -105.649136745688
322358000.0 -3.14904506706066 -105.850651858601
323356000.0 -3.19166801684636 -105.98993775878
324354000.0 -3.17069978102191 -106.139507497239
325352000.0 -3.15608574249873 -106.478393324947
326350000.0 -3.146087936363 -106.674474667366
327348000.0 -3.17309964650614 -106.876021392542
328346000.0 -3.1861493674353 -106.850966883223
329344000.0 -3.14171052343686 -107.128667642331
330342000.0 -3.16966425774987 -107.328064728333
331340000.0 -3.18618707036468 -107.651989994584
332338000.0 -3.16711910597478 -107.773275319971
333336000.0 -3.18467284651445 -107.834592939643
334334000.0 -3.15819713050161 -108.200592499721
335332000.0 -3.15962913515042 -108.296757485823
336330000.0 -3.16865512993834 -108.669516266357
337328000.0 -3.16311978490684 -108.786654466781
338326000.0 -3.17854358779513 -109.014021084078
339324000.0 -3.16333314606809 -109.068814862278
340322000.0 -3.14728088690732 -109.333925517313
341320000.0 -3.15201532901379 -109.537390401582
342318000.0 -3.13618277840799 -109.833583531822
343316000.0 -3.15103350690165 -109.994397782739
344314000.0 -3.13824500927066 -110.200081823944
345312000.0 -3.14210319300496 -110.231886848548
346310000.0 -3.13072822716027 -110.410011966973
347308000.0 -3.11425453965889 -110.784692796965
348306000.0 -3.15169830437649 -111.046909832645
349304000.0 -3.11837078232025 -111.00375475589
350302000.0 -3.10844630846475 -111.407160402571
351300000.0 -3.12742609786484 -111.56946577838
352298000.0 -3.1159779621751 -112.00253471273
353296000.0 -3.14195029376554 -112.103576590672
354294000.0 -3.11719911205273 -112.25668173484
355292000.0 -3.1118294512641 -112.621993464241
356290000.0 -3.10953703031411 -112.794146338521
357288000.0 -3.07670603909175 -113.02679908397
358286000.0 -3.12158322926775 -113.281500712976
359284000.0 -3.08958747883032 -113.46038950681
360282000.0 -3.08661932008657 -113.588867374171
361280000.0 -3.1080264455705 -113.848923871933
362278000.0 -3.10446595994095 -114.015059220248
363276000.0 -3.11343603554106 -114.204035858326
364274000.0 -3.10888988671121 -114.462405025768
365272000.0 -3.09281584709184 -114.607157547868
366270000.0 -3.08731723306807 -114.835750754334
367268000.0 -3.08932071877915 -115.045631595593
368266000.0 -3.09984600809556 -115.319999689515
369264000.0 -3.07545529930693 -115.607824184901
370262000.0 -3.08000262522548 -115.585377322195
371260000.0 -3.11264285344056 -115.934969149042
372258000.0 -3.12765379685759 -116.088634935692
373256000.0 -3.11638926476399 -116.156832380081
374254000.0 -3.08364946725128 -116.417765921218
375252000.0 -3.08812693473756 -116.690222608385
376250000.0 -3.07203652003092 -116.914340851398
377248000.0 -3.07307780366197 -117.223825913543
378246000.0 -3.06752112760757 -117.08862477031
379244000.0 -3.05879394305298 -117.507422795123
380242000.0 -3.09505124357797 -117.584587399916
381240000.0 -3.0632288990662 -117.843732902379
382238000.0 -3.0729075847681 -118.098071074481
383236000.0 -3.06804845575587 -118.27764189029
384234000.0 -3.06989890245018 -118.289892556353
385232000.0 -3.04584336063515 -118.556969696104
386230000.0 -3.05600987561172 -118.72100687547
387228000.0 -3.05753980773716 -118.866907971327
388226000.0 -3.04051267329557 -119.12036281485
389224000.0 -3.04243707528007 -119.256372508845
390222000.0 -3.02398561134167 -119.459718938506
391220000.0 -3.0562775870894 -119.677346604592
392218000.0 -3.05021898006344 -119.973047521593
393216000.0 -3.06661720517279 -119.94401567711
394214000.0 -3.01677087418043 -120.162006835977
395212000.0 -3.03476827114256 -120.296690641598
396210000.0 -3.0445572905906 -120.423091063979
397208000.0 -3.02825841132955 -120.550684609075
398206000.0 -3.01782389632675 -120.938237495118
399204000.0 -3.02470491863233 -121.003549934621
400202000.0 -3.01644755524959 -121.235060517253
401200000.0 -2.99685293144515 -121.440775347417
402198000.0 -2.98287045490701 -121.568190208385
403196000.0 -2.98368795878566 -121.780215813056
404194000.0 -2.96594831882443 -121.994363521974
405192000.0 -2.95510678465532 -122.175887921836
406190000.0 -2.96676885114622 -122.344188774941
407188000.0 -2.9760726597109 -122.499126011301
408186000.0 -2.96108181970663 -122.727592796492
409184000.0 -2.94911345497952 -122.941273087832
410182000.0 -2.99985320125249 -123.098676015562
411180000.0 -2.95289964489826 -123.308657477841
412178000.0 -2.9565934360429 -123.454101290695
413176000.0 -2.9378327372188 -123.671022438631
414174000.0 -2.96066140033861 -123.871312381524
