!Keysight Technologies N9923A: A.08.19
!Date: Thursday, 16 January 2020 11:30:00
!TimeZone: (GMT-03:00) Brasilia!Model: N9923A
!Serial: MY51491501
!GPS Latitude: 
!GPS Longitude: 
!GPS TimeStamp: 0001-01-01 00:00:00Z
!GPS Seconds Since Last Read: 0
!CHECKSUM:1078980270
!Correction: S11(ON U)
!S1P File: Measurement: S11:
# Hz S DB R 50
23740000 0.00325337498395502 -27.7315986816605
47276300 0.00304040363196254 -61.990448825178
70812600 -0.0513961496169168 -133.133697871537
94348900 -0.173407794576613 45.3392477448137
117885200 -0.0420904508592888 -28.1077546443411
141421500 -0.032052043168318 -59.7116807581714
164957800 -0.0557280085852456 -82.6369063792821
188494100 -0.174071716747972 -105.011681443107
212030400 -1.10866420444201 -136.351054479931
235566700 -8.16539313053633 -178.664410171137
259103000 -1.81039886247708 -34.5851145496777
282639300 -0.298100067283596 -94.8323851361929
306175600 -0.409889050066814 -117.127888849318
329711900 -1.08377339838238 -133.677074055216
353248200 -2.78620483722401 -140.280468561882
376784500 -2.59622209516197 -140.482914708207
400320800 -4.71313663229966 -151.431867691345
423857100 -1.19048536488539 -135.24655528481
447393400 -1.05272312491323 -152.427226296745
470929700 -1.94096126405335 -160.628673325982
494466000 -2.05940995354775 -160.240094927722
518002300 -1.52604684114462 -167.155254513904
541538600 -2.454113557112 -178.825865766982
565074900 -2.99569791763505 -167.378637201232
588611200 -2.64334095683624 -177.032602919751
612147500 -3.44972098250641 -172.611124738803
635683800 -1.96246027118906 -172.070602113843
659220100 -1.30577006332518 179.698554853806
682756400 -1.49067550815336 173.69601096693
706292700 -1.24024809711472 169.223862235327
729829000 -1.49662120171061 160.587403086285
753365300 -3.25242521811212 157.113759339122
776901600 -2.79490015975629 167.739094991218
800437900 -2.11285324093432 165.253599693415
823974200 -1.48641382139943 160.676717373724
847510500 -1.06307016750175 154.149284360547
871046800 -1.00113725956552 145.904491404443
894583100 -1.6714593183332 136.464089558789
918119400 -3.87000279762275 133.547790948551
941655700 -4.04451273955591 150.647885692482
965192000 -2.00554225924048 149.634880884138
988728300 -1.19623750589245 140.710071460902
1012264600 -1.25435379053237 130.742269869455
1035800899 -2.38689017614468 120.019943618941
1059337200 -6.2372061592984 128.776518145553
1082873500 -2.69068865094936 147.801186357837
1106409800 -1.08295932716496 137.070155486555
1129946100 -0.715000094642149 127.810816196042
1153482400 -0.771193845455064 119.504335785535
1177018700 -1.26550192848367 111.440369269018
1200555000 -2.57988426010286 104.939696301491
1224091300 -4.84303289200351 114.676398859446
1247627600 -2.3365965692937 125.827182951175
1271163900 -1.07400973660719 116.492821394856
1294700200 -0.950821279907368 107.70507181675
1318236500 -1.46316542444685 100.303816631227
1341772800 -2.80843929100325 98.9045643053447
1365309100 -2.40882638664358 108.696645687047
1388845400 -1.05856091164799 104.352175638774
1412381700 -0.683697442685452 97.4933463082771
1435918000 -0.664881389277108 91.4254859436863
1459454300 -0.876602363483681 85.8825373958693
1482990600 -1.48163666939599 81.9156667790577
1506526900 -1.78274857223916 85.0717972568093
1530063200 -0.99012206262917 82.9877697686142
1553599500 -0.749937049897076 77.967290906109
1577135800 -0.722096883673173 73.634622253354
1600672100 -0.743996020993161 69.8717583151921
1624208400 -0.772222413858917 66.4762373075836
1647744700 -0.791651838462194 63.3296836206012
1671281000 -0.794994242639473 60.3572816067647
1694817300 -0.777107832138957 57.4992108383835
1718353600 -0.733330753406967 54.6868793450113
1741889900 -0.661308884699859 51.8158218234759
1765426200 -0.569453011999743 48.7360238335566
1788962500 -0.488118575004363 45.3412058512969
1812498800 -0.454728175133129 41.7481871845498
1836035100 -0.472135897238755 38.2261525755806
1859571400 -0.511996377014629 34.8986607545855
1883107700 -0.551017724674015 31.714162386587
1906644000 -0.580819874737706 28.5843801508472
1930180300 -0.600825620105105 25.4490498823981
1953716600 -0.612632513064093 22.2784476390023
1977252900 -0.617948767053546 19.06281000487
2000789199 -0.618163381398579 15.8039170403688
2024325500 -0.614397104916765 12.5099289131805
2047861800 -0.607622526798961 9.19229510725603
2071398100 -0.598745218021177 5.86384995720933
2094934400 -0.588636047058527 2.53761851322738
2118470700 -0.578129984241401 -0.773919178556532
2142007000 -0.568008481570811 -4.05925453959086
2165543300 -0.558977911345506 -7.30806800401766
2189079600 -0.551651334443719 -10.5113096576123
2212615900 -0.546536815149892 -13.6611946349378
2236152200 -0.54403288135161 -16.751148996151
2259688500 -0.54443029925718 -19.7757295111725
2283224800 -0.547918723510413 -22.730531825076
2306761100 -0.55459667198655 -25.6120953878767
2330297400 -0.564483423699879 -28.417809674124
2353833700 -0.577531696966239 -31.1458239509156
2377370000 -0.593640246179684 -33.7949616276333
2400906300 -0.61015243249698 -36.3912181765788
2424442600 -0.597897378229533 -39.2611627145512
2447978900 -0.586724094704269 -42.1043028680889
2471515200 -0.57650582846001 -44.9199933176406
2495051500 -0.567119427860288 -47.7077272017938
2518587800 -0.558446218674611 -50.4671299789982
2542124100 -0.550372739052488 -53.1979526474969
2565660400 -0.542791336458634 -55.9000644933564
2589196700 -0.535600631575946 -58.5734455240402
2612733000 -0.52870585600902 -61.2181787308951
2636269300 -0.522019071846519 -63.8344423091782
2659805600 -0.515459281790641 -66.4225019497417
2683341900 -0.508952438664325 -68.9827033031006
2706878200 -0.50243136268878 -71.5154647052184
2730414500 -0.495835574000096 -74.0212702459834
2753950800 -0.489111046441698 -76.5006632573015
2777487100 -0.482209886704161 -78.9542402998215
2801023400 -0.475089940333044 -81.382645738319
2824559700 -0.467714322921469 -83.786567020136
2848096000 -0.46005087089295 -86.1667308161567
2871632300 -0.452071501720213 -88.5239002619805
2895168600 -0.443751468632215 -90.8588736694971
2918704900 -0.435068491217653 -93.17248530295
2942241200 -0.426001744683631 -95.465609193728
2965777500 -0.416530706823497 -97.7391676190515
2989313800 -0.406633918009728 -99.9941469915108
3012850100 -0.396287868074139 -102.23162583622
3036386400 -0.38546663975643 -104.452822779231
3059922700 -0.374143995851515 -106.659177545161
3083459000 -0.362302231750258 -108.852484158676
3106995300 -0.349958456286478 -111.035095376931
3130531600 -0.337232874145066 -113.210175272401
3154067900 -0.324506107450733 -115.381763783501
3177604200 -0.312705349207468 -117.553713928134
3201140500 -0.303520414424642 -119.725382394093
3224676800 -0.298614778542689 -121.884222145139
3248213100 -0.297246219021565 -124.008422837957
3271749400 -0.295824931747081 -126.08962037173
3295285700 -0.291580444272156 -128.1415326533
3318822000 -0.284355062518554 -130.181242650367
3342358300 -0.275148901744624 -132.217735500578
3365894600 -0.264889731844138 -134.253782105025
3389430900 -0.254168024327172 -136.289686467286
3412967200 -0.243319257802505 -138.325180481531
3436503500 -0.232530692307462 -140.360061604779
3460039800 -0.221910128776736 -142.394334328171
3483576100 -0.211523555384488 -144.428200257723
3507112400 -0.20141473537505 -146.462016042851
3530648700 -0.191615255098179 -148.496253658648
3554185000 -0.182149654224376 -150.531470180869
3577721300 -0.173038013510344 -152.568286491241
3601257600 -0.16429720550168 -154.607372775406
3624793900 -0.15594141955411 -156.649438780365
3648330200 -0.147982268805172 -158.695227210347
3671866500 -0.140428626498738 -160.7455089649
3695402800 -0.133286249209734 -162.801079043912
3718939100 -0.126557189612938 -164.862751777643
3742475400 -0.120238969032564 -166.931353412034
3766011700 -0.11432348504413 -169.00770857934
3789548000 -0.108795756925802 -171.092613869558
3813084300 -0.103633181989656 -173.186784526347
3836620600 -0.098808149115183 -175.290745350491
3860156900 -0.0943048049878672 -177.404611957717
3883693200 -0.0901883429394642 -179.527715258156
3907229500 -0.0868396821657743 178.341565521801
3930765800 -0.0854463270699335 176.202932022125
3954302100 -0.087460966003018 174.043350449765
3977838400 -0.0910523498362915 171.842568221917
4001374700 -0.0929830141876261 169.606991693895
4024911000 -0.0933746608432181 167.350836439867
4048447300 -0.093340089146864 165.07637296926
4071983600 -0.0934596057550159 162.780841706591
4095519900 -0.0939399663917333 160.461014493113
4119056200 -0.0948408684404366 158.113975242558
4142592500 -0.096171861922567 155.73703920491
4166128800 -0.0979275918035476 153.32760740938
4189665100 -0.100100659984744 150.883066105576
4213201400 -0.102686740011897 148.400724130427
4236737700 -0.105687062437126 145.877772915004
4260274000 -0.10911008956494 143.31125920239
4283810300 -0.112973052026429 140.698065002502
4307346600 -0.117303610593627 138.034891925719
4330882900 -0.122141756885869 135.318248485552
4354419200 -0.127542010866782 132.544439780383
4377955500 -0.133575951799608 129.709559462183
4401491800 -0.140335110121481 126.809484238481
4425028100 -0.147934241364102 123.839871417573
4448564400 -0.156514995522974 120.796160241031
4472100700 -0.166249983615112 117.673577975388
4495637000 -0.177347225510924 114.467151967505
4519173300 -0.190054937438985 111.171729107698
4542709600 -0.204666581661838 107.782004385779
4566245900 -0.22152605243164 104.292560454121
4589782200 -0.241032809291664 100.697920305113
4613318500 -0.26364668944793 96.9926152928841
4636854800 -0.289892034813903 93.1712707321678
4660391100 -0.320360658054572 89.228711127468
4683927400 -0.355713050495946 85.1600866468293
4707463700 -0.396677112924321 80.9610216717789
4731000000 -0.444043584223362 76.6277850459771
