!Keysight Technologies N9923A: A.08.19
!Date: Thursday, 16 January 2020 11:30:00
!TimeZone: (GMT-03:00) Brasilia!Model: N9923A
!Serial: MY51491501
!GPS Latitude: 
!GPS Longitude: 
!GPS TimeStamp: 0001-01-01 00:00:00Z
!GPS Seconds Since Last Read: 0
!CHECKSUM:1078980270
!Correction: S11(ON U)
!S1P File: Measurement: S11:
# Hz S DB R 50
23740000 0.00434632762726448 -27.5654665881509
47276300 0.00511985652326618 -62.5577536602066
70812600 -0.0541762019328338 -141.664131168198
94348900 -0.118047769617734 36.4873684722272
117885200 -0.0358446104185451 -28.2243666696534
141421500 -0.0293036641962891 -57.3376954038273
164957800 -0.0502548140579486 -78.6162834526242
188494100 -0.166534348368734 -98.7424831767144
212030400 -1.07386290427926 -124.570777655258
235566700 -6.63853517660357 -135.675828715915
259103000 -11.0531429175205 -11.7396449651617
282639300 -0.362413352201264 -97.6311975781235
306175600 -0.36287285173198 -120.700053868494
329711900 -0.860905849230875 -137.112539303382
353248200 -2.33663005054213 -147.336118465871
376784500 -2.49506305821817 -152.228896508528
400320800 -5.64951846821167 175.761165786799
423857100 -2.31203815404346 -119.734121985738
447393400 -1.50565810615611 -147.353512004752
470929700 -2.71923852408701 -157.81224351091
494466000 -2.91805278411187 -154.39735734284
518002300 -2.02428297808087 -160.672872660838
541538600 -2.78690474859072 -171.03549106272
565074900 -2.12686964842745 -163.56920614007
588611200 -2.11428080096571 -173.876052364734
612147500 -2.98722912233361 -172.125392276112
635683800 -1.81509799734789 -171.923777286695
659220100 -1.28082744587747 -179.510430386527
682756400 -1.47342573556159 174.367502945733
706292700 -1.28314615841476 170.384324507293
729829000 -1.49159007061223 161.754843347811
753365300 -3.25143816446923 157.235272602827
776901600 -2.93609278030845 169.331203121487
800437900 -1.99704776424075 164.589457507889
823974200 -1.66999855720941 162.14602773206
847510500 -1.0712802883713 156.193078791345
871046800 -1.05993893668554 147.707849294819
894583100 -1.89138575063789 139.397231855797
918119400 -3.65527497050168 141.362609619608
941655700 -2.93700983962843 151.516273394731
965192000 -1.56503877603146 148.155696082963
988728300 -0.966866861932776 140.661709249766
1012264600 -0.875521315984515 132.294028810802
1035800899 -1.30586810001349 122.992766902778
1059337200 -2.96704994649679 113.546884989396
1082873500 -6.41329992873242 129.290597464414
1106409800 -2.68588271849563 143.63976915688
1129946100 -1.19605798314064 131.6422575922
1153482400 -1.12571298695738 120.603075579089
1177018700 -1.95066283395892 110.115425321369
1200555000 -4.93293490222576 106.953338658051
1224091300 -4.15810734425744 136.122882489017
1247627600 -1.43089293187952 128.612257976351
1271163900 -0.794028917480847 118.770346257143
1294700200 -0.733206430767296 110.73751285307
1318236500 -1.04721086759855 103.557485397978
1341772800 -1.95870556986169 98.6197794344539
1365309100 -2.69258637278554 99.45012162483
1388845400 -2.12331693426777 106.236446999915
1412381700 -0.744446891852951 99.1321239147833
1435918000 -0.759866533471182 92.1908615073247
1459454300 -0.920428693304124 87.5407213665362
1482990600 -1.20839253411791 83.3838041204579
1506526900 -2.02472604266562 83.3285011893555
1530063200 -1.05382009461304 85.1633636092998
1553599500 -0.774148031487622 79.9994415173312
1577135800 -0.726184093901935 76.0268261681372
1600672100 -0.707017877062002 72.5121074974222
1624208400 -0.693185839706354 69.1670070514991
1647744700 -0.681361966357098 65.8853306536979
1671281000 -0.671787653618012 62.6213433456548
1694817300 -0.665679139798348 59.353955089592
1718353600 -0.664894419613061 56.075172091263
1741889900 -0.672330325115006 52.7889499238093
1765426200 -0.693015032040915 49.5260073324017
1788962500 -0.731683625769103 46.4419175559518
1812498800 -0.669565033533903 43.7589261676762
1836035100 -0.657083673988852 39.6444928034863
1859571400 -0.780718349002624 36.3130543701094
1883107700 -0.903209857128157 33.8642932392932
1906644000 -0.837080921253906 32.2238478758588
1930180300 -0.585379046349075 29.1526989858322
1953716600 -0.474646141492104 25.0221627242296
1977252900 -0.476112067445458 21.0204290900804
2000789199 -0.532416194301723 17.3075965248555
2024325500 -0.629989057473174 14.0417492580566
2047861800 -0.682105314722826 11.6353952945964
2071398100 -0.553104193571202 8.91416125724194
2094934400 -0.472065238425798 5.27485502024573
2118470700 -0.467706427248929 1.65566292030483
2142007000 -0.49573597685166 -1.81431189764432
2165543300 -0.551624611474387 -5.32532760235518
2189079600 -0.460516958334438 -9.29392616216323
2212615900 -0.452625343751186 -11.6030213896309
2236152200 -0.495907079939423 -14.4789574943464
2259688500 -0.527280932740019 -17.3871168766203
2283224800 -0.552793761310856 -20.2486149424756
2306761100 -0.574727665966931 -23.0489426611618
2330297400 -0.593949798242452 -25.7840939909636
2353833700 -0.610816687729333 -28.4526809914345
2377370000 -0.625476347518845 -31.0541959027911
2400906300 -0.635632089431276 -33.6167777821476
2424442600 -0.616830484362981 -36.4825863469645
2447978900 -0.599389010179478 -39.3275254720301
2471515200 -0.583227095597408 -42.150558783603
2495051500 -0.568262057647979 -44.9507685345341
2518587800 -0.554409997653247 -47.7273549603841
2542124100 -0.541586647795067 -50.4796346745139
2565660400 -0.529708159312905 -53.2070382061095
2589196700 -0.51869182567829 -55.9091067904323
2612733000 -0.508456736325545 -58.5854885226536
2636269300 -0.498924358609759 -61.2359339858042
2659805600 -0.490019047571346 -63.8602914600949
2683341900 -0.481668484784938 -66.4585018155853
2706878200 -0.473804049049015 -69.030593183361
2730414500 -0.46636112293535 -71.5766754924531
2753950800 -0.459279340281232 -74.0969349510907
2777487100 -0.452502780603197 -76.5916285418644
2801023400 -0.445980117178222 -79.061078591277
2824559700 -0.439664726231756 -81.5056674651962
2848096000 -0.433514765357018 -83.9258324330382
2871632300 -0.427493230052164 -86.3220607351914
2895168600 -0.421567998207981 -88.694884880206
2918704900 -0.415711873654244 -91.0448781904991
2942241200 -0.409902641672761 -93.3726506074635
2965777500 -0.404123151988736 -95.6788447583905
2989313800 -0.398361448565085 -97.9641322775908
3012850100 -0.392610971152397 -100.229210360949
3036386400 -0.38687086191849 -102.474798514148
3059922700 -0.381146423042661 -104.701635425143
3083459000 -0.375449790216378 -106.910475842632
3106995300 -0.369800916281278 -109.102087258481
3130531600 -0.364229004935817 -111.277246043978
3154067900 -0.358774606947853 -113.436732420497
3177604200 -0.353492708416067 -115.581323141819
3201140500 -0.348457333222944 -117.711779796247
3224676800 -0.34376850400941 -119.828828708393
3248213100 -0.339562951959587 -121.933124440418
3271749400 -0.336030893035758 -124.025180332151
3295285700 -0.333442725440459 -126.105230246866
3318822000 -0.332191798225603 -128.172940092052
3342358300 -0.332861469573262 -130.226774168093
3365894600 -0.336318675157544 -132.262526130944
3389430900 -0.343777774850988 -134.269749111085
3412967200 -0.356436646840836 -136.223049060327
3436503500 -0.37262362214335 -138.064790972457
3460039800 -0.375834866421453 -139.712649608221
3483576100 -0.326062241279729 -141.288532194629
3507112400 -0.240246178323051 -143.231689100938
3530648700 -0.185696563651329 -145.461062269902
3554185000 -0.162457815798963 -147.688816620509
3577721300 -0.152393343004129 -149.851394857942
3601257600 -0.146817343403811 -151.963349839536
3624793900 -0.1426270336769 -154.043225701059
3648330200 -0.138777368460989 -156.103617229123
3671866500 -0.134940347018148 -158.152531538051
3695402800 -0.131040790644321 -160.195216757848
3718939100 -0.127092270138395 -162.235318467329
3742475400 -0.123137068892614 -164.275540202331
3766011700 -0.119223815323418 -166.318019333679
3789548000 -0.115399324804611 -168.36454617591
3813084300 -0.111705939616557 -170.416696009552
3836620600 -0.10818099474499 -172.475911572299
3860156900 -0.104857067401106 -174.54355659703
3883693200 -0.101762471917787 -176.620951965894
3907229500 -0.0989217894047576 -178.709401171458
3930765800 -0.0963563572064513 179.189790934467
3954302100 -0.0940846991075913 177.075303670826
3977838400 -0.0921228994348247 174.945788809478
4001374700 -0.0904849321480806 172.799860627956
4024911000 -0.089182958067959 170.636087087072
4048447300 -0.0882276031770774 168.452981699169
4071983600 -0.0876282300304017 166.248995789399
4095519900 -0.087393213367972 164.022510942588
4119056200 -0.0875302302976751 161.771831489653
4142592500 -0.0880465749861851 159.495176930737
4166128800 -0.0889495076718356 157.190674224179
4189665100 -0.0902466479754399 154.856349895546
4213201400 -0.091946422907191 152.490121942389
4236737700 -0.0940585806222594 150.089791530326
4260274000 -0.0965947818347489 147.653034496262
4283810300 -0.099569281828944 145.177392696519
4307346600 -0.102999717168867 142.660265262774
4330882900 -0.10690801245269 140.098899858192
4354419200 -0.111321423718048 137.490384061624
4377955500 -0.116273736280475 134.831637050418
4401491800 -0.12180663574567 132.1194018042
4425028100 -0.127971271488779 129.350238114311
4448564400 -0.134830031785609 126.520516758541
4472100700 -0.14245854866817 123.626415289983
4495637000 -0.150947948008119 120.663915993949
4519173300 -0.160407355720725 117.628806689347
4542709600 -0.170966663588677 114.516685191056
4566245900 -0.182779547114806 111.322968407266
4589782200 -0.196026711933271 108.042907217727
4613318500 -0.210919323386611 104.671608460147
4636854800 -0.227702544552918 101.204065533178
4660391100 -0.246659069939713 97.6351992909254
4683927400 -0.268112494124095 93.9599110339872
4707463700 -0.292430296235954 90.1731494657485
4731000000 -0.320026152801824 86.269993440212
