!Keysight Technologies N9923A: A.08.19
!Date: Thursday, 16 January 2020 11:30:00
!TimeZone: (GMT-03:00) Brasilia!Model: N9923A
!Serial: MY51491501
!GPS Latitude: 
!GPS Longitude: 
!GPS TimeStamp: 0001-01-01 00:00:00Z
!GPS Seconds Since Last Read: 0
!CHECKSUM:1078980270
!Correction: S11(ON U)
!S1P File: Measurement: S11:
# Hz S DB R 50
23740000 0.0052088 -27.25329566
47276300 0.00724848 -61.05688809
70812600 -0.04205774 -130.6633694
94348900 -0.18961953 51.84955947
117885200 -0.04642462 -23.37850492
141421500 -0.02797564 -55.62407689
164957800 -0.05236303 -78.83352162
188494100 -0.17837639 -101.80509144
212030400 -1.24883646 -136.95755844
235566700 -13.65919785 122.26087793
259103000 -0.39746906 -67.46178662
282639300 -0.20018068 -101.89972466
306175600 -0.32244223 -119.96881545
329711900 -0.84773296 -135.49824449
353248200 -2.37891698 -145.73062829
376784500 -2.73373941 -153.35063469
400320800 -16.04120709 -57.38980698
423857100 -0.84238113 -129.24138631
447393400 -1.12248374 -147.73249489
470929700 -2.10439847 -155.8078474
494466000 -1.95283594 -154.81480756
518002300 -1.485714 -164.70883331
541538600 -2.04333948 -172.9147765
565074900 -2.81293565 -177.71084349
588611200 -3.55861362 -178.97530261
612147500 -3.82838591 -176.04246028
635683800 -2.91318253 -173.04686917
659220100 -1.52208298 -177.61432203
682756400 -0.89727276 174.49708653
706292700 -0.92678285 169.18733734
729829000 -1.32766863 166.82999032
753365300 -1.980543 165.84081695
776901600 -2.68308493 164.86395099
800437900 -2.51933597 163.14107434
823974200 -2.13278563 161.84150638
847510500 -1.43598075 156.81130857
871046800 -1.61268287 148.00853102
894583100 -2.83013101 145.30899321
918119400 -2.56149779 149.50452724
941655700 -2.34250285 148.17309982
965192000 -1.63470265 146.52231341
988728300 -1.13632809 139.33527577
1012264600 -1.29959317 130.16389855
1035800899 -2.73678447 119.49455503
1059337200 -6.07904687 137.68404101
1082873500 -2.38975976 146.73113485
1106409800 -1.10601549 137.04085037
1129946100 -0.77211254 128.16124313
1153482400 -0.8622948 119.69147894
1177018700 -1.4935474 110.5938813
1200555000 -3.96629842 104.06431717
1224091300 -4.13772547 133.8098259
1247627600 -1.25759953 126.11573712
1271163900 -0.72657271 116.37867892
1294700200 -0.72719323 108.33171998
1318236500 -1.23547071 100.31653595
1341772800 -2.69280866 96.68349462
1365309100 -2.77152309 94.4255354
1388845400 -2.16087221 90.87999718
1412381700 -1.71472032 88.77632383
1435918000 -1.42038072 87.05603037
1459454300 -1.22614965 85.30629741
1482990600 -1.09371904 83.40647686
1506526900 -0.99975116 81.33678882
1530063200 -0.93049485 79.10757207
1553599500 -0.87774694 76.73585934
1577135800 -0.83648242 74.23824424
1600672100 -0.80352907 71.62912783
1624208400 -0.7768231 68.92065516
1647744700 -0.75498196 66.12310837
1671281000 -0.73705219 63.24535625
1694817300 -0.72235649 60.29524359
1718353600 -0.71039828 57.27989801
1741889900 -0.70080063 54.2059611
1765426200 -0.69326645 51.07975736
1788962500 -0.68755194 47.90741382
1812498800 -0.68344873 44.6949413
1836035100 -0.68077184 41.44828576
1859571400 -0.67935156 38.17335614
1883107700 -0.67902814 34.876034
1906644000 -0.67964836 31.56216899
1930180300 -0.68106365 28.23756354
1953716600 -0.68312919 24.90794957
1977252900 -0.68570371 21.57895975
2000789199 -0.68864994 18.25609536
2024325500 -0.69183528 14.94469263
2047861800 -0.6951327 11.64988932
2071398100 -0.69842182 8.37659263
2094934400 -0.70158983 5.12944993
2118470700 -0.70453244 1.91282292
2142007000 -0.70715461 -1.26923395
2165543300 -0.70937123 -4.41299039
2189079600 -0.71110741 -7.5150524
2212615900 -0.71229878 -10.57236934
2236152200 -0.71289139 -13.58223644
2259688500 -0.71284161 -16.54229263
2283224800 -0.71211569 -19.45051445
2306761100 -0.71068929 -22.30520625
2330297400 -0.70854688 -25.1049873
2353833700 -0.705681 -27.84877643
2377370000 -0.70209153 -30.53577456
2400906300 -0.698188 -33.20442843
2424442600 -0.69843462 -36.28896685
2447978900 -0.69774851 -39.31279927
2471515200 -0.6960036 -42.27847738
2495051500 -0.69310495 -45.18850068
2518587800 -0.68898463 -48.04530141
2542124100 -0.68359803 -50.85123217
2565660400 -0.67692033 -53.6085557
2589196700 -0.66894345 -56.319436
2612733000 -0.65967316 -58.98593022
2636269300 -0.64912652 -61.60998044
2659805600 -0.63732971 -64.19340463
2683341900 -0.62431596 -66.73788583
2706878200 -0.61012399 -69.24495815
2730414500 -0.59479675 -71.71598804
2753950800 -0.57838079 -74.15214853
2777487100 -0.5609265 -76.55438308
2801023400 -0.54248978 -78.92335446
2824559700 -0.52313633 -81.25937204
2848096000 -0.50295044 -83.56228833
2871632300 -0.48205228 -85.83135293
2895168600 -0.46063082 -88.06501161
2918704900 -0.43900653 -90.26064758
2942241200 -0.41775022 -92.41430486
2965777500 -0.39790571 -94.52057944
2989313800 -0.38138911 -96.57329611
3012850100 -0.37161715 -98.56870933
3036386400 -0.37412389 -100.51512754
3059922700 -0.39575837 -102.45343239
3083459000 -0.43908914 -104.47708651
3106995300 -0.49228372 -106.69503393
3130531600 -0.53095196 -109.11349355
3154067900 -0.54036024 -111.60717957
3177604200 -0.52524973 -114.05150587
3201140500 -0.49731583 -116.40122673
3224676800 -0.4651462 -118.66325438
3248213100 -0.43305632 -120.85854534
3271749400 -0.40276423 -123.00602278
3295285700 -0.37476826 -125.11942286
3318822000 -0.34907043 -127.20809283
3342358300 -0.32550071 -129.27833736
3365894600 -0.30385007 -131.33448103
3389430900 -0.28392025 -133.37958134
3412967200 -0.26553895 -135.4158834
3436503500 -0.24856147 -137.44510636
3460039800 -0.23286761 -139.46862472
3483576100 -0.21835734 -141.48758468
3507112400 -0.20494663 -143.50298019
3530648700 -0.19256391 -145.51570349
3554185000 -0.1811471 -147.52657972
3577721300 -0.17064131 -149.53639094
3601257600 -0.16099705 -151.54589343
3624793900 -0.15216882 -153.55583033
3648330200 -0.14411401 -155.56694134
3671866500 -0.13679212 -157.5799702
3695402800 -0.13016415 -159.59567084
3718939100 -0.12419213 -161.61481249
3742475400 -0.11883886 -163.63818408
3766011700 -0.11406767 -165.66659824
3789548000 -0.10984236 -167.70089497
3813084300 -0.10612714 -169.74194506
3836620600 -0.1028867 -171.79065351
3860156900 -0.10008633 -173.84796289
3883693200 -0.09769204 -175.91485669
3907229500 -0.09567086 -177.99236285
3930765800 -0.09399105 179.91844258
3954302100 -0.09262249 177.8164316
3977838400 -0.09153701 175.70042012
4001374700 -0.09070888 173.56916353
4024911000 -0.09011525 171.42135184
4048447300 -0.08973671 169.25560442
4071983600 -0.08955788 167.0704642
4095519900 -0.089568 164.8643913
4119056200 -0.08976162 162.63575603
4142592500 -0.09013924 160.38283114
4166128800 -0.09070796 158.10378345
4189665100 -0.09148221 155.79666463
4213201400 -0.09248427 153.45940132
4236737700 -0.0937448 151.0897847
4260274000 -0.09530326 148.68545953
4283810300 -0.0972081 146.24391313
4307346600 -0.09951673 143.76246464
4330882900 -0.10229526 141.23825521
4354419200 -0.10561789 138.66823983
4377955500 -0.10956599 136.049182
4401491800 -0.11422676 133.37765224
4425028100 -0.11969168 130.65003209
4448564400 -0.12605464 127.86252499
4472100700 -0.13341005 125.01117575
4495637000 -0.14185095 122.09189997
4519173300 -0.15146757 119.10052472
4542709600 -0.16234643 116.03284114
4566245900 -0.17457045 112.884669
4589782200 -0.18822023 109.65193259
4613318500 -0.2033767 106.33074627
4636854800 -0.22012532 102.9175074
4660391100 -0.23856153 99.40899388
4683927400 -0.25879735 95.80246291
4707463700 -0.28096841 92.09574816
4731000000 -0.30524089 88.28735233
