!Keysight Technologies N9923A: A.08.19
!Date: Thursday, 16 January 2020 11:30:00
!TimeZone: (GMT-03:00) Brasilia!Model: N9923A
!Serial: MY51491501
!GPS Latitude: 
!GPS Longitude: 
!GPS TimeStamp: 0001-01-01 00:00:00Z
!GPS Seconds Since Last Read: 0
!CHECKSUM:1078980270
!Correction: S11(ON U)
!S1P File: Measurement: S11:
# Hz S DB R 50
23740000 0.00425913482999061 -28.1970206284969
47276300 0.00552436357351519 -63.0680458908561
70812600 -0.0382780991571408 -133.331324843496
94348900 -0.19193360672921 54.6889194491734
117885200 -0.0633123318892398 -21.772992118974
141421500 -0.0277483932026154 -55.1141542895348
164957800 -0.0507836744895132 -78.5444007455309
188494100 -0.173614642339108 -100.734885193739
212030400 -1.14987486898819 -131.077474295958
235566700 -9.31794077551536 -160.856067952478
259103000 -2.43840127207952 -38.5328320953941
282639300 -0.276683055254005 -97.4210532439195
306175600 -0.371784966726175 -118.701915768712
329711900 -0.946055536813066 -134.973147103653
353248200 -2.63324476039443 -143.873197063159
376784500 -2.67432419438372 -145.553697427826
400320800 -5.90460319442537 -166.008963511042
423857100 -1.5422008673372 -128.642492344864
447393400 -1.22036458852233 -149.741098687724
470929700 -2.28152770769735 -158.561762983325
494466000 -2.48533930937603 -155.721427411402
518002300 -1.5821657320511 -162.215557068042
541538600 -1.97360663140587 -171.697813697955
565074900 -2.32642811098831 -168.257945764905
588611200 -2.1536082039368 -177.494754666593
612147500 -3.41675488864832 -176.357748686163
635683800 -2.1592716775127 -172.442605897948
659220100 -1.42888550536531 179.946998342808
682756400 -1.59852730603841 173.752709444891
706292700 -1.3462194257164 169.731497966956
729829000 -1.48412309120271 161.073203291505
753365300 -3.22345252875026 153.127136903066
776901600 -3.17064461843711 168.851003125404
800437900 -2.07529433573961 164.452093473498
823974200 -1.70488178217577 161.605642965157
847510500 -1.08243952081793 155.266193242968
871046800 -1.08817795455106 146.400482360253
894583100 -1.91053230594065 136.641491637802
918119400 -4.64951254003342 136.711948350872
941655700 -3.83203015387391 155.644860033079
965192000 -1.76196239438791 152.356598174638
988728300 -1.00418290256629 142.956753513904
1012264600 -0.973337536494574 133.560801607963
1035800899 -1.57101793149678 123.548871611214
1059337200 -4.0205172748764 115.062398291332
1082873500 -5.28315373565761 146.741139931525
1106409800 -1.72648097983672 142.272749224989
1129946100 -0.905137575862381 131.036123806701
1153482400 -0.900964322037109 121.54334496691
1177018700 -1.47271168769947 112.839675329071
1200555000 -3.20237757658608 107.116516366647
1224091300 -4.63550028011006 125.180541862077
1247627600 -1.74121054793854 127.27322567882
1271163900 -0.874072867765638 117.473470216989
1294700200 -0.777785600885435 109.128316042256
1318236500 -1.13464051799509 100.612048463705
1341772800 -2.43566493434423 96.5140486163442
1365309100 -3.13146314209589 104.945500072169
1388845400 -1.51229120564704 106.930258010382
1412381700 -0.852459921869665 100.096359900491
1435918000 -0.749071560131623 93.8769326502742
1459454300 -0.899366445612561 88.3609762589448
1482990600 -1.39983063712208 84.2129272607244
1506526900 -1.74397219762611 86.1423530538663
1530063200 -1.07015253598807 84.6336008130822
1553599500 -0.813804260622459 79.9443765182803
1577135800 -0.778679750125455 75.6468680190235
1600672100 -0.824749021091684 71.8446710693532
1624208400 -0.924981926823203 68.6442145690487
1647744700 -0.942562798705369 66.8105751331618
1671281000 -0.670937609475618 63.3715976671342
1694817300 -0.680159242890601 59.2113304004241
1718353600 -0.743436985497641 55.8005091618143
1741889900 -0.792224024957692 52.8566481742471
1765426200 -0.774009233499999 50.2952549604649
1788962500 -0.627658022452204 47.3710291514394
1812498800 -0.521462530067233 43.3736249522099
1836035100 -0.545616215928767 39.347083600187
1859571400 -0.632435685760485 35.6955621665925
1883107700 -0.765507421169205 32.6309898840263
1906644000 -0.801837087778336 30.7581353598686
1930180300 -0.58518348605072 27.9501445023216
1953716600 -0.481780911157989 23.9426896557736
1977252900 -0.478529090363325 19.9679360953287
2000789199 -0.535200917988524 16.128840638908
2024325500 -0.67021414204301 12.6605772325597
2047861800 -0.796117013875315 10.4713550247818
2071398100 -0.653368058034874 8.25345760787133
2094934400 -0.521657757693826 4.67699870714486
2118470700 -0.492364904597003 0.889534936866863
2142007000 -0.521824981054486 -2.72333014745431
2165543300 -0.57984232183698 -6.01403266467365
2189079600 -0.621495469949729 -8.93838640932165
2212615900 -0.613725594440802 -11.7817596414829
2236152200 -0.586196955887678 -14.8084581277505
2259688500 -0.572537498067173 -17.945546785516
2283224800 -0.577817305552381 -21.0554585427238
2306761100 -0.596490673069936 -24.0638141018196
2330297400 -0.62264610457997 -26.9372883181179
2353833700 -0.651647714194899 -29.6585444521076
2377370000 -0.679809766798562 -32.2155497981004
2400906300 -0.702146087862168 -34.6435412356553
2424442600 -0.698020321838523 -37.5366218650533
2447978900 -0.691539745812753 -40.4090152779512
2471515200 -0.682925566431982 -43.2583883512584
2495051500 -0.672413999272611 -46.082672377014
2518587800 -0.660252272359655 -48.8800749239832
2542124100 -0.64669453281612 -51.649087312707
2565660400 -0.631997741425869 -54.3884877596337
2589196700 -0.616417633257643 -57.0973403306128
2612733000 -0.600204814780056 -59.7749899112594
2636269300 -0.583601059870965 -62.4210534524061
2659805600 -0.566835859418956 -65.0354077853604
2683341900 -0.550123272259199 -67.6181743273069
2706878200 -0.533659119191265 -70.1697010157463
2730414500 -0.517618556776121 -72.6905418261429
2753950800 -0.502154063286471 -75.1814342422747
2777487100 -0.487393865207517 -77.6432750665683
2801023400 -0.473440828566301 -80.0770949791948
2824559700 -0.460371834578497 -82.4840322797649
2848096000 -0.448237653145578 -84.8653062725569
2871632300 -0.437063320222279 -87.2221907824969
2895168600 -0.426849015783465 -89.555988310734
2918704900 -0.41757142805409 -91.8680053511143
2942241200 -0.409185577081548 -94.1595293875739
2965777500 -0.401627057139527 -96.4318080733167
2989313800 -0.39481464359843 -98.686031052576
3012850100 -0.388653196694245 -100.923314823297
3036386400 -0.383036783075049 -103.144690954724
3059922700 -0.377851927085948 -105.351097870227
3083459000 -0.372980898324712 -107.543376287462
3106995300 -0.368304940687045 -109.722268281438
3130531600 -0.363707351237873 -111.888419808913
3154067900 -0.359076324749367 -114.04238641259
3177604200 -0.354307491232478 -116.184641718549
3201140500 -0.349306088522369 -118.315588256648
3224676800 -0.343988728974706 -120.435570075954
3248213100 -0.338284737452865 -122.544886598238
3271749400 -0.332137055862121 -124.643807152333
3295285700 -0.325502726418333 -126.73258565883
3318822000 -0.318352980696261 -128.811474984238
3342358300 -0.31067297359705 -130.880740551284
3365894600 -0.302461210288627 -132.940672871495
3389430900 -0.293728719768688 -134.991598751507
3412967200 -0.284498031089322 -137.033891010074
3436503500 -0.274802007784029 -139.067976623596
3460039800 -0.264682593115446 -141.094343290341
3483576100 -0.254189513963566 -143.113544464881
3507112400 -0.243378985072859 -145.12620296308
3530648700 -0.232312448521749 -147.133013274034
3554185000 -0.221055376158449 -149.134742739023
3577721300 -0.209676155768612 -151.13223177011
3601257600 -0.198245075213702 -153.12639328397
3624793900 -0.186833412920854 -155.118211521682
3648330200 -0.175512638044317 -157.108740414397
3671866500 -0.164353719409539 -159.099101639726
3695402800 -0.153426538987938 -161.090482495871
3718939100 -0.142799403083411 -163.08413370134
3742475400 -0.13253864256042 -165.081367208453
3766011700 -0.122708292211089 -167.083554099676
3789548000 -0.113369838641006 -169.092122617537
3813084300 -0.10458202574676 -171.108556361909
3836620600 -0.0964007068666517 -173.134392672861
3860156900 -0.0888787329220001 -175.171221203188
3883693200 -0.0820658662564326 -177.220682671983
3907229500 -0.0760087103620975 -179.284467779083
3930765800 -0.0707506462064583 178.635683750305
3954302100 -0.0663317664043351 176.537984031275
3977838400 -0.0627887989916816 174.42059784489
4001374700 -0.0601550130349385 172.281643482574
4024911000 -0.0584600987470861 170.11919367688
4048447300 -0.0577300151809666 167.931276695461
4071983600 -0.057986798943385 165.715877684586
4095519900 -0.0592483277379975 163.470940358601
4119056200 -0.0615280329276651 161.194369142454
4142592500 -0.0648345557419754 158.884031885761
4166128800 -0.0691713422854352 156.537763279005
4189665100 -0.0745361731780174 154.153369115068
4213201400 -0.0809206245423583 151.728631552347
4236737700 -0.0883094582108988 149.261315548745
4260274000 -0.096679940539935 146.749176648437
4283810300 -0.106001091172227 144.189970314765
4307346600 -0.116232865577158 141.581463012008
4330882900 -0.127325278310315 138.921445244954
4354419200 -0.139217477760928 136.207746766627
4377955500 -0.151836787770133 133.438254159448
4401491800 -0.165097736952879 130.61093098136
4425028100 -0.178901102846939 127.723840643521
4448564400 -0.193133005085155 124.775172147364
4472100700 -0.207664089496446 121.763268753095
4495637000 -0.222348853126982 118.686659576222
4519173300 -0.237025168233759 115.544094010629
4542709600 -0.251514070770782 112.33457875407
4566245900 -0.26561988501335 109.057417063588
4589782200 -0.279130759816912 105.71224969502
4613318500 -0.291819692492893 102.299096785276
4636854800 -0.303446112213622 98.8183997243761
4660391100 -0.313758085036489 95.2710618457793
4683927400 -0.322495186011662 91.658486551753
4707463700 -0.329392059682735 87.982611302688
4731000000 -0.334182658431309 84.2459357563073
