!Keysight Technologies N9923A: A.08.19
!Date: Thursday, 16 January 2020 11:30:00
!TimeZone: (GMT-03:00) Brasilia!Model: N9923A
!Serial: MY51491501
!GPS Latitude: 
!GPS Longitude: 
!GPS TimeStamp: 0001-01-01 00:00:00Z
!GPS Seconds Since Last Read: 0
!CHECKSUM:1078980270
!Correction: S11(ON U)
!S1P File: Measurement: S11:
# Hz S DB R 50
23740000 0.005242351489212 -0.471031932158075
47276300 0.00685140910735202 -1.05953572040175
70812600 -0.0522534612050791 -2.33353124364337
94348900 -0.146935225473824 0.715007541405262
117885200 -0.0470735711839439 -0.500291523536262
141421500 -0.0362805296881236 -1.0286684525827
164957800 -0.0551025359411804 -1.42086905270737
188494100 -0.170020547677409 -1.81200683351102
212030400 -1.09284070198695 -2.37925783509739
235566700 -8.75102544695737 2.93762820858507
259103000 -1.01723694997744 -0.763467104576648
282639300 -0.25747713654632 -1.65430299976364
306175600 -0.409147575257646 -2.02415948669
329711900 -1.03892688414528 -2.31171699695369
353248200 -2.95456196711082 -2.44244797965524
376784500 -2.75816675128408 -2.43138804280622
400320800 -5.9978594931823 -2.59070741589193
423857100 -0.986755103214664 -2.3380536073275
447393400 -0.97591135301681 -2.62845073558234
470929700 -1.8950272307448 -2.77316779999238
494466000 -2.01491819262666 -2.7750463152198
518002300 -1.53256531885412 -2.90791485656985
541538600 -3.07505499151442 3.13511184798321
565074900 -2.91993811973366 -2.81745203971834
588611200 -2.62885094814415 -3.02225118477251
612147500 -3.12487376627202 -2.95545580670837
635683800 -1.68515878477776 -2.9901123016911
659220100 -1.26814950965581 -3.13872117252582
682756400 -1.33684392370955 3.0295712561119
706292700 -1.43771566801442 2.94173067666992
729829000 -1.36748774292607 2.87667349568685
753365300 -1.02699735251541 2.89279123896774
776901600 -2.10268951921161 2.96051410713642
800437900 -1.80962918250384 2.8928127261072
823974200 -1.51016414153428 2.81485392954766
847510500 -1.22932358369598 2.71699842948485
871046800 -1.14188175313041 2.57801657714412
894583100 -2.12721706119143 2.40928644635915
918119400 -3.86063176944053 2.48900635662016
941655700 -3.27586201130869 2.62594514323834
965192000 -1.93228800880989 2.60927065414466
988728300 -1.23350447175235 2.46435740333279
1012264600 -1.38856600445099 2.2962721197063
1035800899 -3.0078977861324 2.12773569860487
1059337200 -5.18113017627988 2.46820516744985
1082873500 -2.14160365819899 2.53649030867166
1106409800 -1.05094234841595 2.3834909741838
1129946100 -0.735586297104567 2.23938359921285
1153482400 -0.795312380910537 2.1003736015413
1177018700 -1.29728287428856 1.95778487116553
1200555000 -2.88621947592279 1.83348221837592
1224091300 -4.98626040718269 2.15455211239623
1247627600 -1.77205529408791 2.20895299402017
1271163900 -0.919665428509855 2.03439010500265
1294700200 -0.905534954147631 1.88494802532207
1318236500 -1.52633603535738 1.74872309349556
1341772800 -3.35326996120795 1.75431261669657
1365309100 -2.1413304859429 1.96463813281613
1388845400 -0.889581019500125 1.84615542073053
1412381700 -0.593905240386843 1.72180272186561
1435918000 -0.598548724281429 1.61177094065491
1459454300 -0.870576890606923 1.50421395364193
1482990600 -1.83964885742172 1.43350548147357
1506526900 -1.9456755480689 1.55601069580452
1530063200 -0.95744163374521 1.50069670453993
1553599500 -0.664657697808363 1.40637436603432
1577135800 -0.600652484762774 1.3183089710939
1600672100 -0.700110271943732 1.22987640706519
1624208400 -1.17697983293828 1.16212070213292
1647744700 -1.27892432950924 1.17791054538803
1671281000 -0.891704454879243 1.12804987779528
1694817300 -0.810258119166521 1.06034730465632
1718353600 -0.788325318179913 1.00057361140657
1741889900 -0.773062655405763 0.943648762446854
1765426200 -0.754427316472014 0.889522525388461
1788962500 -0.688991187524188 0.838517329459487
1812498800 -0.54342189944045 0.776057706780833
1836035100 -0.537589066240404 0.70493383835189
1859571400 -0.570797324456667 0.64363467665142
1883107700 -0.580673171526891 0.586681733817624
1906644000 -0.579533140690939 0.534339275013954
1930180300 -0.659299968051114 0.481940790502331
1953716600 -0.689942057216796 0.419642204755791
1977252900 -0.683907830393412 0.360745513917269
2000789199 -0.676754734578068 0.303538745221879
2024325500 -0.670467602902063 0.247071400919997
2047861800 -0.664688687789196 0.191084213643864
2071398100 -0.659148731179658 0.135508771698689
2094934400 -0.653725915554745 0.080338859525166
2118470700 -0.648382830758608 0.0255921489432773
2142007000 -0.64312611414472 -0.0287035509533759
2165543300 -0.637984845292141 -0.0825160919798558
2189079600 -0.632998961987008 -0.135811795681383
2212615900 -0.628212823748456 -0.188556987007433
2236152200 -0.623671489678646 -0.240718918683937
2259688500 -0.619418493693417 -0.292266371098999
2283224800 -0.615494490125114 -0.343170060053265
2306761100 -0.611936433760719 -0.393402918759681
2330297400 -0.608777106190909 -0.442940290055717
2353833700 -0.606044877796915 -0.491760050005659
2377370000 -0.60376363658785 -0.539842676557976
2400906300 -0.60316331381733 -0.58776996948572
2424442600 -0.614319801898013 -0.641911186250837
2447978900 -0.620176656289039 -0.694720737287635
2471515200 -0.621694556940722 -0.746277240271354
2495051500 -0.61970203838381 -0.796659496964203
2518587800 -0.614909498864061 -0.845945129847645
2542124100 -0.607922691161613 -0.894209576090565
2565660400 -0.59925537588384 -0.94152537548326
2589196700 -0.589340956323085 -0.987961695354932
2612733000 -0.578543014438723 -1.03358404305579
2636269300 -0.56716473726421 -1.07845412432354
2659805600 -0.555457268851092 -1.12262981316799
2683341900 -0.543627050670869 -1.16616520547981
2706878200 -0.531842228064981 -1.2091107342701
2730414500 -0.52023820566987 -1.25151332926266
2753950800 -0.508922433608412 -1.29341660754199
2777487100 -0.497978500692138 -1.3348610851877
2801023400 -0.487469602336943 -1.37588440238769
2824559700 -0.477441440259931 -1.41652155649718
2848096000 -0.467924598808135 -1.4568051389547
2871632300 -0.458936429189117 -1.49676557290609
2895168600 -0.450482457960721 -1.53643134880826
2918704900 -0.442557319854911 -1.57582925511344
2942241200 -0.435145197433848 -1.61498460022802
2965777500 -0.428219731681282 -1.65392142005623
2989313800 -0.421743349801492 -1.69266266221588
3012850100 -0.415665942363049 -1.73123033295099
3036386400 -0.409922817753483 -1.76964558523703
3059922700 -0.404431879234605 -1.80792871591542
3083459000 -0.399090028473716 -1.84609902547042
3106995300 -0.393768930726301 -1.88417447668233
3130531600 -0.388310526278897 -1.92217107030979
3154067900 -0.382523096380909 -1.96010184377196
3177604200 -0.376179338007946 -1.99797540627282
3201140500 -0.369018761703084 -2.0357939748715
3224676800 -0.360757637038103 -2.07355100451698
3248213100 -0.351110209859268 -2.11122874402297
3271749400 -0.339824134649423 -2.14879639966074
3295285700 -0.326729866601476 -2.18620995931193
3318822000 -0.311797464404154 -2.22341488973491
3342358300 -0.295186056835361 -2.2603525221367
3365894600 -0.277265376837313 -2.29696975424206
3389430900 -0.258591441809971 -2.33322998153542
3412967200 -0.239832911040986 -2.36912185943986
3436503500 -0.22166572758485 -2.40466270189282
3460039800 -0.204668734206162 -2.43989530474489
3483576100 -0.189251649201487 -2.47487965751465
3507112400 -0.175630419284986 -2.5096827342546
3530648700 -0.163845055429776 -2.54436951088773
3554185000 -0.153802827616087 -2.57899702154416
3577721300 -0.145328330013137 -2.61361171712455
3601257600 -0.138207565607821 -2.64824938790425
3624793900 -0.132220351991218 -2.682936602997
3648330200 -0.127160655722753 -2.71769276629886
3671866500 -0.122847146856178 -2.75253219902483
3695402800 -0.119126969888673 -2.78746594800149
3718939100 -0.115875385512717 -2.82250321845768
3742475400 -0.112993242257799 -2.85765244118629
3766011700 -0.110403557208751 -2.89292203229531
3789548000 -0.108047957665385 -2.92832091565063
3813084300 -0.105883376402643 -2.96385887244614
3836620600 -0.103879170462311 -2.99954677032425
3860156900 -0.102014706567479 -3.03539671179075
3883693200 -0.100277390839738 -3.07142213069082
3907229500 -0.0986610916903723 -3.10763785688834
3930765800 -0.0971648962869626 3.13912514428876
3954302100 -0.0957921429062423 3.10247850559051
3977838400 -0.094549678009835 3.06558826608197
4001374700 -0.0934472948802246 3.02843360667256
4024911000 -0.0924973185389743 2.99099211828533
4048447300 -0.0917143087271789 2.95323975822292
4071983600 -0.0911148587197929 2.91515080119957
4095519900 -0.0907174726678302 2.87669778477361
4119056200 -0.0905425081183904 2.83785144922803
4142592500 -0.090612173488457 2.79858067218304
4166128800 -0.0909505727023644 2.75885239842389
4189665100 -0.0915837910647885 2.71863156561631
4213201400 -0.0925400178298985 2.67788102678329
4236737700 -0.0938497019179546 2.63656147064532
4260274000 -0.0955457378761514 2.59463134119795
4283810300 -0.0976636795134465 2.55204675822641
4307346600 -0.100241978674001 2.50876144085117
4330882900 -0.103322246347807 2.46472663667268
4354419200 -0.106949532731851 2.41989105965004
4377955500 -0.111172621918434 2.37420084052202
4401491800 -0.116044335552119 2.32759949436956
4425028100 -0.121621838005878 2.28002791084056
4448564400 -0.127966933311758 2.23142437361808
4472100700 -0.135146341168953 2.18172461691787
4495637000 -0.143231935768985 2.13086192814869
4519173300 -0.152300926860751 2.07876730734709
4542709600 -0.162435957388798 2.0253696955814
4566245900 -0.173725086182325 1.97059628616104
4589782200 -0.186261617628923 1.91437293411205
4613318500 -0.200143733225294 1.85662468088027
4636854800 -0.215473872703431 1.79727641244552
4660391100 -0.232357805643906 1.73625366976747
4683927400 -0.250903328940997 1.67348363046918
4707463700 -0.27121852234337 1.60889627956655
4731000000 -0.29340949510112 1.54242578447445
