!Keysight Technologies N9923A: A.08.19
!Date: Thursday, 16 January 2020 11:30:00
!TimeZone: (GMT-03:00) Brasilia!Model: N9923A
!Serial: MY51491501
!GPS Latitude: 
!GPS Longitude: 
!GPS TimeStamp: 0001-01-01 00:00:00Z
!GPS Seconds Since Last Read: 0
!CHECKSUM:1078980270
!Correction: S11(ON U)
!S1P File: Measurement: S11:
# Hz S DB R 50
21660000 -0.00126730687490419 -41.6885891995204
43316700 -0.104083860312219 92.8213586611258
64973400 -0.115001721265392 -17.5285828430629
86630100 -0.0217964495835031 -51.1513195957262
108286800 -0.184935546802249 -106.944549620864
129943499 -0.765571099895972 -23.906111741814
151600200 -0.101374961828116 -66.0307732639409
173256900 -0.195717703094324 -96.1770248064981
194913600 -13.713067552026 65.453581095026
216570300 -0.734769105949908 -75.8267227628997
238227000 -0.231692605088147 -104.785948314669
259883700 -2.10167062335131 -138.258435821413
281540400 -3.98190593258094 -96.2163509232657
303197100 -0.471805933737206 -114.215026063543
324853800 -0.910651655356527 -135.892178727857
346510500 -4.02709068758905 -127.450829876072
368167200 -2.17092717587504 -124.393001525657
389823900 -0.779180511383825 -142.250399637029
411480600 -3.12037495802557 -148.846145695545
433137300 -1.81103666154972 -147.443197318398
454794000 -1.34639530559677 -149.380926997539
476450700 -2.05699470763075 -160.850196822631
498107400 -1.50826803784123 -156.186380217641
519764099 -1.54361851980519 -166.634920101446
541420800 -1.88734065601881 -168.8930397714
563077500 -1.85261926702616 -164.793624760802
584734200 -0.902778922406365 -174.08700869918
606390900 -2.01893827917265 176.35622421636
628047600 -2.56279334405674 -173.91642308676
649704300 -0.904926143384155 -179.521420330109
671361000 -1.01249879623782 168.824152963915
693017700 -3.95009078911703 170.254375025688
714674400 -1.13039456664107 175.893564951244
736331100 -0.749246549348368 164.321468443045
757987800 -1.92329922488735 152.042049337499
779644500 -2.35539402955976 174.325758041585
801301200 -0.756739282887151 160.303627784712
822957900 -1.21926050960787 148.823480750805
844614600 -4.70790502782596 152.490630936501
866271300 -0.886508484462098 157.599656734819
887928000 -0.915689165045432 145.21755517322
909584700 -2.47758048639415 136.890378212363
931241400 -2.2208368613764 156.304061507563
952898100 -0.809941358980284 141.822942359637
974554800 -1.6745467748387 132.135608483604
996211500 -3.4353992744104 137.466191775121
1017868199 -1.12371970989446 139.953138532593
1039524900 -1.28468889028049 128.014127225283
1061181600 -2.62431992065012 126.117366064845
1082838300 -2.0658170550485 133.516539992829
1104495000 -1.17498463281366 124.23157371469
1126151700 -2.13016093034103 118.906314708786
1147808400 -2.25721630294609 122.812468931343
1169465100 -1.57276081892184 121.020603315308
1191121800 -1.60175745350838 118.304125032172
1212778500 -1.61804368489645 115.540218621915
1234435200 -1.62005686973266 112.745058855055
1256091900 -1.60651936961967 109.94247036738
1277748600 -1.57704497202588 107.166085819524
1299405300 -1.53322029053292 104.460056291321
1321062000 -1.48021129776427 101.87505013657
1342718700 -1.42844357929743 99.4544315604798
1364375400 -1.39385523925966 97.2073565866691
1386032100 -1.39439544001273 95.0773286344271
1407688800 -1.44219565609212 92.9334970459521
1429345500 -1.53597033137088 90.6097573465487
1451002200 -1.66056910377322 87.9730641433397
1472658900 -1.79419548272535 84.9666930777241
1494315600 -1.91635786079143 81.6030729472609
1515972300 -2.01101450859351 77.9305523847506
1537629000 -2.06527178716385 74.0064345851489
1559285700 -2.0670539519038 69.8869675453157
1580942400 -2.00592610589932 65.6293301564245
1602599100 -1.88113308239229 61.3113346820352
1624255800 -1.71047751761992 57.0918787166313
1645912500 -1.52049050158131 53.2082577351474
1667569200 -1.33346015502477 49.794484612255
1689225900 -1.16847390432554 46.7901232248465
1710882600 -1.03746860256888 44.0338815960765
1732539300 -0.941565204375656 41.3694814761471
1754196000 -0.874474440226954 38.6928401632451
1775852700 -0.827786604761472 35.9528564828771
1797509400 -0.794170115289299 33.1341392241168
1819166100 -0.7683588547733 30.2400035521159
1840822800 -0.747005826167139 27.2813471029555
1862479500 -0.728200797150893 24.2707727839861
1884136200 -0.711004384737227 21.219979437797
1905792900 -0.695096679756922 18.1388599032127
1927449600 -0.680538783371363 15.0353847357239
1949106300 -0.66761959925515 11.9157985650635
1970763000 -0.656760551436101 8.78490876078699
1992419700 -0.648457685790286 5.64637355675692
2014076400 -0.64324723383774 2.50295649999532
2035733099 -0.641685642332183 -0.643259888564149
2057389800 -0.644338381066854 -3.79069816537737
2079046500 -0.651773962312022 -6.93814152671977
2100703200 -0.664560934651023 -10.0846144960111
2122359900 -0.683266439652545 -13.2292832390565
2144016600 -0.708455432651942 -16.3713711713116
2165673300 -0.740689990183345 -19.5100866358438
2187330000 -0.7805283318714 -22.6445603925626
2208986700 -0.828523320541196 -25.7737914491628
2230643400 -0.870717073534901 -28.8370422508362
2252300100 -0.857946488443393 -31.6394871198494
2273956800 -0.849992028632635 -34.4276389593471
2295613500 -0.847199170994687 -37.1954284453769
2317270200 -0.849792973895329 -39.9360211181319
2338926900 -0.857835163560488 -42.6419043296311
2360583600 -0.871179077412074 -45.3050659458284
2382240300 -0.889426990924477 -47.9172836920608
2403897000 -0.911896244029459 -50.4705346787566
2425553700 -0.937602085694481 -52.9575178454687
2447210400 -0.965265593209263 -55.3722581199315
2468867100 -0.993353657288044 -57.7107331225164
2490523800 -1.02015434360062 -59.9714377681559
2512180500 -1.04388503788715 -62.1557882231365
2533837200 -1.06282364652459 -64.268273295485
2555493900 -1.07544661911927 -66.3162930299445
2577150600 -1.08055389999785 -68.3096773846916
2598807300 -1.07736176414302 -70.259939659559
2620464000 -1.06555008649843 -72.1793717602437
2642120700 -1.04525944209647 -74.0801152706852
2663777400 -1.01704286885321 -75.9733364742777
2685434100 -0.981784432415095 -77.8685994528392
2707090800 -0.940600244102552 -79.7734825298937
2728747500 -0.89473714140737 -81.693435212299
2750404200 -0.845480921658584 -83.6318371100394
2772060900 -0.794081422003411 -85.5902018886304
2793717600 -0.741697293158516 -87.5684666948392
2815374300 -0.689359900810946 -89.565315703181
2837031000 -0.637953696948635 -91.578499766734
2858687700 -0.588209502191017 -93.6051280884092
2880344400 -0.540707097381767 -95.6419196411033
2902001100 -0.495883979134714 -97.6854106779143
2923657800 -0.454047798273137 -99.7321201126316
2945314500 -0.415390678049872 -101.778677404734
2966971200 -0.380004195004662 -103.821918608601
2988627900 -0.347894258216408 -105.858956142438
3010284600 -0.318995441399538 -107.887227145396
3031941300 -0.293184526262708 -109.90452440077
3053598000 -0.270293132054517 -111.90901294291
3075254700 -0.250119362786716 -113.899234758157
3096911400 -0.232438424206102 -115.874103480295
3118568100 -0.21701216599372 -117.83289066247
3140224800 -0.203597504253371 -119.775205044955
3161881500 -0.191953683360526 -121.70096618215
3183538200 -0.18184834855813 -123.610373791862
3205194900 -0.173062421752345 -125.503874199683
3226851600 -0.165393800817395 -127.38212523694
3248508300 -0.158659934023448 -129.245960891072
3270165000 -0.152699352166098 -131.096356894389
3291821700 -0.14737226811935 -132.934398274588
3313478400 -0.142560374200538 -134.761249689656
3335135100 -0.138165980365452 -136.578129147685
3356791800 -0.134110640415095 -138.38628548613
3378448500 -0.130333409648345 -140.186979771856
3400105200 -0.126788867021947 -141.981470595538
3421761900 -0.123445019592465 -143.771003080373
3443418600 -0.120281188664254 -145.556801309515
3465075300 -0.117285957407494 -147.340063799265
3486732000 -0.114455240236086 -149.121961602797
3508388700 -0.111790516095473 -150.903638616875
3530045400 -0.109297251783336 -152.686213675584
3551702100 -0.106983527944989 -154.470784044073
3573358800 -0.1048588695923 -156.258429965734
3595015500 -0.102933274811206 -158.050219962959
3616672200 -0.101216429516931 -159.847216640364
3638328900 -0.0997170923679952 -161.650482787074
3659985600 -0.0984426319018089 -163.461087618984
3681642300 -0.0973986972486025 -165.280113041612
3703299000 -0.0965890040848261 -167.108659848466
3724955700 -0.0960152185112554 -168.947853798521
3746612400 -0.0956769230423039 -170.798851539711
3768269100 -0.0955716506766112 -172.662846363561
3789925800 -0.0956949749365413 -174.541073789758
3811582500 -0.0960406457064943 -176.434816989188
3833239200 -0.0966007625919971 -178.345412060193
3854895900 -0.0973659793152419 179.725746823875
3876552600 -0.0983257343312868 177.777202376971
3898209300 -0.0994685043810879 175.807429255087
3919866000 -0.100782079092709 173.814829189312
3941522700 -0.102253856007519 171.797726188209
3963179400 -0.103871156554514 169.754361807309
3984836100 -0.105621564536286 167.682890491994
4006492800 -0.107493289635706 165.581375010301
4028149499 -0.109475559313532 163.447782004403
4049806200 -0.111559043248527 161.279977703852
4071462900 -0.113736315173783 159.075723860534
4093119599 -0.116002357577651 156.8326739849
4114776300 -0.118355115248132 154.548369985908
4136433000 -0.12079610401698 152.220239343646
4158089699 -0.123331081260848 149.845592974221
4179746400 -0.125970784681088 147.421623981748
4201403100 -0.128731745529465 144.94540753248
4223059799 -0.131637181668215 142.413902131645
4244716500 -0.134717974514142 139.823952634486
4266373200 -0.138013731852114 137.172295379291
4288029899 -0.141573935512194 134.455565891135
4309686600 -0.145459168753217 131.670309669633
4331343300 -0.149742412619937 128.812996640202
4353000000 -0.1545103932584 125.88003991302
