!Keysight Technologies N9923A: A.08.19
!Date: Thursday, 16 January 2020 11:30:00
!TimeZone: (GMT-03:00) Brasilia!Model: N9923A
!Serial: MY51491501
!GPS Latitude: 
!GPS Longitude: 
!GPS TimeStamp: 0001-01-01 00:00:00Z
!GPS Seconds Since Last Read: 0
!CHECKSUM:1078980270
!Correction: S11(ON U)
!S1P File: Measurement: S11:
# Hz S DB R 50
23740000 0.00275545786708333 -25.7079413582591
47276300 0.00222623374080082 -59.5167503867349
70812600 -0.0832120945049067 -152.801444840372
94348900 -0.0856909500721322 15.4653852483771
117885200 -0.0427885814751707 -34.5389863591187
141421500 -0.0274215978705889 -59.4304733220666
164957800 -0.0345051534041618 -79.0634135748533
188494100 -0.0787498113405286 -99.4088606259973
212030400 -0.43721705172067 -134.71733390506
235566700 -2.17002473950425 1.49565710377154
259103000 -0.117139302658744 -84.7491594709781
282639300 -0.0972611258796219 -106.02494763423
306175600 -0.116942582741412 -120.110582158214
329711900 -0.231208562883774 -133.135829135179
353248200 -0.731209254911896 -149.633426931455
376784500 -7.57822215827651 169.429065688049
400320800 -1.08116269548133 -115.632684491456
423857100 -0.224668111519136 -138.294666565232
447393400 -0.230813359950743 -150.227916950108
470929700 -0.423077863607919 -160.194201885374
494466000 -0.973898136172114 -171.020657091246
518002300 -3.44200529577653 176.598353602344
541538600 -4.35344304356924 -144.445317249503
565074900 -0.699983957862128 -158.701450217014
588611200 -0.340528743973227 -172.049065687897
612147500 -0.676642930347959 177.688145057543
635683800 -1.53115928550637 169.678811281455
659220100 -2.99021801208593 166.34018342122
682756400 -4.15345487784761 176.572860361761
706292700 -1.64761212640043 -177.94789278491
729829000 -0.728630543350849 167.941249766411
753365300 -1.23290442078116 158.443939035523
776901600 -1.78919816061201 152.857064102872
800437900 -0.827874468451817 138.738083162362
823974200 -4.17782243058631 167.934910869694
847510500 -2.25565071649532 157.629188427326
871046800 -1.60102246215558 152.092226739147
894583100 -1.24225427308537 144.25351665169
918119400 -2.54077550005245 136.615177297108
941655700 -3.01265219632896 144.272681582266
965192000 -2.28784921789633 145.679109923955
988728300 -1.63224898525258 143.699173041707
1012264600 -0.969851779273313 138.890336808995
1035800899 -1.28564764461922 128.295345501564
1059337200 -2.31344348147315 130.817152498652
1082873500 -2.01834235481376 131.995540471805
1106409800 -1.70096302393686 130.456051830875
1129946100 -1.42269275704888 127.900565311931
1153482400 -1.09634002112267 123.869744736027
1177018700 -1.80437285533713 116.650382138284
1200555000 -1.84918912101473 118.955212702213
1224091300 -1.69625381503034 116.768594438986
1247627600 -1.66001728480391 113.982847016983
1271163900 -1.68746492801744 111.078900023035
1294700200 -1.75954266378697 108.160751984348
1318236500 -1.86752081490772 105.271818895225
1341772800 -2.00614288664814 102.438569703843
1365309100 -2.11303948511407 99.6124478428315
1388845400 -2.19944402718819 96.320139229108
1412381700 -2.24602418681997 92.4064750006123
1435918000 -2.18944942606907 88.0977201988264
1459454300 -2.01544273456427 83.9453266853545
1482990600 -1.7801817823381 80.3417888814598
1506526900 -1.54866583835447 77.2637879230106
1530063200 -1.35170943197147 74.4986080089556
1553599500 -1.19329601741867 71.863772919434
1577135800 -1.06752680693127 69.255072526406
1600672100 -0.967333508638179 66.6245753381126
1624208400 -0.887078209992151 63.9551158813705
1647744700 -0.822803234537276 61.244681891389
1671281000 -0.771878236251087 58.4983985359164
1694817300 -0.73260749964379 55.7246482080907
1718353600 -0.703926632723178 52.9331698608922
1741889900 -0.685192571567744 50.1340002780572
1765426200 -0.676044794677584 47.3366595006827
1788962500 -0.676315463695959 44.5492272360302
1812498800 -0.68596859523793 41.7770532373214
1836035100 -0.705044988892963 39.0208870279963
1859571400 -0.733575335356359 36.2742874812028
1883107700 -0.771395590657388 33.5204065356765
1906644000 -0.817764520766628 30.7288283052685
1930180300 -0.87068756215697 27.854272501434
1953716600 -0.926002478867468 24.8404210950156
1977252900 -0.976701179457831 21.6324208675797
2000789199 -1.01349023742288 18.1977650076449
2024325500 -1.0274344587208 14.5462990394626
2047861800 -1.0139011432013 10.7338995340933
2071398100 -0.975122387605997 6.84336789936506
2094934400 -0.91928496384242 2.95541201719527
2118470700 -0.857015171620008 -0.870943721359625
2142007000 -0.797872013724347 -4.60180168633521
2165543300 -0.748507451004427 -8.22208806779163
2189079600 -0.712465464407501 -11.7277116743725
2212615900 -0.69084430571053 -15.1199923402642
2236152200 -0.683154273484054 -18.4026060804882
2259688500 -0.688040879091691 -21.5801388078363
2283224800 -0.703786749802339 -24.6574428215162
2306761100 -0.728617021944593 -27.6393436557055
2330297400 -0.760863501774371 -30.5304950686306
2353833700 -0.799038873442346 -33.3353032161589
2377370000 -0.841858648953134 -36.0578899623767
2400906300 -0.890390633096447 -38.7009258393515
2424442600 -0.959454739776663 -41.3089907580077
2447978900 -1.01536097066 -43.934444882662
2471515200 -1.05860269772003 -46.5647841684408
2495051500 -1.0899918712725 -49.1889678697244
2518587800 -1.1105670500783 -51.7977358032608
2542124100 -1.12150014042172 -54.3837114052633
2565660400 -1.12401140158407 -56.941325993335
2589196700 -1.11929818853177 -59.4666137317365
2612733000 -1.10847892794758 -61.9569285936611
2636269300 -1.09255056672632 -64.4106286040268
2659805600 -1.07235533567165 -66.8267641749721
2683341900 -1.04855096759727 -69.2048017421783
2706878200 -1.02157726777256 -71.5444168608114
2730414500 -0.991611255966296 -73.8454099412331
2753950800 -0.958504220556472 -76.1078439556953
2777487100 -0.921701124321783 -78.3325896257297
2801023400 -0.880166429646156 -80.5225859971291
2824559700 -0.832400588619178 -82.6851898459548
2848096000 -0.776745027894051 -84.8356325538275
2871632300 -0.712277144918019 -87.0000297486697
2895168600 -0.640376283225793 -89.2132248720974
2918704900 -0.566037783534264 -91.5056097615615
2942241200 -0.496925826703755 -93.8825599919998
2965777500 -0.4396530351377 -96.3159916625908
2989313800 -0.39648095652751 -98.7607445286446
3012850100 -0.365481313556261 -101.179271199973
3036386400 -0.342973189948355 -103.5527654454
3059922700 -0.325555067557756 -105.877884450363
3083459000 -0.310850347710778 -108.15926199988
3106995300 -0.297450692214685 -110.403997834405
3130531600 -0.284622670523871 -112.618951784264
3154067900 -0.272039332865104 -114.809818116439
3177604200 -0.259596970993411 -116.981022005692
3201140500 -0.247304887941612 -119.135905899042
3224676800 -0.235223518908911 -121.276972916006
3248213100 -0.223431307331606 -123.406104464464
3271749400 -0.212007763585509 -125.524732241076
3295285700 -0.2010253304471 -127.633967272922
3318822000 -0.190545915950407 -129.734694634145
3342358300 -0.180619827659666 -131.827642534821
3365894600 -0.171285889058459 -133.913432863865
3389430900 -0.162572092979877 -135.992618496284
3412967200 -0.154496458722661 -138.065711200824
3436503500 -0.147067927341611 -140.133202873521
3460039800 -0.140287219129187 -142.195582023
3483576100 -0.134147624407492 -144.253346869629
3507112400 -0.128635723005701 -146.307016026505
3530648700 -0.12373203987981 -148.357137454903
3554185000 -0.119411650051176 -150.40429619325
3577721300 -0.115644748550416 -152.449121220972
3601257600 -0.112397202041466 -154.492291718519
3624793900 -0.109631099141265 -156.534542909722
3648330200 -0.107305316551862 -158.576671613421
3671866500 -0.105376118115755 -160.619541581561
3695402800 -0.103797803739714 -162.664088655953
3718939100 -0.102523424617638 -164.711325732274
3742475400 -0.101505580009378 -166.762347475264
3766011700 -0.100697308577082 -168.818334682352
3789548000 -0.100053083417086 -170.880558143933
3813084300 -0.0995299138467907 -172.950381798967
3836620600 -0.0990885480783946 -175.029264938009
3860156900 -0.0986947585712991 -177.118763168235
3883693200 -0.0983206757678663 -179.220527835626
3907229500 -0.0979461162027104 178.663696390096
3930765800 -0.0975598284972523 176.532076007628
3954302100 -0.0971605574255481 174.382695379792
3977838400 -0.0967578052974589 172.213565574645
4001374700 -0.0963721559743458 170.022635032772
4024911000 -0.0960350256598935 167.807801411163
4048447300 -0.095787722284907 165.566923580376
4071983600 -0.0956797368869243 163.297832382208
4095519900 -0.0957662580239191 160.99833845917
4119056200 -0.0961049912213875 158.666235326291
4142592500 -0.0967524707046628 156.299295949018
4166128800 -0.0977601548831611 153.895261470122
4189665100 -0.099170680647568 151.451821396432
4213201400 -0.101014694834016 148.966585450328
4236737700 -0.103308669831272 146.4370482857
4260274000 -0.106054040171431 143.860549196653
4283810300 -0.109237876818121 141.234229641917
4307346600 -0.112835166187054 138.554991745045
4330882900 -0.116812608896034 135.819460865658
4354419200 -0.121133725695084 133.023954916725
4377955500 -0.125764974643925 130.164462449086
4401491800 -0.130682552580056 127.236630798289
4425028100 -0.135879571336262 124.235764947822
4448564400 -0.141373351643656 121.156837325429
4472100700 -0.147212646868 117.994508575952
4495637000 -0.153484676011062 114.743159446809
4519173300 -0.160321895176077 111.396934235701
4542709600 -0.167908458105467 107.949796709958
4566245900 -0.176486303501467 104.395599924494
4589782200 -0.18636075782642 100.728171848355
4613318500 -0.197905458549953 96.9414190655055
4636854800 -0.211566288446879 93.0294509492873
4660391100 -0.227863873524013 88.9867265228109
4683927400 -0.247394046336733 84.8082256044024
4707463700 -0.270825529239453 80.4896446926218
4731000000 -0.298893972187721 76.027616277037
