!Keysight Technologies N9923A: A.08.19
!Date: Thursday, 16 January 2020 11:30:00
!TimeZone: (GMT-03:00) Brasilia!Model: N9923A
!Serial: MY51491501
!GPS Latitude: 
!GPS Longitude: 
!GPS TimeStamp: 0001-01-01 00:00:00Z
!GPS Seconds Since Last Read: 0
!CHECKSUM:1078980270
!Correction: S11(ON U)
!S1P File: Measurement: S11:
# Hz S DB R 50
23740000 0.00318230485895776 -25.475663078103
28447260 0.003530097751536 -31.0328429019534
33154520 0.00391522776307648 -36.9317861997298
37861780 0.00425602790904064 -43.3011083835309
42569040 0.00438821662940321 -50.325207489443
47276300 0.00400005616261602 -58.278884026956
51983560 0.00250088845474012 -67.5887481153061
56690820 -0.00126061042371091 -78.9459485297672
61398080 -0.00960956513806338 -93.515741065375
66105340 -0.0272498585293066 -113.302156941684
70812600 -0.0622992707944178 -141.550225158752
75519860 -0.118575923808261 178.197884275316
80227120 -0.165083046318048 128.224244454174
84934380 -0.160185545215469 81.2323295688862
89641640 -0.128218511304294 46.2892985409898
94348900 -0.099797582655266 22.1642180271927
99056160 -0.0810685119178466 5.08388879254634
103763420 -0.0724990518781107 -7.67140542393689
108470680 -0.062425739977299 -17.7202565438268
113177940 -0.0527593959688345 -25.9933473119111
117885200 -0.0446734154917575 -33.0526338403792
122592460 -0.0383470191103855 -39.2523402620046
127299720 -0.0336337697910832 -44.8254681137036
132006980 -0.0303064194591307 -49.9316921805049
136714240 -0.0281462178019585 -54.6848816611992
141421500 -0.0269742794295221 -59.1695790982861
146128760 -0.0266619650377304 -63.451310580511
150836020 -0.0271349590014493 -67.5833658909634
155543280 -0.0283774238419555 -71.6115461101156
160250540 -0.030439741954163 -75.5777863659611
164957800 -0.0334529109016457 -79.5232654815053
169665060 -0.0376537532320775 -83.4914938290622
174372320 -0.04342791407779 -87.5318825482882
179079580 -0.0513833350256745 -91.704452270809
183786840 -0.0624784482836759 -96.0867122716064
188494100 -0.0782536341141477 -100.784521247626
193201360 -0.101268375968341 -105.950374320643
197908620 -0.135973617272626 -111.816123782503
202615880 -0.190569180627604 -118.755382886207
207323140 -0.281259758909223 -127.411255344317
212030400 -0.442758955720896 -138.978885111843
216737660 -0.75523117778554 -155.878186263025
221444920 -1.39996058656449 176.632254261458
226152180 -2.53744999514242 128.21264399634
230859440 -2.91670304209217 57.0515221589018
235566700 -1.81391636911289 -0.910796152696511
240273960 -0.921341420474788 -34.0324423573423
244981220 -0.482687558411034 -53.8549537090081
249688480 -0.281769654686745 -66.9267956485406
254395739 -0.18397424393436 -76.2917522676998
259103000 -0.13401390998104 -83.4670212722994
263810260 -0.107932690097533 -89.2618536795938
268517520 -0.094550879211597 -94.1392738592702
273224780 -0.0883023273706106 -98.3813082177356
277932040 -0.0862828642050843 -102.169360203916
282639300 -0.0869441909933161 -105.625902676439
287346560 -0.0894789162247595 -108.837424615362
292053820 -0.0935175800221559 -111.86776634603
296761080 -0.0989771009341031 -114.766286267323
301468340 -0.105989226503266 -117.573149088114
306175600 -0.114876837808971 -120.322988532135
310882860 -0.126165172328921 -123.047681749485
315590120 -0.14062641961523 -125.778718818667
320297380 -0.159365654399534 -128.549544463066
325004640 -0.183967944182996 -131.398246557355
329711900 -0.216746012925873 -134.371067355291
334419160 -0.261164903389623 -137.527463475587
339126420 -0.322596360605927 -140.947957190084
343833680 -0.409723588661701 -144.747074505822
348540940 -0.537313429080242 -149.095881436647
353248200 -0.732085518421629 -154.263530327181
357955460 -1.04624278061611 -160.698741027308
362662720 -1.59206694312045 -169.201343345246
367369980 -2.64231740766489 178.680506409547
372077240 -4.97273378944706 159.493152600631
376784500 -11.3263804752217 119.358485384413
381491760 -11.9769070119732 -19.7750752253169
386199020 -4.59445685031944 -66.8484434365093
390906280 -2.01410391173065 -89.5076354379335
395613540 -0.975992589319734 -103.728093192165
400320800 -0.519761803723304 -113.432747001388
405028060 -0.314604211711249 -120.484986985089
409735320 -0.226274218212898 -125.862103306634
414442580 -0.19166943601373 -130.132321002373
419149840 -0.179586365918984 -133.661321217447
423857100 -0.175768114998688 -136.69517358514
428564360 -0.174961970102559 -139.398195260635
433271620 -0.176124882886719 -141.877951102662
437978880 -0.179827880777157 -144.204603259904
442686140 -0.187095071173415 -146.424941195073
447393400 -0.199003412842348 -148.571628547871
452100660 -0.216616490149182 -150.668931848106
456807920 -0.241043178443469 -152.736192775938
461515180 -0.273539349668913 -154.789962670173
466222440 -0.315631430312651 -156.845375586494
470929700 -0.369267704150403 -158.917092893876
475636960 -0.437017906576417 -161.019995579637
480344220 -0.522355423718141 -163.169690115335
485051480 -0.630076799363732 -165.382784287519
489758740 -0.76694813144363 -167.67671799398
494466000 -0.942729068652068 -170.068579846156
499173260 -1.17183117557704 -172.571522550975
503880520 -1.47604221097954 -175.185398278023
508587780 -1.88898641349117 -177.873189407519
513295040 -2.46305309635215 179.49839977457
518002300 -3.2778394790693 177.31080457321
522709560 -4.43711708847 176.579692610157
527416820 -5.97672479401527 179.803784350467
532124080 -7.39441078345394 -168.767013153957
536831340 -7.17677553313742 -151.194069561638
541538600 -5.32767064904299 -140.812661957589
546245860 -3.48250619006475 -139.721737772973
550953120 -2.19562241901746 -142.849738753533
555660380 -1.38391900301362 -147.14519227275
560367640 -0.886835557825736 -151.438301969685
565074900 -0.586693335088161 -155.377840074985
569782160 -0.410201139553417 -158.909502242231
574489420 -0.313502359982559 -162.072024173799
579196680 -0.270379510266153 -164.924503821736
583903940 -0.26497454206356 -167.522822190387
588611200 -0.287575936397907 -169.913488907004
593318460 -0.332208304073449 -172.133270864783
598025720 -0.395242525029172 -174.210444524829
602732980 -0.474583668127908 -176.166243059166
607440240 -0.56919131237331 -178.01604723429
612147500 -0.678795563087327 -179.77020265906
616854760 -0.803730890462898 178.565557979268
621562020 -0.944841173211576 176.990102797497
626269280 -1.1034244718153 175.507344963054
630976540 -1.28119000176929 174.127241384844
635683800 -1.48019285520277 172.867511232669
640391060 -1.70269008664661 171.756313671849
645098320 -1.9508148793267 170.836169698777
649805580 -2.22587609486337 170.169313986548
654512840 -2.52693642472372 169.844091640384
659220100 -2.84810564156334 169.980161814412
663927360 -3.17385336470873 170.725501401118
668634620 -3.47223948346913 172.22866610984
673341880 -3.68892067052758 174.5592066208
678049140 -3.75157780005542 177.564168288714
682756400 -3.59843979575651 -179.259489953429
687463660 -3.22487929591451 -176.676811342685
692170920 -2.70364685594452 -175.344105691546
696878180 -2.14761230781817 -175.471178854593
701585440 -1.65193370744934 -176.827150686096
706292700 -1.26577752703517 -178.98331832984
710999960 -0.997877300102464 178.467113170684
715707220 -0.834488699214276 175.814597575862
720414480 -0.754339635913236 173.230624653789
725121740 -0.736774947424038 170.799904621642
729829000 -0.764809859866266 168.554090316617
734536260 -0.825547378750433 166.496221014494
739243520 -0.909584004841465 164.615724365554
743950780 -1.01019679798414 162.896730329744
748658040 -1.1226149903406 161.322316306958
753365300 -1.24345313538103 159.876480201617
758072560 -1.37029728500243 158.544918990476
762779820 -1.50141218441988 157.315214045993
767487080 -1.63553711803139 156.176743398506
772194340 -1.77174435093781 155.12048499885
776901600 -1.97164325792221 154.248295693994
781608860 -2.26616258917708 153.84249684432
786316120 -2.5565129601609 153.86069269125
791023380 -2.83081733285101 154.326929573391
795730640 -3.07328172340184 155.255329025707
800437900 -3.26359907991198 156.632793241116
805145160 -3.37797890774084 158.39460771661
809852420 -3.39305604282388 160.40009548598
814559680 -3.29303930922639 162.424833601363
819266940 -3.07792216683064 164.188578014362
823974200 -2.76795733206346 165.421448624277
828681460 -2.40037145874058 165.940627838961
833388720 -2.01923141106077 165.696002658035
838095980 -1.66391350282164 164.763904956851
842803240 -1.36152075188489 163.301801706663
847510500 -1.1250526616576 161.492978437469
852217760 -0.955887399855449 159.504070487951
856925020 -0.848019744195794 157.463429506484
861632280 -0.79206268529789 155.456999964288
866339540 -0.778111840856638 153.534277412456
871046800 -0.797406189038391 151.717905976447
875754060 -0.843092861880771 150.013190042108
880461320 -0.910446116002477 148.416148197239
885168580 -0.996783655929437 146.920104061489
889875840 -1.10118283910932 145.521301596198
894583100 -1.22397691686494 144.223874657046
899290360 -1.36594250096055 143.043813479292
903997620 -1.52712987183196 142.010534443203
908704880 -1.70549891773289 141.163908034017
913412140 -1.89586296701557 140.545376708216
918119400 -2.08983302030646 140.184949425471
922826660 -2.27711392803119 140.089796898938
927533920 -2.44766598132265 140.240828512437
932241180 -2.59361469231329 140.598989411412
936948440 -2.71001723793155 141.116852562456
941655700 -2.79442027879394 141.748937981374
946362960 -2.84577668419181 142.456796730021
951070220 -2.86335946431791 143.208639673398
955777480 -2.84605228418428 143.975293191213
960484740 -2.79214903773997 144.724432143025
965192000 -2.69969112368688 145.414589026644
969899260 -2.56736112210172 145.990321257688
974606520 -2.39592355063416 146.38041269889
979313780 -2.19004651549158 146.501739796457
984021040 -1.9599949709346 146.271433407296
988728300 -1.72226091751379 145.627706580737
993435560 -1.49806705691445 144.554395045855
998142820 -1.30936441352182 143.098115494385
1002850080 -1.1734721528475 141.366031550249
1007557340 -1.09882246687815 139.501212158341
1012264600 -1.0839233423714 137.646576959663
1016971860 -1.11964701214319 135.914907263006
1021679120 -1.19310344676217 134.375750691348
1026386379 -1.29112171232804 133.058241501738
1031093639 -1.40235309724402 131.962193568683
1035800899 -1.51803248673675 131.070253544836
1040508159 -1.63188607508731 130.357379828761
1045215419 -1.73966300761549 129.796860007455
1049922680 -1.83859283806701 129.363495903438
1054629940 -1.92690931150517 129.034903682456
1059337200 -2.00348278258804 128.791717382506
1064044460 -2.06755791428166 128.617221876999
1068751720 -2.11857831581096 128.496722450502
1073458980 -2.15607921952428 128.416812688095
1078166240 -2.17963415631876 128.364619127617
1082873500 -2.18884766684482 128.327062391177
1087580760 -2.18339158718754 128.290167090462
1092288020 -2.16308641298023 128.238469255264
1096995280 -2.1280306250773 128.154606307068
1101702540 -2.07877802958329 128.019225659752
1106409800 -2.01655391767865 127.81140161573
1111117060 -1.94348320322919 127.509779333508
1115824320 -1.86277803445806 127.094622785971
1120531580 -1.77880499669281 126.550772845165
1125238840 -1.69693834608875 125.871187126493
1129946100 -1.62312840681288 125.060287674404
1134653360 -1.56319033669753 124.135983269992
1139360620 -1.52193653844252 123.129263909055
1144067880 -1.50238210013373 122.080893714502
1148775140 -1.50527239639424 121.035799700382
1153482400 -1.52907962543511 120.036709759798
1158189660 -1.57043764601996 119.1188434557
1162896920 -1.62483414533666 118.306872261261
1167604180 -1.68733214644882 117.614367057975
1172311440 -1.75314775404052 117.045129523388
1177018700 -1.81801009198106 116.595475256594
1181725960 -1.87831418978783 116.256643639873
1186433220 -1.9311223482378 116.016816888263
1191140480 -1.97407844674902 115.86253345771
1195847740 -2.0052888897369 115.779485222167
1200555000 -2.02320776914481 115.752788681769
1205262260 -2.02655030497068 115.76685190324
1209969520 -2.01425024995793 115.804959196698
1214676780 -1.98547311829698 115.848693852075
1219384040 -1.93969571319361 115.877334296503
1224091300 -1.87686044596034 115.867400568045
1228798560 -1.79760638108008 115.792595521225
1233505820 -1.703563047294 115.624460967712
1238213080 -1.59766371210581 115.334106558958
1242920340 -1.48439252528122 114.895285770701
1247627600 -1.36983650173176 114.288786688454
1252334860 -1.26139753691645 113.507524577886
1257042120 -1.16707178095291 112.560995061635
1261749380 -1.09434711149164 111.477267766431
1266456640 -1.04896674010456 110.301006285569
1271163900 -1.03394556244065 109.087316022453
1275871160 -1.0491844973422 107.893013510983
1280578420 -1.09179464574941 106.76806904376
1285285680 -1.15695498743709 105.749714506595
1289992940 -1.23896140890112 104.860294449102
1294700200 -1.33214898194168 104.108382836772
1299407460 -1.43151458996509 103.491825379684
1304114720 -1.53301967539947 103.001336391441
1308821980 -1.63364494915206 102.623724281408
1313529240 -1.73129463180928 102.34433498932
1318236500 -1.82463316913915 102.148670063602
1322943760 -1.91290938975865 102.023320088933
1327651020 -1.99579751209516 101.956405889184
1332358280 -2.0732666484381 101.937702545396
1337065540 -2.1454802316026 101.95857956695
1341772800 -2.21272194506323 102.01184813755
1346480060 -2.27534310462771 102.09157232644
1351187320 -2.33780615337486 101.934967352555
1355894580 -2.40121951992965 101.128146420982
1360601840 -2.45247611892213 100.256721810792
1365309100 -2.49089139537424 99.339862519487
1370016360 -2.51650369497426 98.3956178179332
1374723620 -2.52992220505912 97.4398341381069
1379430880 -2.53215477505923 96.4855720800329
1384138140 -2.5244447868854 95.5429532216952
1388845400 -2.50813478504237 94.6193181538755
1393552660 -2.48456391631385 93.7195712952977
1398259920 -2.45499854863509 92.8466080975606
1402967180 -2.42059111530093 92.0017503093184
1407674440 -2.38236061323515 91.1851442177285
1412381700 -2.34118830519949 90.3960999524794
1417088960 -2.29782317482071 89.6333657702458
1421796220 -2.25289296209591 88.8953406442472
1426503480 -2.20691782542451 88.180233142538
1431210740 -2.16032468355867 87.4861761469796
1435918000 -2.113461051623 86.8113067526463
1440625260 -2.06660772196261 86.1538195998123
1445332520 -2.01998999725569 85.5120004897028
1450039780 -1.97378740658243 84.8842457343536
1454747040 -1.92814196511552 84.2690714417188
1459454300 -1.8831651060184 83.6651158946368
1464161560 -1.83894344171749 83.0711373492613
1468868820 -1.79554351666409 82.4860089332299
1473576080 -1.75301570544497 81.9087118354133
1478283340 -1.71139739528731 81.3383276162298
1482990600 -1.67071557469986 80.7740302021216
1487697860 -1.63098893255616 80.2150779364199
1492405120 -1.59222955562434 79.660805922703
1497112380 -1.55444429797293 79.1106188012956
1501819640 -1.51763588302215 78.5639840337022
1506526900 -1.4818037882327 78.02042572521
1511234160 -1.44694495337569 77.4795189865279
1515941420 -1.41305434581022 76.9408848166602
1520648680 -1.38012540999505 76.4041854780063
1525355940 -1.34815042337573 75.8691203285964
1530063200 -1.31712077663496 75.3354220737485
1534770460 -1.28702719291005 74.802853399091
1539477720 -1.25785989783092 74.2712039480035
1544184980 -1.22960874999928 73.7402876085217
1548892240 -1.20226333971798 73.2099400772207
1553599500 -1.17581306231118 72.680016670288
1558306760 -1.150247171185 72.1503903547321
1563014020 -1.12555481481288 71.6209499753403
1567721280 -1.10172506104607 71.0915986555313
1572428540 -1.07874691151415 70.5622523526062
1577135800 -1.05660930836355 70.0328385500656
1581843060 -1.03530113516212 69.5032950716291
1586550320 -1.01481121345583 68.9735690033707
1591257580 -0.995128296185377 68.4436157119772
1595964840 -0.976241058942853 67.9133979485593
1600672100 -0.958138089863592 67.3828850287106
1605379360 -0.940807878795993 66.8520520806367
1610086620 -0.924238806268115 66.3208793541681
1614793880 -0.908419132667659 65.7893515843517
1619501140 -0.893336987968034 65.2574574040936
1624208400 -0.878980362264181 64.7251888010057
1628915660 -0.865337097324685 64.1925406142165
1633622920 -0.852394879319516 63.6595100674314
1638330180 -0.840141232843605 63.1260963349967
1643037440 -0.828563516323746 62.5923001381272
1647744700 -0.817648918869312 62.0581233688175
1652451960 -0.807384458604329 61.5235687392695
1657159220 -0.797756982499483 60.9886394549394
1661866480 -0.788753167706552 60.4533389095523
1666573740 -0.780359524384148 59.9176704006329
1671281000 -0.772562399992248 59.3816368642843
1675988260 -0.765347985023284 58.8452406281031
1680695520 -0.75870232012924 58.3084831812488
1685402780 -0.752611304597374 57.7713649608036
1690110040 -0.747060706121108 57.2338851536538
1694817300 -0.74203617180772 56.6960415132058
1699524560 -0.737523240360266 56.1578301903193
1704231820 -0.733507355367466 55.6192455778963
1708939080 -0.729973879632733 55.0802801686088
1713646340 -0.7269081104706 54.5409244252866
1718353600 -0.724295295897398 54.0011666635118
1723060860 -0.72212065164108 53.4609929459891
1727768120 -0.7203693788942 52.9203869882733
1732475380 -0.719026682733016 52.3793300754422
1737182640 -0.718077791125164 51.837800989308
1741889900 -0.71750797444795 51.2957759457549
1746597160 -0.717302565439045 50.7532285417852
1751304420 -0.717446979501417 50.2101297118479
1756011680 -0.717926735284103 49.666447693005
1760718940 -0.718727475460715 49.1221479984793
1765426200 -0.719834987627374 48.5771933991053
1770133460 -0.721235225241767 48.0315439121805
1774840720 -0.722914328524778 47.485156797196
1779547980 -0.724858645245716 46.9379865578917
1784255240 -0.727054751311394 46.3899849500577
1788962500 -0.72948947107819 45.8411009944708
1793669760 -0.732149897304624 45.2912809943233
1798377020 -0.735023410659844 44.7404685564665
1803084280 -0.73809769870042 44.1886046157567
1807791540 -0.7413607742242 43.6356274617536
1812498800 -0.744800992905274 43.0814727669831
1817206060 -0.74840707010809 42.5260736159364
1821913320 -0.752168096771643 41.9693605339377
1826620580 -0.756073554245842 41.4112615149719
1831327840 -0.760113327951392 40.8517020475223
1836035100 -0.764277719722012 40.2906051374287
1840742360 -0.768557458672476 39.7278913267398
1845449620 -0.772943710418249 39.1634787074957
1850156880 -0.777428084451297 38.597282929347
1854864140 -0.782002639452226 38.0292171998937
1859571400 -0.786659886290014 37.4591922766093
1864278660 -0.791392788427564 36.8871164492154
1868985920 -0.796194759412668 36.3128955113842
1873693180 -0.801059657089945 35.7364327206838
1878400440 -0.805981774118486 35.1576287457428
1883107700 -0.810955824322298 34.5763815997147
1887814960 -0.815976924335035 33.992586559269
1892522220 -0.821040569926441 33.4061360685414
1897229480 -0.82614260631503 32.8169196277611
1901936740 -0.831279191679004 32.2248236666427
1906644000 -0.836446752975398 31.6297314031254
1911351260 -0.841641933065918 31.0315226886697
1916058520 -0.846861528027729 30.4300738421333
1920765780 -0.852102413399833 29.8252574752633
1925473040 -0.857361457983304 29.2169423141199
1930180300 -0.862635423680226 28.6049930223265
1934887560 -0.867920849727505 27.9892700339934
1939594820 -0.873213919566018 27.369629406534
1944302080 -0.878510308493934 26.7459227064737
1949009340 -0.883805010201228 26.1179969447938
1953716600 -0.889092140290204 25.4856945824468
1958423860 -0.894364714981498 24.8488536314739
1963131120 -0.899614403419763 24.2073078827052
1967838380 -0.904831252371114 23.5608872973473
1972545640 -0.910003382697506 22.9094186068183
1977252900 -0.915116657864142 22.2527261728796
1981960160 -0.920154325958126 21.5906331682153
1986667420 -0.925096638351429 20.9229631457575
1991374680 -0.929920450317181 20.2495420726802
1996081940 -0.934598811691715 19.5702009112688
2000789199 -0.939100559142128 18.8847788326585
2005496459 -0.943389925799084 18.1931271492228
2010203719 -0.947426188947369 17.4951140452434
2014910979 -0.951163382052532 16.7906301710694
2019618239 -0.954550103445684 16.0795951405988
2024325500 -0.957529460134928 15.3619649327218
