!Keysight Technologies N9923A: A.08.19
!Date: Thursday, 16 January 2020 11:30:00
!TimeZone: (GMT-03:00) Brasilia!Model: N9923A
!Serial: MY51491501
!GPS Latitude: 
!GPS Longitude: 
!GPS TimeStamp: 0001-01-01 00:00:00Z
!GPS Seconds Since Last Read: 0
!CHECKSUM:1078980270
!Correction: S11(ON U)
!S1P File: Measurement: S11:
# Hz S DB R 50
21660000 0.00135963599571808 -41.3099207462741
43316700 -0.102446615275122 88.8400721089492
64973400 -0.080155471638465 -18.391644104749
86630100 -0.0161425500260635 -52.0353633297575
108286800 -0.154432268055801 -106.224316803689
129943499 -1.00599382834606 -19.5309921017596
151600200 -0.132733521807748 -63.8494240692518
173256900 -0.210417667103502 -96.0659002812147
194913600 -7.51584355064111 19.9220776110697
216570300 -0.364118066939357 -79.6176240592286
238227000 -0.19741872744285 -105.181654582145
259883700 -1.7420850761831 -134.954068905648
281540400 -4.46200174539545 -104.65607538414
303197100 -0.655830266188824 -112.551210062304
324853800 -1.02866375282375 -137.484187025698
346510500 -4.89586268743133 -121.077518888932
368167200 -1.2711632868019 -122.055736783905
389823900 -0.647545076188532 -141.548769561877
411480600 -2.70996392918388 -148.424263346441
433137300 -1.52727039881192 -148.364571392817
454794000 -1.53626640577919 -151.215725559654
476450700 -2.16475797693105 -162.932307547153
498107400 -1.8062569812119 -156.343515646968
519764099 -2.11924611039286 -164.777048907825
541420800 -1.7386363271337 -167.286879701405
563077500 -1.72813458379507 -164.37670845462
584734200 -0.816278501212353 -173.60370484875
606390900 -1.75836079097667 176.353907928946
628047600 -2.61569774896337 -175.338949799432
649704300 -0.955223975705627 179.866524551645
671361000 -0.991830437039974 168.078016557137
693017700 -3.93970586300062 171.005397420098
714674400 -1.12776658239801 176.390687815596
736331100 -0.742501324433342 164.809693435504
757987800 -2.00676931611565 152.271286805711
779644500 -2.15647201218114 173.979965550115
801301200 -0.727326426572503 160.509097661341
822957900 -1.09302874825142 149.287741805195
844614600 -4.51661443532165 152.648405831669
866271300 -0.900191654655082 157.390584682548
887928000 -0.904345642302136 145.402878518067
909584700 -2.46592047023435 136.620528705196
931241400 -2.42214308844462 157.660269437783
952898100 -0.799292955926761 143.285012731575
974554800 -1.64490719200911 133.675473673021
996211500 -3.13570955135623 141.857182389878
1017868199 -0.84919950423916 138.666836435234
1039524900 -1.20463502746079 127.973975119886
1061181600 -2.51452384023453 125.540513599437
1082838300 -2.33098872776169 134.046474172105
1104495000 -1.22029128117207 125.824515026179
1126151700 -2.21942154893341 120.563957236509
1147808400 -2.20207527288184 126.488732602579
1169465100 -1.26685723435437 123.545969733301
1191121800 -1.39550639274155 121.192224145345
1212778500 -1.4956780446057 118.635583477839
1234435200 -1.5627908582517 115.960102481306
1256091900 -1.59845066612604 113.247032747495
1277748600 -1.60867307170019 110.557184632314
1299405300 -1.60143730290942 107.925027431341
1321062000 -1.58475827211437 105.361781090403
1342718700 -1.56567197019314 102.862031179192
1364375400 -1.54995763853393 100.409817300342
1386032100 -1.54224927889109 97.9824754010975
1407688800 -1.5462381555575 95.5520415470779
1429345500 -1.564751765379 93.0846733506729
1451002200 -1.59953402206533 90.5388558204232
1472658900 -1.65055286321409 87.8637177514233
1494315600 -1.71470922721124 85.0000563280919
1515972300 -1.7841083577742 81.8885611184546
1537629000 -1.84483130551103 78.4902401376955
1559285700 -1.87823989619601 74.8179115637804
1580942400 -1.86672779743229 70.9611499271653
1602599100 -1.80231672845776 67.074251197452
1624255800 -1.69169832094037 63.3183703298949
1645912500 -1.55276609630419 59.7969394264395
1667569200 -1.40579193773669 56.5326430278398
1689225900 -1.26638931183584 53.4892422739332
1710882600 -1.14338438321175 50.60722051051
1732539300 -1.04003824951912 47.8291704757144
1754196000 -0.956165511359443 45.1105494031002
1775852700 -0.889847888147174 42.421009377347
1797509400 -0.83847628211161 39.7417844876024
1819166100 -0.799275670108949 37.0622167256124
1840822800 -0.769527558469964 34.3766179103075
1862479500 -0.746652036344643 31.6817391073154
1884136200 -0.728251615696329 28.9748095981682
1905792900 -0.712175682426946 26.2520909432047
1927449600 -0.696632434502252 23.5079823190475
1949106300 -0.680345230470352 20.7348032226818
1970763000 -0.662718612698864 17.9233862369647
1992419700 -0.643952650754153 15.0644774164985
2014076400 -0.625038461623605 12.1506757741137
2035733099 -0.607596447523066 9.17836727230615
2057389800 -0.593576939071981 6.14901251539599
2079046500 -0.584901412505354 3.06934883193784
2100703200 -0.583145911601803 -0.0495130321508457
2122359900 -0.589343635198896 -3.19371779488202
2144016600 -0.603929976357944 -6.34846958285775
2165673300 -0.626803677437348 -9.49955104578557
2187330000 -0.657453627310286 -12.6343275713725
2208986700 -0.695102748737712 -15.7422264999616
2230643400 -0.727021001070637 -18.8048369027876
2252300100 -0.715364999123264 -21.8127374327436
2273956800 -0.711277286231656 -24.8204361495433
2295613500 -0.715489210351822 -27.8183098618365
2317270200 -0.728507750907591 -30.7949538575614
2338926900 -0.750510643366631 -33.7374145689322
2360583600 -0.7812419160515 -36.6316986942964
2382240300 -0.819926260244905 -39.4635886584171
2403897000 -0.865224784617934 -42.2197348161208
2425553700 -0.915253834325293 -44.8889149456514
2447210400 -0.967680451413635 -47.4632722985707
2468867100 -1.01989280094778 -49.9392963340135
2490523800 -1.06922502298499 -52.3183248276636
2512180500 -1.11319988849763 -54.6064324073402
2533837200 -1.14974591627442 -56.8137079509028
2555493900 -1.17735151165341 -58.9530651086187
2577150600 -1.1951351388171 -61.0388257478406
2598807300 -1.20283111495396 -63.0853358141782
2620464000 -1.20070795952349 -65.1058210939732
2642120700 -1.18944554642426 -67.1115973704648
2663777400 -1.16999784631993 -69.1116535803938
2685434100 -1.14346225857044 -71.1125556318087
2707090800 -1.11096801856907 -73.1185829589919
2728747500 -1.07358790873532 -75.1320058051995
2750404200 -1.03227107353094 -77.153428339046
2772060900 -0.987790407900631 -79.182151612602
2793717600 -0.940695284437286 -81.2165473433633
2815374300 -0.891258891990631 -83.2544837840454
2837031000 -0.839410163219609 -85.2939263678289
2858687700 -0.784648937068184 -87.3339814613838
2880344400 -0.725979110743991 -89.3768897729915
2902001100 -0.66200864113958 -91.4316827248987
2923657800 -0.591633170522438 -93.5195202995558
2945314500 -0.51599986331642 -95.6763815595049
2966971200 -0.441502762081615 -97.9390671241047
2988627900 -0.379633625164924 -100.304683711065
3010284600 -0.338937924182251 -102.706012443892
3031941300 -0.317377356726072 -105.059515115669
3053598000 -0.306330462027125 -107.326641541624
3075254700 -0.298454845074061 -109.513580671102
3096911400 -0.290147290422971 -111.641761026875
3118568100 -0.280369584148911 -113.730256962484
3140224800 -0.269217159968006 -115.791846087255
3161881500 -0.257130262739203 -117.834174846551
3183538200 -0.24457262125217 -119.861603157572
3205194900 -0.23193038524639 -121.876573368785
3226851600 -0.219496117026943 -123.880458222595
3248508300 -0.207480100514158 -125.874052662519
3270165000 -0.19602735037578 -127.857852130456
3291821700 -0.185233257252871 -129.832208721669
3313478400 -0.175156169627361 -131.797418479949
3335135100 -0.165826994805461 -133.753769910027
3356791800 -0.157256370731694 -135.701570555569
3378448500 -0.149439986571291 -137.641161114139
3400105200 -0.142362531813771 -139.572922458634
3421761900 -0.136000640253302 -141.497278639955
3443418600 -0.130325098807353 -143.4146976488
3465075300 -0.125302517185184 -145.325690972791
3486732000 -0.120896600132908 -147.230812555923
3508388700 -0.117069124910564 -149.130657516191
3530045400 -0.11378069874809 -151.025860828844
3551702100 -0.110991351114548 -152.917096094402
3573358800 -0.108661001389439 -154.805074457708
3595015500 -0.106749832286774 -156.690543712646
3616672200 -0.105218591981246 -158.574287608199
3638328900 -0.104028842503175 -160.457125360333
3659985600 -0.103143168030315 -162.339911367592
3681642300 -0.102525353807807 -164.223535124548
3703299000 -0.1021405442878 -166.108921325167
3724955700 -0.101955387495956 -167.99703014702
3746612400 -0.101938171459067 -169.888857706663
3768269100 -0.102058957662559 -171.785436676135
3789925800 -0.102289715873842 -173.687837050171
3811582500 -0.102604464211854 -175.597167053335
3833239200 -0.102979418024499 -177.514574175654
3854895900 -0.103393150923076 -179.441246324507
3876552600 -0.103826771193035 178.621586920629
3898209300 -0.104264116734954 176.672652965514
3919866000 -0.104691971673175 174.710634787432
3941522700 -0.105100307789159 172.734169469736
3963179400 -0.105482553979721 170.741846706977
3984836100 -0.105835896994861 168.732207306535
4006492800 -0.106161616762829 166.703741717022
4028149499 -0.106465459646765 164.65488861884
4049806200 -0.106758052980726 162.584033618297
4071462900 -0.107055364183001 160.489508093658
4093119599 -0.107379207617197 158.369588249583
4114776300 -0.107757802137272 156.222494445603
4136433000 -0.108226381876591 154.046390874762
4158089699 -0.108827862281191 151.839385680278
4179746400 -0.109613562594084 149.599531611135
4201403100 -0.110643984912602 147.324827331888
4223059799 -0.111989648497611 145.013219517423
4244716500 -0.113731976136202 142.662605879985
4266373200 -0.115964226964591 140.270839292886
4288029899 -0.118792467156182 137.835733192659
4309686600 -0.122336566179032 135.355068458158
4331343300 -0.126731201838842 132.826601980365
4353000000 -0.132126851971681 130.248077149107
